Time [s],Packet ID,Address,Data,Read/Write,ACK/NAK
2.954155965,3,0x38,0x00,Write,ACK
2.954260450,3,0x38,0x07,Write,ACK
2.954569025,4,0x39,0x0D,Read,ACK
2.954674820,4,0x39,0x0F,Read,ACK
2.954780425,4,0x39,0xC7,Read,NAK
2.956969260,6,0x38,0x00,Write,ACK
2.957073745,6,0x38,0x22,Write,ACK
2.957293700,7,0x39,0x0D,Read,ACK
2.957417480,7,0x39,0x0D,Read,ACK
2.957522900,7,0x39,0x3C,Read,NAK
2.960258130,9,0x38,0x00,Write,ACK
2.960451295,9,0x38,0x07,Write,ACK
2.960671255,10,0x39,0x0D,Read,ACK
2.960777045,10,0x39,0x0F,Read,ACK
2.960882655,10,0x39,0xC7,Read,NAK
2.962794075,12,0x38,0x00,Write,ACK
2.962971315,12,0x38,0x22,Write,ACK
2.963191270,13,0x39,0x0D,Read,ACK
2.963297065,13,0x39,0x0D,Read,ACK
2.963421410,13,0x39,0x3C,Read,NAK
2.966028235,15,0x38,0x00,Write,ACK
2.966132720,15,0x38,0x07,Write,ACK
2.966441485,16,0x39,0x0D,Read,ACK
2.966547275,16,0x39,0x0F,Read,ACK
2.966652885,16,0x39,0xC7,Read,NAK
2.968585350,18,0x38,0x00,Write,ACK
2.968689835,18,0x38,0x22,Write,ACK
2.968982545,19,0x39,0x0D,Read,ACK
2.969088340,19,0x39,0x0D,Read,ACK
2.969193760,19,0x39,0x3C,Read,NAK
2.972180550,21,0x38,0x00,Write,ACK
2.972285030,21,0x38,0x07,Write,ACK
2.972520850,22,0x39,0x0D,Read,ACK
2.972626645,22,0x39,0x0F,Read,ACK
2.972732255,22,0x39,0xC7,Read,NAK
2.974775820,24,0x38,0x00,Write,ACK
2.974880305,24,0x38,0x22,Write,ACK
2.975100260,25,0x39,0x0D,Read,ACK
2.975206055,25,0x39,0x0D,Read,ACK
2.975311475,25,0x39,0x3C,Read,NAK
2.977647070,27,0x38,0x00,Write,ACK
2.977751555,27,0x38,0x07,Write,ACK
2.978062380,28,0x39,0x0D,Read,ACK
2.978168175,28,0x39,0x0F,Read,ACK
2.978273785,28,0x39,0xC7,Read,NAK
2.981001205,30,0x38,0x00,Write,ACK
2.981105690,30,0x38,0x22,Write,ACK
2.981325645,31,0x39,0x0D,Read,ACK
2.981540605,31,0x39,0x0D,Read,ACK
2.981646025,31,0x39,0x3C,Read,NAK
2.983827990,33,0x38,0x00,Write,ACK
2.984023655,33,0x38,0x07,Write,ACK
2.984243610,34,0x39,0x0D,Read,ACK
2.984365270,34,0x39,0x0F,Read,ACK
2.984470875,34,0x39,0xC7,Read,NAK
2.986915825,36,0x38,0x00,Write,ACK
2.987020310,36,0x38,0x22,Write,ACK
2.987350055,37,0x39,0x0D,Read,ACK
2.987455850,37,0x39,0x0D,Read,ACK
2.987561270,37,0x39,0x3C,Read,NAK
2.989527780,39,0x38,0x0F,Write,ACK
2.989602850,39,0x38,0xFF,Write,ACK
2.989677915,39,0x38,0x01,Write,ACK
2.989752985,39,0x38,0xBE,Write,ACK
2.990021340,41,0x38,0x0F,Write,ACK
2.990096410,41,0x38,0xFF,Write,ACK
2.990171480,41,0x38,0x80,Write,ACK
2.990246545,41,0x38,0x3E,Write,ACK
2.990532265,43,0x38,0x1F,Write,ACK
2.990698955,43,0x38,0xF0,Write,ACK
2.990774015,43,0x38,0x00,Write,ACK
2.990849085,43,0x38,0x00,Write,ACK
2.990924155,43,0x38,0x00,Write,ACK
2.991100455,45,0x38,0x1F,Write,ACK
2.991175525,45,0x38,0xF3,Write,ACK
2.991250590,45,0x38,0x04,Write,ACK
2.991344645,45,0x38,0x00,Write,ACK
2.991419715,45,0x38,0x22,Write,ACK
2.991687885,47,0x38,0x1F,Write,ACK
2.991762955,47,0x38,0xF4,Write,ACK
2.991838020,47,0x38,0x00,Write,ACK
2.991913085,47,0x38,0x00,Write,ACK
2.991988155,47,0x38,0x01,Write,ACK
2.992164460,49,0x38,0x1F,Write,ACK
2.992239530,49,0x38,0xF6,Write,ACK
2.992422075,49,0x38,0x02,Write,ACK
2.992497140,49,0x38,0x40,Write,ACK
2.992572215,49,0x38,0x80,Write,ACK
2.992748515,51,0x38,0x1F,Write,ACK
2.992823585,51,0x38,0xF7,Write,ACK
2.992898650,51,0x38,0x00,Write,ACK
2.992973715,51,0x38,0x00,Write,ACK
2.993048790,51,0x38,0x80,Write,ACK
2.994229565,54,0x38,0x00,Write,ACK
2.994349350,54,0x38,0x07,Write,ACK
2.994569310,55,0x39,0x0C,Read,ACK
2.994674915,55,0x39,0x00,Read,ACK
2.994779775,55,0x39,0x00,Read,NAK
2.995932650,57,0x38,0x1F,Write,ACK
2.996007720,57,0x38,0xF8,Write,ACK
2.996082790,57,0x38,0xF0,Write,ACK
2.996157855,57,0x38,0xEA,Write,ACK
2.996232925,57,0x38,0xED,Write,ACK
2.996450570,59,0x38,0x1F,Write,ACK
2.996629810,59,0x38,0xF9,Write,ACK
2.996704875,59,0x38,0x12,Write,ACK
2.996779940,59,0x38,0x43,Write,ACK
2.996855010,59,0x38,0x34,Write,ACK
2.997031315,61,0x38,0x1F,Write,ACK
2.997106385,61,0x38,0xFA,Write,ACK
2.997181450,61,0x38,0x00,Write,ACK
2.997256520,61,0x38,0x4A,Write,ACK
2.997441190,61,0x38,0x1A,Write,ACK
2.997617490,63,0x38,0x1F,Write,ACK
2.997692565,63,0x38,0xFB,Write,ACK
2.997767630,63,0x38,0x00,Write,ACK
2.997842695,63,0x38,0x71,Write,ACK
2.997917765,63,0x38,0xC7,Write,ACK
2.998094065,65,0x38,0x1F,Write,ACK
2.998169140,65,0x38,0xFC,Write,ACK
2.998351935,65,0x38,0x0C,Write,ACK
2.998427000,65,0x38,0x02,Write,ACK
2.998502070,65,0x38,0x3F,Write,ACK
2.998678370,67,0x38,0x1F,Write,ACK
2.998753445,67,0x38,0xFD,Write,ACK
2.998828510,67,0x38,0x00,Write,ACK
2.998903575,67,0x38,0x00,Write,ACK
2.998978645,67,0x38,0x12,Write,ACK
2.999425985,70,0x38,0x00,Write,ACK
2.999530465,70,0x38,0x22,Write,ACK
2.999750425,71,0x39,0x0C,Read,ACK
2.999856030,71,0x39,0x00,Read,ACK
3.000052820,71,0x39,0x00,Read,NAK
3.001129005,73,0x38,0x1F,Write,ACK
3.001204075,73,0x38,0xF8,Write,ACK
3.001279140,73,0x38,0x6F,Write,ACK
3.001372755,73,0x38,0x02,Write,ACK
3.001447830,73,0x38,0xB1,Write,ACK
3.001716060,75,0x38,0x1F,Write,ACK
3.001791130,75,0x38,0xF9,Write,ACK
3.001866195,75,0x38,0x12,Write,ACK
3.001941260,75,0x38,0x03,Write,ACK
3.002016330,75,0x38,0x34,Write,ACK
3.002192630,77,0x38,0x1F,Write,ACK
3.002267705,77,0x38,0xFB,Write,ACK
3.002384050,77,0x38,0x00,Write,ACK
3.002550985,77,0x38,0x63,Write,ACK
3.002626055,77,0x38,0x0C,Write,ACK
3.002802355,79,0x38,0x08,Write,ACK
3.002877425,79,0x38,0x00,Write,ACK
3.002952490,79,0x38,0x0C,Write,ACK
3.003027560,79,0x38,0x6C,Write,ACK
3.003203860,81,0x38,0x10,Write,ACK
3.003389285,81,0x38,0x00,Write,ACK
3.003464350,81,0x38,0x00,Write,ACK
3.003539420,81,0x38,0x0B,Write,ACK
3.003614485,81,0x38,0x4B,Write,ACK
3.003790790,83,0x38,0x21,Write,ACK
3.003865855,83,0x38,0x2B,Write,ACK
3.003940925,83,0x38,0x08,Write,ACK
3.004015995,83,0x38,0x00,Write,ACK
3.004459900,86,0x38,0x00,Write,ACK
3.004564385,86,0x38,0x07,Write,ACK
3.004784340,87,0x39,0x0C,Read,ACK
3.004889945,87,0x39,0xD4,Read,ACK
3.005086985,87,0x39,0x2E,Read,NAK
3.006283705,89,0x38,0x11,Write,ACK
3.006375260,89,0x38,0x3E,Write,ACK
3.006450325,89,0x38,0x00,Write,ACK
3.006525395,89,0x38,0x09,Write,ACK
3.006600465,89,0x38,0x05,Write,ACK
3.006868445,91,0x38,0x11,Write,ACK
3.006943515,91,0x38,0x3E,Write,ACK
3.007018580,91,0x38,0x00,Write,ACK
3.007093650,91,0x38,0x09,Write,ACK
3.007168715,91,0x38,0x0E,Write,ACK
3.007389425,93,0x38,0x11,Write,ACK
3.007556050,93,0x38,0xE9,Write,ACK
3.007631115,93,0x38,0x00,Write,ACK
3.007706185,93,0x38,0x00,Write,ACK
3.007781250,93,0x38,0x48,Write,ACK
3.007957555,95,0x38,0x11,Write,ACK
3.008032625,95,0x38,0xFB,Write,ACK
3.008107690,95,0x38,0x20,Write,ACK
3.008182760,95,0x38,0x00,Write,ACK
3.008257830,95,0x38,0xE3,Write,ACK
3.008541985,97,0x38,0x11,Write,ACK
3.008617055,97,0x38,0xFD,Write,ACK
3.008692120,97,0x38,0x20,Write,ACK
3.008767185,97,0x38,0x01,Write,ACK
3.008842255,97,0x38,0x34,Write,ACK
3.009270425,100,0x38,0x00,Write,ACK
3.009392955,100,0x38,0x22,Write,ACK
3.009612910,101,0x39,0x0C,Read,ACK
3.009718520,101,0x39,0x00,Read,ACK
3.009823375,101,0x39,0x00,Read,NAK
3.010987310,103,0x38,0x11,Write,ACK
3.011062375,103,0x38,0x3E,Write,ACK
3.011137445,103,0x38,0x00,Write,ACK
3.011212515,103,0x38,0x08,Write,ACK
3.011287580,103,0x38,0x7D,Write,ACK
3.011508285,105,0x38,0x11,Write,ACK
3.011583355,105,0x38,0x3E,Write,ACK
3.011658420,105,0x38,0x00,Write,ACK
3.011825610,105,0x38,0x08,Write,ACK
3.011900675,105,0x38,0x1C,Write,ACK
3.012076980,107,0x38,0x11,Write,ACK
3.012152045,107,0x38,0x38,Write,ACK
3.012227120,107,0x38,0xDF,Write,ACK
3.012302185,107,0x38,0xFF,Write,ACK
3.012393240,107,0x38,0xFF,Write,ACK
3.012661095,109,0x38,0x11,Write,ACK
3.012736165,109,0x38,0x39,Write,ACK
3.012811230,109,0x38,0x20,Write,ACK
3.012886300,109,0x38,0x00,Write,ACK
3.012961370,109,0x38,0x00,Write,ACK
3.013137670,111,0x38,0x11,Write,ACK
3.013212740,111,0x38,0x3A,Write,ACK
3.013287805,111,0x38,0x7F,Write,ACK
3.013472605,111,0x38,0xCF,Write,ACK
3.013547675,111,0x38,0xFF,Write,ACK
3.013723975,113,0x38,0x11,Write,ACK
3.013799040,113,0x38,0x3B,Write,ACK
3.013874110,113,0x38,0x00,Write,ACK
3.013949180,113,0x38,0x10,Write,ACK
3.014024245,113,0x38,0x00,Write,ACK
3.014292230,115,0x38,0x11,Write,ACK
3.014383220,115,0x38,0x3C,Write,ACK
3.014458295,115,0x38,0xFF,Write,ACK
3.014533360,115,0x38,0xFF,Write,ACK
3.014608430,115,0x38,0xFF,Write,ACK
3.014784730,117,0x38,0x11,Write,ACK
3.014859795,117,0x38,0x3D,Write,ACK
3.014934865,117,0x38,0x00,Write,ACK
3.015009935,117,0x38,0x00,Write,ACK
3.015177115,117,0x38,0x00,Write,ACK
3.015372220,119,0x38,0x11,Write,ACK
3.015447285,119,0x38,0x3E,Write,ACK
3.015522355,119,0x38,0x00,Write,ACK
3.015597420,119,0x38,0x08,Write,ACK
3.015672495,119,0x38,0xF3,Write,ACK
3.015848795,121,0x38,0x11,Write,ACK
3.016015855,121,0x38,0x49,Write,ACK
3.016090920,121,0x38,0x7F,Write,ACK
3.016165995,121,0x38,0xFF,Write,ACK
3.016241060,121,0x38,0xFF,Write,ACK
3.016432600,123,0x38,0x11,Write,ACK
3.016507665,123,0x38,0x48,Write,ACK
3.016582735,123,0x38,0x7F,Write,ACK
3.016657805,123,0x38,0xFF,Write,ACK
3.016824930,123,0x38,0xFF,Write,ACK
3.017002165,125,0x38,0x11,Write,ACK
3.017077045,125,0x38,0x4D,Write,ACK
3.017151925,125,0x38,0x00,Write,ACK
3.017226805,125,0x38,0x00,Write,ACK
3.017301685,125,0x38,0x00,Write,ACK
3.017489670,127,0x38,0x11,Write,ACK
3.017656415,127,0x38,0x4A,Write,ACK
3.017731295,127,0x38,0x00,Write,ACK
3.017806180,127,0x38,0x00,Write,ACK
3.017881060,127,0x38,0x00,Write,ACK
3.018053925,129,0x38,0x11,Write,ACK
3.018128805,129,0x38,0x4D,Write,ACK
3.018203685,129,0x38,0x05,Write,ACK
3.018278570,129,0x38,0xCE,Write,ACK
3.018368685,129,0x38,0x14,Write,ACK
3.018646290,131,0x38,0x11,Write,ACK
3.018721170,131,0x38,0x4C,Write,ACK
3.018796050,131,0x38,0x00,Write,ACK
3.018870930,131,0x38,0x00,Write,ACK
3.018945810,131,0x38,0x00,Write,ACK
3.019116865,133,0x38,0x21,Write,ACK
3.019191745,133,0x38,0x28,Write,ACK
3.019377355,133,0x38,0x00,Write,ACK
3.019452235,133,0x38,0x00,Write,ACK
3.019622920,135,0x38,0x21,Write,ACK
3.019697800,135,0x38,0x29,Write,ACK
3.019772680,135,0x38,0x00,Write,ACK
3.019847560,135,0x38,0x00,Write,ACK
3.020327690,138,0x38,0x00,Write,ACK
3.020432170,138,0x38,0x07,Write,ACK
3.020652130,139,0x39,0x0C,Read,ACK
3.020757735,139,0x39,0xBB,Read,ACK
3.020863720,139,0x39,0xC5,Read,NAK
3.022209575,141,0x38,0x21,Write,ACK
3.022284455,141,0x38,0xF3,Write,ACK
3.022375820,141,0x38,0x07,Write,ACK
3.022450705,141,0x38,0x20,Write,ACK
3.022717310,143,0x38,0x21,Write,ACK
3.022792195,143,0x38,0xF4,Write,ACK
3.022867075,143,0x38,0x03,Write,ACK
3.022941955,143,0x38,0xF9,Write,ACK
3.023116635,145,0x38,0x21,Write,ACK
3.023191515,145,0x38,0xF5,Write,ACK
3.023266395,145,0x38,0x00,Write,ACK
3.023385680,145,0x38,0x00,Write,ACK
3.023652100,147,0x38,0x21,Write,ACK
3.023726985,147,0x38,0xF6,Write,ACK
3.023801860,147,0x38,0x00,Write,ACK
3.023876740,147,0x38,0x00,Write,ACK
3.024051420,149,0x38,0x21,Write,ACK
3.024126305,149,0x38,0xF7,Write,ACK
3.024201180,149,0x38,0x00,Write,ACK
3.024276065,149,0x38,0xDF,Write,ACK
3.024558160,151,0x38,0x21,Write,ACK
3.024633045,151,0x38,0xF8,Write,ACK
3.024707920,151,0x38,0x00,Write,ACK
3.024782800,151,0x38,0x06,Write,ACK
3.024957480,153,0x38,0x21,Write,ACK
3.025032365,153,0x38,0xF9,Write,ACK
3.025107240,153,0x38,0x00,Write,ACK
3.025273615,153,0x38,0x00,Write,ACK
3.025466345,155,0x38,0x21,Write,ACK
3.025541225,155,0x38,0xFA,Write,ACK
3.025616105,155,0x38,0x00,Write,ACK
3.025690985,155,0x38,0x00,Write,ACK
3.025865665,157,0x38,0x21,Write,ACK
3.025940550,157,0x38,0xFB,Write,ACK
3.026107355,157,0x38,0x00,Write,ACK
3.026182235,157,0x38,0x00,Write,ACK
3.026372840,159,0x38,0x21,Write,ACK
3.026447725,159,0x38,0xFC,Write,ACK
3.026522600,159,0x38,0x02,Write,ACK
3.026597480,159,0x38,0x00,Write,ACK
3.026770035,161,0x38,0x11,Write,ACK
3.026936915,161,0x38,0xE5,Write,ACK
3.027011790,161,0x38,0x20,Write,ACK
3.027086670,161,0x38,0x00,Write,ACK
3.027161555,161,0x38,0xE0,Write,ACK
3.027352095,163,0x38,0x11,Write,ACK
3.027426980,163,0x38,0xE6,Write,ACK
3.027501855,163,0x38,0x00,Write,ACK
3.027576735,163,0x38,0x0A,Write,ACK
3.027651615,163,0x38,0x26,Write,ACK
3.028075660,166,0x38,0x00,Write,ACK
3.028180145,166,0x38,0x22,Write,ACK
3.028415405,167,0x39,0x0C,Read,ACK
3.028612690,167,0x39,0x00,Read,ACK
3.028717550,167,0x39,0x00,Read,NAK
3.029798670,169,0x38,0x21,Write,ACK
3.029873555,169,0x38,0xF3,Write,ACK
3.029948430,169,0x38,0x02,Write,ACK
3.030023310,169,0x38,0x00,Write,ACK
3.030289670,171,0x38,0x21,Write,ACK
3.030405835,171,0x38,0xF4,Write,ACK
3.030480710,171,0x38,0x00,Write,ACK
3.030555590,171,0x38,0x00,Write,ACK
3.030730270,173,0x38,0x21,Write,ACK
3.030805155,173,0x38,0xF5,Write,ACK
3.030880035,173,0x38,0x02,Write,ACK
3.030954915,173,0x38,0xC7,Write,ACK
3.031221710,175,0x38,0x21,Write,ACK
3.031315640,175,0x38,0xF6,Write,ACK
3.031390520,175,0x38,0x00,Write,ACK
3.031465400,175,0x38,0x00,Write,ACK
3.031640080,177,0x38,0x21,Write,ACK
3.031714960,177,0x38,0xF7,Write,ACK
3.031789840,177,0x38,0x03,Write,ACK
3.031864720,177,0x38,0x63,Write,ACK
3.032202150,179,0x38,0x21,Write,ACK
3.032277035,179,0x38,0xF8,Write,ACK
3.032367900,179,0x38,0x0C,Write,ACK
3.032442785,179,0x38,0x9D,Write,ACK
3.032617460,181,0x38,0x21,Write,ACK
3.032692340,181,0x38,0xF9,Write,ACK
3.032853840,181,0x38,0x00,Write,ACK
3.032928720,181,0x38,0x00,Write,ACK
3.033101280,183,0x38,0x11,Write,ACK
3.033176160,183,0x38,0xE5,Write,ACK
3.033251040,183,0x38,0x20,Write,ACK
3.033343970,183,0x38,0x00,Write,ACK
3.033418850,183,0x38,0xE9,Write,ACK
3.033677965,185,0x38,0x11,Write,ACK
3.033752845,185,0x38,0xE6,Write,ACK
3.033827725,185,0x38,0x00,Write,ACK
3.033902605,185,0x38,0x0A,Write,ACK
3.033977485,185,0x38,0x2C,Write,ACK
3.034325400,188,0x38,0x00,Write,ACK
3.034517070,188,0x38,0x07,Write,ACK
3.034737025,189,0x39,0x0C,Read,ACK
3.034842635,189,0x39,0xE7,Read,ACK
3.034948615,189,0x39,0xB2,Read,NAK
3.036035665,191,0x38,0x21,Write,ACK
3.036197045,191,0x38,0x7D,Write,ACK
3.036271925,191,0x38,0x07,Write,ACK
3.036363235,191,0x38,0xE9,Write,ACK
3.036534285,193,0x38,0x21,Write,ACK
3.036609170,193,0x38,0x3F,Write,ACK
3.036684050,193,0x38,0x02,Write,ACK
3.036758930,193,0x38,0x21,Write,ACK
3.037992365,195,0x38,0x21,Write,ACK
3.038067245,195,0x38,0x4A,Write,ACK
3.038142125,195,0x38,0x0C,Write,ACK
3.038217005,195,0x38,0x6D,Write,ACK
3.038403615,197,0x38,0x21,Write,ACK
3.038478495,197,0x38,0x4B,Write,ACK
3.038553375,197,0x38,0x08,Write,ACK
3.038715065,197,0x38,0x00,Write,ACK
3.039048430,200,0x38,0x00,Write,ACK
3.039152915,200,0x38,0x22,Write,ACK
3.039391855,201,0x39,0x0C,Read,ACK
3.039584460,201,0x39,0x00,Read,ACK
3.039689315,201,0x39,0x00,Read,NAK
3.041597745,203,0x38,0x21,Write,ACK
3.041672625,203,0x38,0x21,Write,ACK
3.041747505,203,0x38,0x08,Write,ACK
3.041822385,203,0x38,0x00,Write,ACK
3.042080440,205,0x38,0x21,Write,ACK
3.042155320,205,0x38,0x22,Write,ACK
3.042230200,205,0x38,0x08,Write,ACK
3.042320880,205,0x38,0x00,Write,ACK
3.042654060,208,0x38,0x00,Write,ACK
3.042758540,208,0x38,0x07,Write,ACK
3.043064995,209,0x39,0x0C,Read,ACK
3.043170605,209,0x39,0xD1,Read,ACK
3.043276210,209,0x39,0x15,Read,NAK
3.046012070,211,0x38,0x21,Write,ACK
3.046087140,211,0x38,0xF3,Write,ACK
3.046162205,211,0x38,0x07,Write,ACK
3.046339760,211,0x38,0xE2,Write,ACK
3.046515000,213,0x38,0x21,Write,ACK
3.046590070,213,0x38,0xF4,Write,ACK
3.046665135,213,0x38,0x05,Write,ACK
3.046740200,213,0x38,0x69,Write,ACK
3.046915445,215,0x38,0x21,Write,ACK
3.046990515,215,0x38,0xF5,Write,ACK
3.047152140,215,0x38,0x0C,Write,ACK
3.047227205,215,0x38,0x1D,Write,ACK
3.047421495,217,0x38,0x21,Write,ACK
3.047496565,217,0x38,0xF6,Write,ACK
3.047571630,217,0x38,0x02,Write,ACK
3.047646700,217,0x38,0x00,Write,ACK
3.047821940,219,0x38,0x21,Write,ACK
3.047983570,219,0x38,0xF7,Write,ACK
3.048058635,219,0x38,0x00,Write,ACK
3.048133705,219,0x38,0x0E,Write,ACK
3.048324870,221,0x38,0x21,Write,ACK
3.048399940,221,0x38,0xF8,Write,ACK
3.048475005,221,0x38,0x04,Write,ACK
3.048550075,221,0x38,0xFF,Write,ACK
3.048811810,223,0x38,0x21,Write,ACK
3.048886885,223,0x38,0xF9,Write,ACK
3.048961945,223,0x38,0x00,Write,ACK
3.049037015,223,0x38,0x00,Write,ACK
3.049212255,225,0x38,0x21,Write,ACK
3.049305250,225,0x38,0xFA,Write,ACK
3.049380315,225,0x38,0x00,Write,ACK
3.049455385,225,0x38,0x00,Write,ACK
3.049717685,227,0x38,0x21,Write,ACK
3.049792755,227,0x38,0xFB,Write,ACK
3.049867820,227,0x38,0x00,Write,ACK
3.049942890,227,0x38,0x0E,Write,ACK
3.050118130,229,0x38,0x21,Write,ACK
3.050193200,229,0x38,0xFC,Write,ACK
3.050268265,229,0x38,0x04,Write,ACK
3.050359260,229,0x38,0xFF,Write,ACK
3.050619310,231,0x38,0x11,Write,ACK
3.050694380,231,0x38,0xE5,Write,ACK
3.050769445,231,0x38,0x20,Write,ACK
3.050844515,231,0x38,0x01,Write,ACK
3.050919580,231,0x38,0x10,Write,ACK
3.051092825,233,0x38,0x11,Write,ACK
3.051167895,233,0x38,0xE6,Write,ACK
3.051242960,233,0x38,0x00,Write,ACK
3.051423135,233,0x38,0x0A,Write,ACK
3.051498205,233,0x38,0x26,Write,ACK
3.051859735,236,0x38,0x00,Write,ACK
3.051964215,236,0x38,0x22,Write,ACK
3.052270985,237,0x39,0x0C,Read,ACK
3.052391890,237,0x39,0x00,Read,ACK
3.052496750,237,0x39,0x00,Read,NAK
3.053595170,239,0x38,0x21,Write,ACK
3.053670240,239,0x38,0xF3,Write,ACK
3.053745305,239,0x38,0x01,Write,ACK
3.053950145,239,0x38,0x29,Write,ACK
3.054125390,241,0x38,0x21,Write,ACK
3.054200460,241,0x38,0xF4,Write,ACK
3.054275460,241,0x38,0x04,Write,ACK
3.054391875,241,0x38,0x94,Write,ACK
3.054567115,243,0x38,0x21,Write,ACK
3.054729120,243,0x38,0xF5,Write,ACK
3.054804185,243,0x38,0x00,Write,ACK
3.054879250,243,0x38,0x00,Write,ACK
3.055054495,245,0x38,0x21,Write,ACK
3.055129565,245,0x38,0xF6,Write,ACK
3.055204630,245,0x38,0x02,Write,ACK
3.055298685,245,0x38,0x00,Write,ACK
3.055560735,247,0x38,0x21,Write,ACK
3.055635805,247,0x38,0xF7,Write,ACK
3.055710870,247,0x38,0x00,Write,ACK
3.055785935,247,0x38,0x00,Write,ACK
3.055961180,249,0x38,0x21,Write,ACK
3.056036250,249,0x38,0xF8,Write,ACK
3.056111315,249,0x38,0xF8,Write,ACK
3.056186380,249,0x38,0x00,Write,ACK
3.056464355,251,0x38,0x21,Write,ACK
3.056539430,251,0x38,0xF9,Write,ACK
3.056614495,251,0x38,0x01,Write,ACK
3.056689560,251,0x38,0x00,Write,ACK
3.056862865,253,0x38,0x11,Write,ACK
3.056937935,253,0x38,0xE5,Write,ACK
3.057013005,253,0x38,0x20,Write,ACK
3.057088070,253,0x38,0x01,Write,ACK
3.057249760,253,0x38,0x1A,Write,ACK
3.057441115,255,0x38,0x11,Write,ACK
3.057516185,255,0x38,0xE6,Write,ACK
3.057591250,255,0x38,0x00,Write,ACK
3.057666320,255,0x38,0x0A,Write,ACK
3.057741385,255,0x38,0x2C,Write,ACK
3.058161245,258,0x38,0x00,Write,ACK
3.058265730,258,0x38,0x07,Write,ACK
3.058501615,259,0x39,0x0C,Read,ACK
3.058607220,259,0x39,0xCC,Read,ACK
3.058712825,259,0x39,0x9F,Read,NAK
3.059912045,261,0x38,0x21,Write,ACK
3.059986925,261,0x38,0x77,Write,ACK
3.060061805,261,0x38,0x00,Write,ACK
3.060136685,261,0x38,0x00,Write,ACK
3.060357390,263,0x38,0x21,Write,ACK
3.060432275,263,0x38,0x2A,Write,ACK
3.060507155,263,0x38,0x0F,Write,ACK
3.060669035,263,0x38,0x80,Write,ACK
3.060842585,265,0x38,0x21,Write,ACK
3.060917465,265,0x38,0x2B,Write,ACK
3.060992345,265,0x38,0x00,Write,ACK
3.061067225,265,0x38,0x00,Write,ACK
3.061241405,267,0x38,0x21,Write,ACK
3.061334275,267,0x38,0x2C,Write,ACK
3.061495900,267,0x38,0x0F,Write,ACK
3.061570780,267,0x38,0x33,Write,ACK
3.062133595,270,0x38,0x00,Write,ACK
3.062341065,270,0x38,0x22,Write,ACK
3.062561020,271,0x39,0x0C,Read,ACK
3.062666630,271,0x39,0x00,Read,ACK
3.062771485,271,0x39,0x00,Read,NAK
3.063572195,273,0x38,0x11,Write,ACK
3.063647075,273,0x38,0x4D,Write,ACK
3.063721955,273,0x38,0x00,Write,ACK
3.063796835,273,0x38,0x00,Write,ACK
3.063871715,273,0x38,0x00,Write,ACK
3.064129080,275,0x38,0x11,Write,ACK
3.064203960,275,0x38,0x4A,Write,ACK
3.064320185,275,0x38,0x00,Write,ACK
3.064395070,275,0x38,0x00,Write,ACK
3.064469950,275,0x38,0x00,Write,ACK
3.064642815,277,0x38,0x11,Write,ACK
3.064717695,277,0x38,0x4D,Write,ACK
3.064879135,277,0x38,0x05,Write,ACK
3.064954020,277,0x38,0xCE,Write,ACK
3.065028895,277,0x38,0x14,Write,ACK
3.066112380,280,0x38,0x00,Write,ACK
3.066216860,280,0x38,0x07,Write,ACK
3.066538555,281,0x39,0x0C,Read,ACK
3.066644160,281,0x39,0xE3,Read,ACK
3.066749955,281,0x39,0xEA,Read,NAK
3.067927565,283,0x38,0x11,Write,ACK
3.068002635,283,0x38,0xF5,Write,ACK
3.068077700,283,0x38,0x20,Write,ACK
3.068239700,283,0x38,0x01,Write,ACK
3.068356115,283,0x38,0x17,Write,ACK
3.068527980,285,0x38,0x11,Write,ACK
3.068603055,285,0x38,0xF6,Write,ACK
3.068678115,285,0x38,0x20,Write,ACK
3.068753185,285,0x38,0x01,Write,ACK
3.068828255,285,0x38,0x19,Write,ACK
3.069090930,287,0x38,0x20,Write,ACK
3.069166000,287,0x38,0xB0,Write,ACK
3.069241065,287,0x38,0x07,Write,ACK
3.069334245,287,0x38,0xE7,Write,ACK
3.069510860,289,0x38,0x20,Write,ACK
3.069585930,289,0x38,0xB1,Write,ACK
3.069660995,289,0x38,0x01,Write,ACK
3.069736065,289,0x38,0xEF,Write,ACK
3.069999110,291,0x38,0x20,Write,ACK
3.070074180,291,0x38,0xB2,Write,ACK
3.070149245,291,0x38,0x0C,Write,ACK
3.070224315,291,0x38,0x18,Write,ACK
3.070416920,293,0x38,0x20,Write,ACK
3.070491990,293,0x38,0xB3,Write,ACK
3.070567055,293,0x38,0x03,Write,ACK
3.070728560,293,0x38,0xB3,Write,ACK
3.070905170,295,0x38,0x20,Write,ACK
3.070980240,295,0x38,0xB4,Write,ACK
3.071055305,295,0x38,0x01,Write,ACK
3.071130380,295,0x38,0xF9,Write,ACK
3.071326040,297,0x38,0x20,Write,ACK
3.071401110,297,0x38,0xB5,Write,ACK
3.071562605,297,0x38,0x06,Write,ACK
3.071637680,297,0x38,0xC7,Write,ACK
3.071814290,299,0x38,0x20,Write,ACK
3.071889365,299,0x38,0xB6,Write,ACK
3.071964425,299,0x38,0x0C,Write,ACK
3.072039495,299,0x38,0x0C,Write,ACK
3.072216110,301,0x38,0x20,Write,ACK
3.072307105,301,0x38,0xB7,Write,ACK
3.072468545,301,0x38,0x02,Write,ACK
3.072543610,301,0x38,0x71,Write,ACK
3.072720225,303,0x38,0x20,Write,ACK
3.072795295,303,0x38,0xB8,Write,ACK
3.072870360,303,0x38,0x01,Write,ACK
3.072945435,303,0x38,0xF9,Write,ACK
3.073122045,305,0x38,0x20,Write,ACK
3.073300850,305,0x38,0xB9,Write,ACK
3.073375915,305,0x38,0x06,Write,ACK
3.073450985,305,0x38,0xC7,Write,ACK
3.073627595,307,0x38,0x20,Write,ACK
3.073702670,307,0x38,0xBA,Write,ACK
3.073777735,307,0x38,0x00,Write,ACK
3.073852800,307,0x38,0x00,Write,ACK
3.074116165,309,0x38,0x20,Write,ACK
3.074191235,309,0x38,0xBB,Write,ACK
3.074281540,309,0x38,0x00,Write,ACK
3.074356605,309,0x38,0x00,Write,ACK
3.074533220,311,0x38,0x20,Write,ACK
3.074608290,311,0x38,0xBC,Write,ACK
3.074683355,311,0x38,0x07,Write,ACK
3.074758425,311,0x38,0xFF,Write,ACK
3.075021850,313,0x38,0x20,Write,ACK
3.075096920,313,0x38,0xBD,Write,ACK
3.075171985,313,0x38,0x07,Write,ACK
3.075247055,313,0x38,0xFF,Write,ACK
3.075441965,315,0x38,0x20,Write,ACK
3.075517035,315,0x38,0xBE,Write,ACK
3.075592100,315,0x38,0x00,Write,ACK
3.075667170,315,0x38,0x00,Write,ACK
3.075966190,317,0x38,0x20,Write,ACK
3.076041260,317,0x38,0xBF,Write,ACK
3.076116325,317,0x38,0x00,Write,ACK
3.076191395,317,0x38,0x00,Write,ACK
3.076627870,320,0x38,0x00,Write,ACK
3.076732350,320,0x38,0x22,Write,ACK
3.076952310,321,0x39,0x0C,Read,ACK
3.077057915,321,0x39,0x00,Read,ACK
3.077162775,321,0x39,0x00,Read,NAK
3.078489645,323,0x38,0x20,Write,ACK
3.078564715,323,0x38,0xC0,Write,ACK
3.078639780,323,0x38,0x07,Write,ACK
3.078714850,323,0x38,0xE7,Write,ACK
3.078891465,325,0x38,0x20,Write,ACK
3.078966535,325,0x38,0xC1,Write,ACK
3.079041600,325,0x38,0x01,Write,ACK
3.079203105,325,0x38,0xEF,Write,ACK
3.079424120,327,0x38,0x20,Write,ACK
3.079499190,327,0x38,0xC2,Write,ACK
3.079574255,327,0x38,0x0C,Write,ACK
3.079649325,327,0x38,0x18,Write,ACK
3.079825940,329,0x38,0x20,Write,ACK
3.079987630,329,0x38,0xC3,Write,ACK
3.080062695,329,0x38,0x03,Write,ACK
3.080137770,329,0x38,0xB3,Write,ACK
3.080330305,331,0x38,0x20,Write,ACK
3.080405375,331,0x38,0xC4,Write,ACK
3.080480440,331,0x38,0x01,Write,ACK
3.080555510,331,0x38,0xF9,Write,ACK
3.080818435,333,0x38,0x20,Write,ACK
3.080893505,333,0x38,0xC5,Write,ACK
3.080968570,333,0x38,0x06,Write,ACK
3.081043640,333,0x38,0xC7,Write,ACK
3.081220250,335,0x38,0x20,Write,ACK
3.081313435,335,0x38,0xC6,Write,ACK
3.081388500,335,0x38,0x0C,Write,ACK
3.081463565,335,0x38,0x0C,Write,ACK
3.081726615,337,0x38,0x20,Write,ACK
3.081801690,337,0x38,0xC7,Write,ACK
3.081876750,337,0x38,0x02,Write,ACK
3.081951820,337,0x38,0x71,Write,ACK
3.082128435,339,0x38,0x20,Write,ACK
3.082203505,339,0x38,0xC8,Write,ACK
3.082294495,339,0x38,0x01,Write,ACK
3.082369570,339,0x38,0xF9,Write,ACK
3.082632615,341,0x38,0x20,Write,ACK
3.082707685,341,0x38,0xC9,Write,ACK
3.082782750,341,0x38,0x06,Write,ACK
3.082857820,341,0x38,0xC7,Write,ACK
3.083034435,343,0x38,0x20,Write,ACK
3.083109505,343,0x38,0xCA,Write,ACK
3.083184570,343,0x38,0x00,Write,ACK
3.083363060,343,0x38,0x00,Write,ACK
3.083539675,345,0x38,0x20,Write,ACK
3.083614745,345,0x38,0xCB,Write,ACK
3.083689810,345,0x38,0x00,Write,ACK
3.083764875,345,0x38,0x00,Write,ACK
3.083941490,347,0x38,0x20,Write,ACK
3.084016565,347,0x38,0xCC,Write,ACK
3.084091625,347,0x38,0x07,Write,ACK
3.084268870,347,0x38,0xFF,Write,ACK
3.084445480,349,0x38,0x20,Write,ACK
3.084520555,349,0x38,0xCD,Write,ACK
3.084595620,349,0x38,0x07,Write,ACK
3.084670690,349,0x38,0xFF,Write,ACK
3.084847300,351,0x38,0x20,Write,ACK
3.084922375,351,0x38,0xCE,Write,ACK
3.085083935,351,0x38,0x00,Write,ACK
3.085159000,351,0x38,0x00,Write,ACK
3.085352855,353,0x38,0x20,Write,ACK
3.085427925,353,0x38,0xCF,Write,ACK
3.085502990,353,0x38,0x00,Write,ACK
3.085578060,353,0x38,0x00,Write,ACK
3.085897250,355,0x45,0xFF,Read,ACK
3.085967200,355,0x45,0xFF,Read,ACK
3.086037150,355,0x45,0x7D,Read,NAK
3.087220615,358,0x38,0x00,Write,ACK
3.087344080,358,0x38,0x07,Write,ACK
3.087650785,359,0x39,0x0C,Read,ACK
3.087756395,359,0x39,0x70,Read,ACK
3.087861815,359,0x39,0x41,Read,NAK
3.088802290,361,0x38,0x21,Write,ACK
3.088877360,361,0x38,0xF3,Write,ACK
3.088952425,361,0x38,0x07,Write,ACK
3.089027495,361,0x38,0x4A,Write,ACK
3.089332825,363,0x38,0x21,Write,ACK
3.089407895,363,0x38,0xF4,Write,ACK
3.089482960,363,0x38,0x00,Write,ACK
3.089558025,363,0x38,0x01,Write,ACK
3.089733270,365,0x38,0x21,Write,ACK
3.089808340,365,0x38,0xF5,Write,ACK
3.089883405,365,0x38,0x06,Write,ACK
3.089958475,365,0x38,0x95,Write,ACK
3.090220460,367,0x38,0x21,Write,ACK
3.090311455,367,0x38,0xF6,Write,ACK
3.090386520,367,0x38,0x0C,Write,ACK
3.090461590,367,0x38,0x03,Write,ACK
3.090636830,369,0x38,0x21,Write,ACK
3.090711900,369,0x38,0xF7,Write,ACK
3.090786965,369,0x38,0x07,Write,ACK
3.090949160,369,0x38,0x96,Write,ACK
3.091124395,371,0x38,0x21,Write,ACK
3.091199465,371,0x38,0xF8,Write,ACK
3.091293515,371,0x38,0x07,Write,ACK
3.091368590,371,0x38,0xFB,Write,ACK
3.091543825,373,0x38,0x21,Write,ACK
3.091618900,373,0x38,0xF9,Write,ACK
3.091780835,373,0x38,0x01,Write,ACK
3.091855905,373,0x38,0xB9,Write,ACK
3.092029205,375,0x38,0x11,Write,ACK
3.092104280,375,0x38,0xE5,Write,ACK
3.092179345,375,0x38,0x20,Write,ACK
3.092269710,375,0x38,0x01,Write,ACK
3.092344785,375,0x38,0x80,Write,ACK
3.092518085,377,0x38,0x11,Write,ACK
3.092679900,377,0x38,0xE6,Write,ACK
3.092754965,377,0x38,0x00,Write,ACK
3.092830035,377,0x38,0x0A,Write,ACK
3.092905100,377,0x38,0x2C,Write,ACK
3.093239465,380,0x38,0x00,Write,ACK
3.093361435,380,0x38,0x22,Write,ACK
3.093668330,381,0x39,0x0C,Read,ACK
3.093773935,381,0x39,0x00,Read,ACK
3.093878790,381,0x39,0x00,Read,NAK
3.095174375,383,0x38,0x21,Write,ACK
3.095268930,383,0x38,0xF3,Write,ACK
3.095343995,383,0x38,0x03,Write,ACK
3.095419065,383,0x38,0x99,Write,ACK
3.095594305,385,0x38,0x21,Write,ACK
3.095669375,385,0x38,0xF4,Write,ACK
3.095744440,385,0x38,0x00,Write,ACK
3.095819505,385,0x38,0x07,Write,ACK
3.096081620,387,0x38,0x21,Write,ACK
3.096156690,387,0x38,0xF5,Write,ACK
3.096231755,387,0x38,0x07,Write,ACK
3.096348105,387,0x38,0x33,Write,ACK
3.096523345,389,0x38,0x21,Write,ACK
3.096598415,389,0x38,0xF6,Write,ACK
3.096673480,389,0x38,0x0C,Write,ACK
3.096834985,389,0x38,0x0E,Write,ACK
3.097010225,391,0x38,0x21,Write,ACK
3.097085295,391,0x38,0xF7,Write,ACK
3.097160360,391,0x38,0x03,Write,ACK
3.097235435,391,0x38,0xDC,Write,ACK
3.097428655,393,0x38,0x21,Write,ACK
3.097503730,393,0x38,0xF8,Write,ACK
3.097706885,393,0x38,0x07,Write,ACK
3.097781955,393,0x38,0xEF,Write,ACK
3.097957190,395,0x38,0x21,Write,ACK
3.098032265,395,0x38,0xF9,Write,ACK
3.098107325,395,0x38,0x0F,Write,ACK
3.098182400,395,0x38,0xE9,Write,ACK
3.098371625,397,0x38,0x11,Write,ACK
3.098533320,397,0x38,0xE5,Write,ACK
3.098608385,397,0x38,0x20,Write,ACK
3.098683450,397,0x38,0x01,Write,ACK
3.098758520,397,0x38,0x87,Write,ACK
3.098931825,399,0x38,0x11,Write,ACK
3.099006895,399,0x38,0xE6,Write,ACK
3.099081960,399,0x38,0x00,Write,ACK
3.099157030,399,0x38,0x0A,Write,ACK
3.099232095,399,0x38,0x2C,Write,ACK
3.099743015,402,0x38,0x00,Write,ACK
3.099847495,402,0x38,0x07,Write,ACK
3.100067455,403,0x39,0x0C,Read,ACK
3.100275420,403,0x39,0x67,Read,ACK
3.100381215,403,0x39,0x94,Read,NAK
3.101502805,405,0x38,0x21,Write,ACK
3.101577875,405,0x38,0xF3,Write,ACK
3.101652940,405,0x38,0x00,Write,ACK
3.101728005,405,0x38,0x7E,Write,ACK
3.101990185,407,0x38,0x21,Write,ACK
3.102065255,407,0x38,0xF4,Write,ACK
3.102140320,407,0x38,0x0C,Write,ACK
3.102215390,407,0x38,0xFD,Write,ACK
3.102432035,409,0x38,0x21,Write,ACK
3.102507105,409,0x38,0xF5,Write,ACK
3.102582170,409,0x38,0x06,Write,ACK
3.102743675,409,0x38,0xF1,Write,ACK
3.102918910,411,0x38,0x21,Write,ACK
3.102993985,411,0x38,0xF6,Write,ACK
3.103069050,411,0x38,0x0E,Write,ACK
3.103144120,411,0x38,0x99,Write,ACK
3.103336405,413,0x38,0x11,Write,ACK
3.103411480,413,0x38,0xE5,Write,ACK
3.103573100,413,0x38,0x20,Write,ACK
3.103648170,413,0x38,0x01,Write,ACK
3.103723240,413,0x38,0x8E,Write,ACK
3.103896355,415,0x38,0x11,Write,ACK
3.103971425,415,0x38,0xE6,Write,ACK
3.104046490,415,0x38,0x00,Write,ACK
3.104121560,415,0x38,0x0A,Write,ACK
3.104196625,415,0x38,0x32,Write,ACK
3.104633290,418,0x38,0x00,Write,ACK
3.104737770,418,0x38,0x22,Write,ACK
3.104957730,419,0x39,0x0C,Read,ACK
3.105063335,419,0x39,0x00,Read,ACK
3.105272800,419,0x39,0x00,Read,NAK
3.105953100,421,0x38,0x21,Write,ACK
3.106114730,421,0x38,0xF3,Write,ACK
3.106189795,421,0x38,0x00,Write,ACK
3.106281415,421,0x38,0x53,Write,ACK
3.106456655,423,0x38,0x21,Write,ACK
3.106531725,423,0x38,0xF4,Write,ACK
3.106606790,423,0x38,0x0C,Write,ACK
3.106681860,423,0x38,0xA7,Write,ACK
3.106943845,425,0x38,0x21,Write,ACK
3.107018920,425,0x38,0xF5,Write,ACK
3.107093985,425,0x38,0x06,Write,ACK
3.107169055,425,0x38,0xF5,Write,ACK
3.107388070,427,0x38,0x21,Write,ACK
3.107463145,427,0x38,0xF6,Write,ACK
3.107538205,427,0x38,0x00,Write,ACK
3.107613275,427,0x38,0x40,Write,ACK
3.107873265,429,0x38,0x11,Write,ACK
3.107948335,429,0x38,0xE5,Write,ACK
3.108023400,429,0x38,0x20,Write,ACK
3.108098465,429,0x38,0x01,Write,ACK
3.108173540,429,0x38,0x92,Write,ACK
3.108361830,431,0x38,0x11,Write,ACK
3.108436900,431,0x38,0xE6,Write,ACK
3.108511965,431,0x38,0x00,Write,ACK
3.108673470,431,0x38,0x0A,Write,ACK
3.108748535,431,0x38,0x32,Write,ACK
3.109082650,434,0x38,0x00,Write,ACK
3.109187135,434,0x38,0x07,Write,ACK
3.109511135,435,0x39,0x0C,Read,ACK
3.109616745,435,0x39,0x57,Read,ACK
3.109722535,435,0x39,0xF8,Read,NAK
3.113417350,437,0x38,0x00,Write,ACK
3.113521830,437,0x38,0x22,Write,ACK
3.113828785,438,0x39,0x0C,Read,ACK
3.113934390,438,0x39,0x00,Read,ACK
3.114039250,438,0x39,0x00,Read,NAK
3.114609385,440,0x38,0x21,Write,ACK
3.114684455,440,0x38,0xF3,Write,ACK
3.114759520,440,0x38,0x01,Write,ACK
3.114834585,440,0x38,0x21,Write,ACK
3.115009830,442,0x38,0x21,Write,ACK
3.115084900,442,0x38,0xF4,Write,ACK
3.115159965,442,0x38,0x0E,Write,ACK
3.115254515,442,0x38,0x44,Write,ACK
3.115516565,444,0x38,0x21,Write,ACK
3.115591640,444,0x38,0xF5,Write,ACK
3.115666705,444,0x38,0x01,Write,ACK
3.115741775,444,0x38,0x8D,Write,ACK
3.115917015,446,0x38,0x21,Write,ACK
3.115992085,446,0x38,0xF6,Write,ACK
3.116067145,446,0x38,0x0E,Write,ACK
3.116270060,446,0x38,0xE3,Write,ACK
3.116443360,448,0x38,0x11,Write,ACK
3.116518435,448,0x38,0xE5,Write,ACK
3.116593500,448,0x38,0x20,Write,ACK
3.116668565,448,0x38,0x01,Write,ACK
3.116743635,448,0x38,0x96,Write,ACK
3.116916750,450,0x38,0x11,Write,ACK
3.117078570,450,0x38,0xE6,Write,ACK
3.117153635,450,0x38,0x00,Write,ACK
3.117246685,450,0x38,0x0A,Write,ACK
3.117321755,450,0x38,0x32,Write,ACK
3.117655870,453,0x38,0x00,Write,ACK
3.117760355,453,0x38,0x07,Write,ACK
3.118067305,454,0x39,0x0C,Read,ACK
3.118172915,454,0x39,0x56,Read,ACK
3.118293820,454,0x39,0x2C,Read,NAK
3.121478145,456,0x38,0x00,Write,ACK
3.121582630,456,0x38,0x22,Write,ACK
3.121802585,457,0x39,0x0C,Read,ACK
3.121908195,457,0x39,0x00,Read,ACK
3.122100110,457,0x39,0x00,Read,NAK
3.122582125,459,0x38,0x21,Write,ACK
3.122657195,459,0x38,0xF3,Write,ACK
3.122732260,459,0x38,0x07,Write,ACK
3.122807325,459,0x38,0x4A,Write,ACK
3.123069500,461,0x38,0x21,Write,ACK
3.123144575,461,0x38,0xF4,Write,ACK
3.123219640,461,0x38,0x00,Write,ACK
3.123314255,461,0x38,0x01,Write,ACK
3.123489495,463,0x38,0x21,Write,ACK
3.123564565,463,0x38,0xF5,Write,ACK
3.123639630,463,0x38,0x06,Write,ACK
3.123801010,463,0x38,0x95,Write,ACK
3.123976250,465,0x38,0x21,Write,ACK
3.124051320,465,0x38,0xF6,Write,ACK
3.124126385,465,0x38,0x0C,Write,ACK
3.124201455,465,0x38,0x03,Write,ACK
3.124418040,467,0x38,0x21,Write,ACK
3.124493110,467,0x38,0xF7,Write,ACK
3.124654545,467,0x38,0x07,Write,ACK
3.124729615,467,0x38,0x96,Write,ACK
3.124904855,469,0x38,0x21,Write,ACK
3.124979925,469,0x38,0xF8,Write,ACK
3.125054990,469,0x38,0x07,Write,ACK
3.125130060,469,0x38,0xFB,Write,ACK
3.125323285,471,0x38,0x21,Write,ACK
3.125484790,471,0x38,0xF9,Write,ACK
3.125559855,471,0x38,0x01,Write,ACK
3.125634925,471,0x38,0xB9,Write,ACK
3.125808230,473,0x38,0x11,Write,ACK
3.125883300,473,0x38,0xE5,Write,ACK
3.125958365,473,0x38,0x20,Write,ACK
3.126033430,473,0x38,0x01,Write,ACK
3.126108505,473,0x38,0x9A,Write,ACK
3.126383855,475,0x38,0x11,Write,ACK
3.126458925,475,0x38,0xE6,Write,ACK
3.126533990,475,0x38,0x00,Write,ACK
3.126609055,475,0x38,0x0A,Write,ACK
3.126684125,475,0x38,0x2C,Write,ACK
3.127018175,478,0x38,0x00,Write,ACK
3.127209655,478,0x38,0x07,Write,ACK
3.127447850,479,0x39,0x0C,Read,ACK
3.127553455,479,0x39,0x5E,Read,ACK
3.127659250,479,0x39,0xD8,Read,NAK
3.129550380,481,0x38,0x21,Write,ACK
3.129712320,481,0x38,0xF3,Write,ACK
3.129787385,481,0x38,0x03,Write,ACK
3.129862455,481,0x38,0x99,Write,ACK
3.130037695,483,0x38,0x21,Write,ACK
3.130112765,483,0x38,0xF4,Write,ACK
3.130187830,483,0x38,0x00,Write,ACK
3.130278825,483,0x38,0x07,Write,ACK
3.130540810,485,0x38,0x21,Write,ACK
3.130615885,485,0x38,0xF5,Write,ACK
3.130690950,485,0x38,0x07,Write,ACK
3.130766015,485,0x38,0x33,Write,ACK
3.130941255,487,0x38,0x21,Write,ACK
3.131016330,487,0x38,0xF6,Write,ACK
3.131091390,487,0x38,0x0C,Write,ACK
3.131166460,487,0x38,0x0E,Write,ACK
3.131447310,489,0x38,0x21,Write,ACK
3.131522380,489,0x38,0xF7,Write,ACK
3.131597445,489,0x38,0x03,Write,ACK
3.131672515,489,0x38,0xDC,Write,ACK
3.131847755,491,0x38,0x21,Write,ACK
3.131922825,491,0x38,0xF8,Write,ACK
3.131997890,491,0x38,0x07,Write,ACK
3.132072960,491,0x38,0xEF,Write,ACK
3.132351120,493,0x38,0x21,Write,ACK
3.132426190,493,0x38,0xF9,Write,ACK
3.132501255,493,0x38,0x0F,Write,ACK
3.132576325,493,0x38,0xE9,Write,ACK
3.132749630,495,0x38,0x11,Write,ACK
3.132824700,495,0x38,0xE5,Write,ACK
3.132899765,495,0x38,0x20,Write,ACK
3.133061830,495,0x38,0x01,Write,ACK
3.133136900,495,0x38,0xA1,Write,ACK
3.133328065,497,0x38,0x11,Write,ACK
3.133403135,497,0x38,0xE6,Write,ACK
3.133478200,497,0x38,0x00,Write,ACK
3.133553265,497,0x38,0x0A,Write,ACK
3.133628335,497,0x38,0x2C,Write,ACK
3.134294135,500,0x38,0x00,Write,ACK
3.134398620,500,0x38,0x22,Write,ACK
3.134618575,501,0x39,0x0C,Read,ACK
3.134810740,501,0x39,0x00,Read,ACK
3.134915600,501,0x39,0x00,Read,NAK
3.135985725,503,0x38,0x21,Write,ACK
3.136060800,503,0x38,0xF3,Write,ACK
3.136135865,503,0x38,0x00,Write,ACK
3.136210930,503,0x38,0x7E,Write,ACK
3.136489345,505,0x38,0x21,Write,ACK
3.136564415,505,0x38,0xF4,Write,ACK
3.136639480,505,0x38,0x0C,Write,ACK
3.136714550,505,0x38,0xFD,Write,ACK
3.136889790,507,0x38,0x21,Write,ACK
3.136964860,507,0x38,0xF5,Write,ACK
3.137039925,507,0x38,0x06,Write,ACK
3.137114995,507,0x38,0xF1,Write,ACK
3.137420945,509,0x38,0x21,Write,ACK
3.137496020,509,0x38,0xF6,Write,ACK
3.137571080,509,0x38,0x0E,Write,ACK
3.137646155,509,0x38,0x99,Write,ACK
3.137819455,511,0x38,0x11,Write,ACK
3.137894525,511,0x38,0xE5,Write,ACK
3.137969590,511,0x38,0x20,Write,ACK
3.138131905,511,0x38,0x01,Write,ACK
3.138206975,511,0x38,0xA8,Write,ACK
3.138395955,513,0x38,0x11,Write,ACK
3.138471025,513,0x38,0xE6,Write,ACK
3.138546090,513,0x38,0x00,Write,ACK
3.138621160,513,0x38,0x0A,Write,ACK
3.138696225,513,0x38,0x32,Write,ACK
3.139898615,516,0x38,0x00,Write,ACK
3.140003100,516,0x38,0x07,Write,ACK
3.140238980,517,0x39,0x0C,Read,ACK
3.140344590,517,0x39,0x5F,Read,ACK
3.140450570,517,0x39,0x18,Read,NAK
3.141802110,519,0x38,0x21,Write,ACK
3.141877180,519,0x38,0xF3,Write,ACK
3.141952245,519,0x38,0x00,Write,ACK
3.142027315,519,0x38,0x53,Write,ACK
3.142202555,521,0x38,0x21,Write,ACK
3.142405655,521,0x38,0xF4,Write,ACK
3.142480720,521,0x38,0x0C,Write,ACK
3.142555790,521,0x38,0xA7,Write,ACK
3.142731025,523,0x38,0x21,Write,ACK
3.142806100,523,0x38,0xF5,Write,ACK
3.142881165,523,0x38,0x06,Write,ACK
3.142956235,523,0x38,0xF5,Write,ACK
3.143237330,525,0x38,0x21,Write,ACK
3.143312400,525,0x38,0xF6,Write,ACK
3.143387465,525,0x38,0x00,Write,ACK
3.143462535,525,0x38,0x40,Write,ACK
3.143635840,527,0x38,0x11,Write,ACK
3.143710910,527,0x38,0xE5,Write,ACK
3.143785975,527,0x38,0x20,Write,ACK
3.143861040,527,0x38,0x01,Write,ACK
3.144023045,527,0x38,0xAC,Write,ACK
3.144196160,529,0x38,0x11,Write,ACK
3.144287160,529,0x38,0xE6,Write,ACK
3.144362220,529,0x38,0x00,Write,ACK
3.144437290,529,0x38,0x0A,Write,ACK
3.144512355,529,0x38,0x32,Write,ACK
3.144934970,532,0x38,0x00,Write,ACK
3.145039450,532,0x38,0x22,Write,ACK
3.145277455,533,0x39,0x0C,Read,ACK
3.145383065,533,0x39,0x00,Read,ACK
3.145487920,533,0x39,0x00,Read,NAK
3.146129190,535,0x38,0x21,Write,ACK
3.146204260,535,0x38,0xF3,Write,ACK
3.146295750,535,0x38,0x01,Write,ACK
3.146370820,535,0x38,0x21,Write,ACK
3.146633055,537,0x38,0x21,Write,ACK
3.146708125,537,0x38,0xF4,Write,ACK
3.146783190,537,0x38,0x0E,Write,ACK
3.146858260,537,0x38,0x44,Write,ACK
3.147033500,539,0x38,0x21,Write,ACK
3.147108570,539,0x38,0xF5,Write,ACK
3.147183635,539,0x38,0x01,Write,ACK
3.147389545,539,0x38,0x8D,Write,ACK
3.147564785,541,0x38,0x21,Write,ACK
3.147639855,541,0x38,0xF6,Write,ACK
3.147714920,541,0x38,0x0E,Write,ACK
3.147789990,541,0x38,0xE3,Write,ACK
3.147963290,543,0x38,0x11,Write,ACK
3.148038365,543,0x38,0xE5,Write,ACK
3.148113430,543,0x38,0x20,Write,ACK
3.148290790,543,0x38,0x01,Write,ACK
3.148365865,543,0x38,0xB0,Write,ACK
3.148538980,545,0x38,0x11,Write,ACK
3.148614050,545,0x38,0xE6,Write,ACK
3.148689115,545,0x38,0x00,Write,ACK
3.148764180,545,0x38,0x0A,Write,ACK
3.148839250,545,0x38,0x32,Write,ACK
3.149277160,548,0x38,0x00,Write,ACK
3.149381645,548,0x38,0x07,Write,ACK
3.149601600,549,0x39,0x0C,Read,ACK
3.149707210,549,0x39,0x6B,Read,ACK
3.149899560,549,0x39,0x8B,Read,NAK
3.151014655,551,0x38,0x21,Write,ACK
3.151089725,551,0x38,0xF3,Write,ACK
3.151164790,551,0x38,0x07,Write,ACK
3.151259345,551,0x38,0x4A,Write,ACK
3.151434585,553,0x38,0x21,Write,ACK
3.151596215,553,0x38,0xF4,Write,ACK
3.151671280,553,0x38,0x00,Write,ACK
3.151746350,553,0x38,0x01,Write,ACK
3.151921590,555,0x38,0x21,Write,ACK
3.151996660,555,0x38,0xF5,Write,ACK
3.152071725,555,0x38,0x06,Write,ACK
3.152146795,555,0x38,0x95,Write,ACK
3.152450250,557,0x38,0x21,Write,ACK
3.152525320,557,0x38,0xF6,Write,ACK
3.152600385,557,0x38,0x0C,Write,ACK
3.152675455,557,0x38,0x03,Write,ACK
3.152850695,559,0x38,0x21,Write,ACK
3.152925765,559,0x38,0xF7,Write,ACK
3.153000830,559,0x38,0x07,Write,ACK
3.153075900,559,0x38,0x96,Write,ACK
3.153355995,561,0x38,0x21,Write,ACK
3.153431070,561,0x38,0xF8,Write,ACK
3.153506135,561,0x38,0x07,Write,ACK
3.153581205,561,0x38,0xFB,Write,ACK
3.153756440,563,0x38,0x21,Write,ACK
3.153831515,563,0x38,0xF9,Write,ACK
3.153906580,563,0x38,0x01,Write,ACK
3.153981650,563,0x38,0xA3,Write,ACK
3.154257560,565,0x38,0x11,Write,ACK
3.154332630,565,0x38,0xE5,Write,ACK
3.154407695,565,0x38,0x20,Write,ACK
3.154482765,565,0x38,0x01,Write,ACK
3.154557835,565,0x38,0xB4,Write,ACK
3.154731140,567,0x38,0x11,Write,ACK
3.154806210,567,0x38,0xE6,Write,ACK
3.154968020,567,0x38,0x00,Write,ACK
3.155043085,567,0x38,0x0A,Write,ACK
3.155118155,567,0x38,0x2C,Write,ACK
3.155471130,570,0x38,0x00,Write,ACK
3.155575615,570,0x38,0x22,Write,ACK
3.155882440,571,0x39,0x0C,Read,ACK
3.155988050,571,0x39,0x00,Read,ACK
3.156092905,571,0x39,0x00,Read,NAK
3.157320730,573,0x38,0x21,Write,ACK
3.157482735,573,0x38,0xF3,Write,ACK
3.157557795,573,0x38,0x02,Write,ACK
3.157632870,573,0x38,0xC9,Write,ACK
3.157808105,575,0x38,0x21,Write,ACK
3.157883180,575,0x38,0xF4,Write,ACK
3.157958240,575,0x38,0x00,Write,ACK
3.158033310,575,0x38,0x0A,Write,ACK
3.158336830,577,0x38,0x21,Write,ACK
3.158411900,577,0x38,0xF5,Write,ACK
3.158486965,577,0x38,0x05,Write,ACK
3.158562035,577,0x38,0x93,Write,ACK
3.158737275,579,0x38,0x21,Write,ACK
3.158812345,579,0x38,0xF6,Write,ACK
3.158887410,579,0x38,0x0C,Write,ACK
3.158962475,579,0x38,0x14,Write,ACK
3.159243450,581,0x38,0x21,Write,ACK
3.159318520,581,0x38,0xF7,Write,ACK
3.159393585,581,0x38,0x05,Write,ACK
3.159468655,581,0x38,0x85,Write,ACK
3.159643895,583,0x38,0x21,Write,ACK
3.159718965,583,0x38,0xF8,Write,ACK
3.159794030,583,0x38,0x07,Write,ACK
3.159869100,583,0x38,0xE9,Write,ACK
3.160131400,585,0x38,0x21,Write,ACK
3.160222335,585,0x38,0xF9,Write,ACK
3.160297395,585,0x38,0x0F,Write,ACK
3.160372470,585,0x38,0xAA,Write,ACK
3.160545770,587,0x38,0x11,Write,ACK
3.160620845,587,0x38,0xE5,Write,ACK
3.160695905,587,0x38,0x20,Write,ACK
3.160857845,587,0x38,0x01,Write,ACK
3.160932915,587,0x38,0xBB,Write,ACK
3.161106220,589,0x38,0x11,Write,ACK
3.161181290,589,0x38,0xE6,Write,ACK
3.161274280,589,0x38,0x00,Write,ACK
3.161349345,589,0x38,0x0A,Write,ACK
3.161424415,589,0x38,0x2C,Write,ACK
3.161845275,592,0x38,0x00,Write,ACK
3.161949760,592,0x38,0x07,Write,ACK
3.162169715,593,0x39,0x0C,Read,ACK
3.162290625,593,0x39,0x5E,Read,ACK
3.162396420,593,0x39,0x99,Read,NAK
3.163630485,595,0x38,0x21,Write,ACK
3.163705555,595,0x38,0xF3,Write,ACK
3.163780620,595,0x38,0x00,Write,ACK
3.163855685,595,0x38,0x19,Write,ACK
3.164030930,597,0x38,0x21,Write,ACK
3.164106000,597,0x38,0xF4,Write,ACK
3.164309095,597,0x38,0x0C,Write,ACK
3.164384160,597,0x38,0x34,Write,ACK
3.164559400,599,0x38,0x21,Write,ACK
3.164634475,599,0x38,0xF5,Write,ACK
3.164709535,599,0x38,0x07,Write,ACK
3.164784610,599,0x38,0xC5,Write,ACK
3.164959845,601,0x38,0x21,Write,ACK
3.165121850,601,0x38,0xF6,Write,ACK
3.165214905,601,0x38,0x01,Write,ACK
3.165289970,601,0x38,0x2B,Write,ACK
3.165463275,603,0x38,0x11,Write,ACK
3.165538345,603,0x38,0xE5,Write,ACK
3.165613410,603,0x38,0x20,Write,ACK
3.165688480,603,0x38,0x01,Write,ACK
3.165763550,603,0x38,0xC2,Write,ACK
3.166023160,605,0x38,0x11,Write,ACK
3.166098235,605,0x38,0xE6,Write,ACK
3.166173300,605,0x38,0x00,Write,ACK
3.166264230,605,0x38,0x0A,Write,ACK
3.166339295,605,0x38,0x32,Write,ACK
3.166788760,608,0x38,0x00,Write,ACK
3.166893245,608,0x38,0x22,Write,ACK
3.167113200,609,0x39,0x0C,Read,ACK
3.167237795,609,0x39,0x00,Read,ACK
3.167342650,609,0x39,0x00,Read,NAK
3.168088965,611,0x38,0x21,Write,ACK
3.168164035,611,0x38,0xF3,Write,ACK
3.168255525,611,0x38,0x00,Write,ACK
3.168330595,611,0x38,0x86,Write,ACK
3.168592520,613,0x38,0x21,Write,ACK
3.168667590,613,0x38,0xF4,Write,ACK
3.168742655,613,0x38,0x0D,Write,ACK
3.168817720,613,0x38,0x0D,Write,ACK
3.168992960,615,0x38,0x21,Write,ACK
3.169068035,615,0x38,0xF5,Write,ACK
3.169143100,615,0x38,0x06,Write,ACK
3.169347635,615,0x38,0xE1,Write,ACK
3.169522870,617,0x38,0x21,Write,ACK
3.169597945,617,0x38,0xF6,Write,ACK
3.169673005,617,0x38,0x0E,Write,ACK
3.169748080,617,0x38,0x81,Write,ACK
3.169921380,619,0x38,0x11,Write,ACK
3.169996450,619,0x38,0xE5,Write,ACK
3.170158325,619,0x38,0x20,Write,ACK
3.170248630,619,0x38,0x01,Write,ACK
3.170323705,619,0x38,0xC6,Write,ACK
3.170496815,621,0x38,0x11,Write,ACK
3.170571890,621,0x38,0xE6,Write,ACK
3.170646950,621,0x38,0x00,Write,ACK
3.170722020,621,0x38,0x0A,Write,ACK
3.170797090,621,0x38,0x32,Write,ACK
3.171236560,624,0x38,0x00,Write,ACK
3.171341045,624,0x38,0x07,Write,ACK
3.171561000,625,0x39,0x0C,Read,ACK
3.171666610,625,0x39,0x56,Read,ACK
3.171859150,625,0x39,0x5B,Read,NAK
3.172957690,627,0x38,0x21,Write,ACK
3.173032765,627,0x38,0xF3,Write,ACK
3.173107830,627,0x38,0x00,Write,ACK
3.173182900,627,0x38,0x85,Write,ACK
3.173376750,629,0x38,0x21,Write,ACK
3.173538190,629,0x38,0xF4,Write,ACK
3.173613255,629,0x38,0x0D,Write,ACK
3.173688325,629,0x38,0x0B,Write,ACK
3.173863565,631,0x38,0x21,Write,ACK
3.173938635,631,0x38,0xF5,Write,ACK
3.174013700,631,0x38,0x04,Write,ACK
3.174088770,631,0x38,0xE5,Write,ACK
3.174391915,633,0x38,0x21,Write,ACK
3.174466985,633,0x38,0xF6,Write,ACK
3.174542050,633,0x38,0x00,Write,ACK
3.174617120,633,0x38,0xC9,Write,ACK
3.174790420,635,0x38,0x11,Write,ACK
3.174865495,635,0x38,0xE5,Write,ACK
3.174940560,635,0x38,0x20,Write,ACK
3.175015625,635,0x38,0x01,Write,ACK
3.175177505,635,0x38,0xCA,Write,ACK
3.175369605,637,0x38,0x11,Write,ACK
3.175444675,637,0x38,0xE6,Write,ACK
3.175519740,637,0x38,0x00,Write,ACK
3.175594810,637,0x38,0x0A,Write,ACK
3.175669875,637,0x38,0x32,Write,ACK
3.176090865,640,0x38,0x00,Write,ACK
3.176211270,640,0x38,0x22,Write,ACK
3.176431230,641,0x39,0x0C,Read,ACK
3.176536835,641,0x39,0x00,Read,ACK
3.176641695,641,0x39,0x00,Read,NAK
3.177283025,643,0x38,0x21,Write,ACK
3.177358095,643,0x38,0xF3,Write,ACK
3.177433160,643,0x38,0x07,Write,ACK
3.177508225,643,0x38,0x4A,Write,ACK
3.177770525,645,0x38,0x21,Write,ACK
3.177845600,645,0x38,0xF4,Write,ACK
3.177920665,645,0x38,0x00,Write,ACK
3.177995730,645,0x38,0x01,Write,ACK
3.178170970,647,0x38,0x21,Write,ACK
3.178286760,647,0x38,0xF5,Write,ACK
3.178361825,647,0x38,0x06,Write,ACK
3.178436900,647,0x38,0x95,Write,ACK
3.178698820,649,0x38,0x21,Write,ACK
3.178773890,649,0x38,0xF6,Write,ACK
3.178848955,649,0x38,0x0C,Write,ACK
3.178924025,649,0x38,0x03,Write,ACK
3.179099265,651,0x38,0x21,Write,ACK
3.179174335,651,0x38,0xF7,Write,ACK
3.179267760,651,0x38,0x07,Write,ACK
3.179429515,651,0x38,0x96,Write,ACK
3.179604755,653,0x38,0x21,Write,ACK
3.179679825,653,0x38,0xF8,Write,ACK
3.179754890,653,0x38,0x07,Write,ACK
3.179829960,653,0x38,0xFB,Write,ACK
3.180005200,655,0x38,0x21,Write,ACK
3.180080270,655,0x38,0xF9,Write,ACK
3.180257320,655,0x38,0x01,Write,ACK
3.180332390,655,0x38,0xA3,Write,ACK
3.180505695,657,0x38,0x11,Write,ACK
3.180580765,657,0x38,0xE5,Write,ACK
3.180655830,657,0x38,0x20,Write,ACK
3.180730895,657,0x38,0x01,Write,ACK
3.180805970,657,0x38,0xCE,Write,ACK
3.181065955,659,0x38,0x11,Write,ACK
3.181141025,659,0x38,0xE6,Write,ACK
3.181233450,659,0x38,0x00,Write,ACK
3.181308520,659,0x38,0x0A,Write,ACK
3.181383585,659,0x38,0x2C,Write,ACK
3.181717950,662,0x38,0x00,Write,ACK
3.181909180,662,0x38,0x07,Write,ACK
3.182129140,663,0x39,0x0C,Read,ACK
3.182249985,663,0x39,0x6E,Read,ACK
3.182355780,663,0x39,0x35,Read,NAK
3.183649425,665,0x38,0x21,Write,ACK
3.183724495,665,0x38,0xF3,Write,ACK
3.183799560,665,0x38,0x02,Write,ACK
3.183874630,665,0x38,0xC9,Write,ACK
3.184049870,667,0x38,0x21,Write,ACK
3.184124940,667,0x38,0xF4,Write,ACK
3.184241285,667,0x38,0x00,Write,ACK
3.184316355,667,0x38,0x0A,Write,ACK
3.184578280,669,0x38,0x21,Write,ACK
3.184653350,669,0x38,0xF5,Write,ACK
3.184728415,669,0x38,0x05,Write,ACK
3.184803485,669,0x38,0x93,Write,ACK
3.184978725,671,0x38,0x21,Write,ACK
3.185053795,671,0x38,0xF6,Write,ACK
3.185128860,671,0x38,0x0C,Write,ACK
3.185350315,671,0x38,0x14,Write,ACK
3.185525560,673,0x38,0x21,Write,ACK
3.185600630,673,0x38,0xF7,Write,ACK
3.185675695,673,0x38,0x05,Write,ACK
3.185750765,673,0x38,0x85,Write,ACK
3.185926000,675,0x38,0x21,Write,ACK
3.186001075,675,0x38,0xF8,Write,ACK
3.186162885,675,0x38,0x07,Write,ACK
3.186253880,675,0x38,0xE9,Write,ACK
3.186429120,677,0x38,0x21,Write,ACK
3.186504190,677,0x38,0xF9,Write,ACK
3.186579255,677,0x38,0x0F,Write,ACK
3.186654325,677,0x38,0xAA,Write,ACK
3.186827630,679,0x38,0x11,Write,ACK
3.186989820,679,0x38,0xE5,Write,ACK
3.187064885,679,0x38,0x20,Write,ACK
3.187139955,679,0x38,0x01,Write,ACK
3.187233950,679,0x38,0xD5,Write,ACK
3.187407250,681,0x38,0x11,Write,ACK
3.187482320,681,0x38,0xE6,Write,ACK
3.187557385,681,0x38,0x00,Write,ACK
3.187632455,681,0x38,0x0A,Write,ACK
3.187794395,681,0x38,0x2C,Write,ACK
3.188284575,684,0x38,0x00,Write,ACK
3.188389060,684,0x38,0x22,Write,ACK
3.188695825,685,0x39,0x0C,Read,ACK
3.188801430,685,0x39,0x00,Read,ACK
3.188906290,685,0x39,0x00,Read,NAK
3.189975920,687,0x38,0x21,Write,ACK
3.190050990,687,0x38,0xF3,Write,ACK
3.190126055,687,0x38,0x00,Write,ACK
3.190217610,687,0x38,0x19,Write,ACK
3.190479910,689,0x38,0x21,Write,ACK
3.190554980,689,0x38,0xF4,Write,ACK
3.190630045,689,0x38,0x0C,Write,ACK
3.190705115,689,0x38,0x34,Write,ACK
3.190880355,691,0x38,0x21,Write,ACK
3.190955425,691,0x38,0xF5,Write,ACK
3.191030490,691,0x38,0x07,Write,ACK
3.191236460,691,0x38,0xC5,Write,ACK
3.191411700,693,0x38,0x21,Write,ACK
3.191486770,693,0x38,0xF6,Write,ACK
3.191561835,693,0x38,0x01,Write,ACK
3.191636905,693,0x38,0x2B,Write,ACK
3.191810210,695,0x38,0x11,Write,ACK
3.191885280,695,0x38,0xE5,Write,ACK
3.192047155,695,0x38,0x20,Write,ACK
3.192122220,695,0x38,0x01,Write,ACK
3.192213220,695,0x38,0xDC,Write,ACK
3.192386330,697,0x38,0x11,Write,ACK
3.192461405,697,0x38,0xE6,Write,ACK
3.192536470,697,0x38,0x00,Write,ACK
3.192611535,697,0x38,0x0A,Write,ACK
3.192686605,697,0x38,0x32,Write,ACK
3.193134695,700,0x38,0x00,Write,ACK
3.193257165,700,0x38,0x07,Write,ACK
3.193477120,701,0x39,0x0C,Read,ACK
3.193582730,701,0x39,0x71,Read,ACK
3.193774705,701,0x39,0xAD,Read,NAK
3.194991100,703,0x38,0x21,Write,ACK
3.195066170,703,0x38,0xF3,Write,ACK
3.195141235,703,0x38,0x00,Write,ACK
3.195260645,703,0x38,0x86,Write,ACK
3.195522380,705,0x38,0x21,Write,ACK
3.195597450,705,0x38,0xF4,Write,ACK
3.195672515,705,0x38,0x0D,Write,ACK
3.195747585,705,0x38,0x0D,Write,ACK
3.195922825,707,0x38,0x21,Write,ACK
3.195997895,707,0x38,0xF5,Write,ACK
3.196072960,707,0x38,0x06,Write,ACK
3.196250705,707,0x38,0xE1,Write,ACK
3.196425945,709,0x38,0x21,Write,ACK
3.196501015,709,0x38,0xF6,Write,ACK
3.196576080,709,0x38,0x0E,Write,ACK
3.196651150,709,0x38,0x81,Write,ACK
3.196824450,711,0x38,0x11,Write,ACK
3.196899525,711,0x38,0xE5,Write,ACK
3.197061085,711,0x38,0x20,Write,ACK
3.197136150,711,0x38,0x01,Write,ACK
3.197229335,711,0x38,0xE0,Write,ACK
3.197402450,713,0x38,0x11,Write,ACK
3.197477520,713,0x38,0xE6,Write,ACK
3.197552585,713,0x38,0x00,Write,ACK
3.197627655,713,0x38,0x0A,Write,ACK
3.197702720,713,0x38,0x32,Write,ACK
3.198369830,716,0x38,0x00,Write,ACK
3.198474315,716,0x38,0x22,Write,ACK
3.198781145,717,0x39,0x0C,Read,ACK
3.198886750,717,0x39,0x00,Read,ACK
3.198991610,717,0x39,0x00,Read,NAK
3.200063360,719,0x38,0x21,Write,ACK
3.200138430,719,0x38,0xF3,Write,ACK
3.200229985,719,0x38,0x00,Write,ACK
3.200305055,719,0x38,0x85,Write,ACK
3.200567225,721,0x38,0x21,Write,ACK
3.200642300,721,0x38,0xF4,Write,ACK
3.200717360,721,0x38,0x0D,Write,ACK
3.200792430,721,0x38,0x0B,Write,ACK
3.200967670,723,0x38,0x21,Write,ACK
3.201042745,723,0x38,0xF5,Write,ACK
3.201117805,723,0x38,0x04,Write,ACK
3.201323280,723,0x38,0xE5,Write,ACK
3.201498515,725,0x38,0x21,Write,ACK
3.201573590,725,0x38,0xF6,Write,ACK
3.201648655,725,0x38,0x00,Write,ACK
3.201723725,725,0x38,0xC9,Write,ACK
3.201897025,727,0x38,0x11,Write,ACK
3.201972095,727,0x38,0xE5,Write,ACK
3.202134095,727,0x38,0x20,Write,ACK
3.202225025,727,0x38,0x01,Write,ACK
3.202300100,727,0x38,0xE4,Write,ACK
3.202473210,729,0x38,0x11,Write,ACK
3.202548285,729,0x38,0xE6,Write,ACK
3.202623350,729,0x38,0x00,Write,ACK
3.202698415,729,0x38,0x0A,Write,ACK
3.202773485,729,0x38,0x32,Write,ACK
3.203946835,732,0x38,0x00,Write,ACK
3.204051315,732,0x38,0x07,Write,ACK
3.204287140,733,0x39,0x0C,Read,ACK
3.204392745,733,0x39,0x7A,Read,ACK
3.204498540,733,0x39,0xB9,Read,NAK
3.206744765,735,0x38,0x00,Write,ACK
3.206849250,735,0x38,0x22,Write,ACK
3.207069205,736,0x39,0x0C,Read,ACK
3.207316580,736,0x39,0x00,Read,ACK
3.207421440,736,0x39,0x00,Read,NAK
3.209529020,738,0x38,0x00,Write,ACK
3.209720560,738,0x38,0x07,Write,ACK
3.209940520,739,0x39,0x0C,Read,ACK
3.210046125,739,0x39,0x7B,Read,ACK
3.210152110,739,0x39,0x77,Read,NAK
3.211455245,741,0x38,0x21,Write,ACK
3.211530125,741,0x38,0x77,Write,ACK
3.211605010,741,0x38,0x00,Write,ACK
3.211679890,741,0x38,0x00,Write,ACK
3.211859250,743,0x38,0x21,Write,ACK
3.211934130,743,0x38,0x2A,Write,ACK
3.212009010,743,0x38,0x0F,Write,ACK
3.212083895,743,0x38,0x80,Write,ACK
3.212385100,745,0x38,0x21,Write,ACK
3.212459980,745,0x38,0x2B,Write,ACK
3.212534860,745,0x38,0x00,Write,ACK
3.212609745,745,0x38,0x00,Write,ACK
3.212783925,747,0x38,0x21,Write,ACK
3.212858800,747,0x38,0x2C,Write,ACK
3.212933685,747,0x38,0x0F,Write,ACK
3.213094995,747,0x38,0x33,Write,ACK
3.213472080,750,0x38,0x00,Write,ACK
3.213576560,750,0x38,0x22,Write,ACK
3.213796520,751,0x39,0x0C,Read,ACK
3.213988875,751,0x39,0x00,Read,ACK
3.214093730,751,0x39,0x00,Read,NAK
3.216486095,753,0x38,0x00,Write,ACK
3.216590580,753,0x38,0x07,Write,ACK
3.216810535,754,0x39,0x0C,Read,ACK
3.216916145,754,0x39,0x68,Read,ACK
3.217021565,754,0x39,0x24,Read,NAK
3.219831610,756,0x38,0x00,Write,ACK
3.219936095,756,0x38,0x22,Write,ACK
3.220171915,757,0x39,0x0C,Read,ACK
3.220277520,757,0x39,0x00,Read,ACK
3.220382380,757,0x39,0x00,Read,NAK
3.222472725,759,0x38,0x00,Write,ACK
3.222577205,759,0x38,0x07,Write,ACK
3.222797165,760,0x39,0x0C,Read,ACK
3.222902770,760,0x39,0x81,Read,ACK
3.223008005,760,0x39,0x94,Read,NAK
3.225979680,762,0x38,0x00,Write,ACK
3.226084160,762,0x38,0x22,Write,ACK
3.226320045,763,0x39,0x0C,Read,ACK
3.226425650,763,0x39,0x00,Read,ACK
3.226617320,763,0x39,0x00,Read,NAK
3.228695300,765,0x38,0x00,Write,ACK
3.228799780,765,0x38,0x07,Write,ACK
3.229161690,766,0x39,0x0C,Read,ACK
3.229267300,766,0x39,0x5F,Read,ACK
3.229373280,766,0x39,0xB6,Read,NAK
3.231602835,768,0x38,0x00,Write,ACK
3.231707315,768,0x38,0x22,Write,ACK
3.231927275,769,0x39,0x0C,Read,ACK
3.232032880,769,0x39,0x00,Read,ACK
3.232137740,769,0x39,0x00,Read,NAK
3.234708840,771,0x38,0x00,Write,ACK
3.234813325,771,0x38,0x07,Write,ACK
3.235120030,772,0x39,0x0C,Read,ACK
3.235244560,772,0x39,0x8F,Read,ACK
3.235350355,772,0x39,0xB9,Read,NAK
3.237894290,774,0x38,0x00,Write,ACK
3.237998775,774,0x38,0x22,Write,ACK
3.238234655,775,0x39,0x0C,Read,ACK
3.238427200,775,0x39,0x00,Read,ACK
3.238532055,775,0x39,0x00,Read,NAK
3.241313750,777,0x38,0x00,Write,ACK
3.241418230,777,0x38,0x07,Write,ACK
3.241724935,778,0x39,0x0C,Read,ACK
3.241830545,778,0x39,0x6C,Read,ACK
3.241936150,778,0x39,0xA9,Read,NAK
3.244732145,780,0x38,0x00,Write,ACK
3.244836630,780,0x38,0x22,Write,ACK
3.245161070,781,0x39,0x0C,Read,ACK
3.245266675,781,0x39,0x00,Read,ACK
3.245371535,781,0x39,0x00,Read,NAK
3.247679340,783,0x38,0x00,Write,ACK
3.247783820,783,0x38,0x07,Write,ACK
3.248003780,784,0x39,0x0C,Read,ACK
3.248109385,784,0x39,0x6D,Read,ACK
3.248231105,784,0x39,0x87,Read,NAK
3.250366915,786,0x38,0x00,Write,ACK
3.250471400,786,0x38,0x22,Write,ACK
3.250691355,787,0x39,0x0C,Read,ACK
3.250796965,787,0x39,0x00,Read,ACK
3.251024355,787,0x39,0x00,Read,NAK
3.253743970,789,0x38,0x00,Write,ACK
3.253848455,789,0x38,0x07,Write,ACK
3.254068410,790,0x39,0x0C,Read,ACK
3.254189945,790,0x39,0x75,Read,ACK
3.254382360,790,0x39,0xA4,Read,NAK
3.256572255,792,0x38,0x00,Write,ACK
3.256676735,792,0x38,0x22,Write,ACK
3.256983255,793,0x39,0x0C,Read,ACK
3.257088860,793,0x39,0x00,Read,ACK
3.257211765,793,0x39,0x00,Read,NAK
3.259994335,795,0x38,0x00,Write,ACK
3.260098815,795,0x38,0x07,Write,ACK
3.260421320,796,0x39,0x0C,Read,ACK
3.260526930,796,0x39,0x96,Read,ACK
3.260632535,796,0x39,0xF9,Read,NAK
3.262593105,798,0x38,0x00,Write,ACK
3.262784395,798,0x38,0x22,Write,ACK
3.263004355,799,0x39,0x0C,Read,ACK
3.263109960,799,0x39,0x00,Read,ACK
3.263233740,799,0x39,0x00,Read,NAK
3.265628170,801,0x38,0x00,Write,ACK
3.265732650,801,0x38,0x07,Write,ACK
3.265952610,802,0x39,0x0C,Read,ACK
3.266160700,802,0x39,0x65,Read,ACK
3.266266310,802,0x39,0x3A,Read,NAK
3.268871325,804,0x38,0x00,Write,ACK
3.268975805,804,0x38,0x22,Write,ACK
3.269213750,805,0x39,0x0C,Read,ACK
3.269319355,805,0x39,0x00,Read,ACK
3.269511150,805,0x39,0x00,Read,NAK
3.271596125,807,0x38,0x00,Write,ACK
3.271700605,807,0x38,0x07,Write,ACK
3.271920565,808,0x39,0x0C,Read,ACK
3.272128965,808,0x39,0x69,Read,ACK
3.272234575,808,0x39,0xFF,Read,NAK
3.274785945,810,0x38,0x00,Write,ACK
3.274890425,810,0x38,0x22,Write,ACK
3.275129370,811,0x39,0x0C,Read,ACK
3.275234975,811,0x39,0x00,Read,ACK
3.275426580,811,0x39,0x00,Read,NAK
3.355303315,813,0x38,0x11,Write,ACK
3.355465125,813,0x38,0x4D,Write,ACK
3.355540010,813,0x38,0x00,Write,ACK
3.355614890,813,0x38,0x00,Write,ACK
3.355689770,813,0x38,0x00,Write,ACK
3.355860825,815,0x38,0x11,Write,ACK
3.355935705,815,0x38,0x4A,Write,ACK
3.356010585,815,0x38,0x7F,Write,ACK
3.356101960,815,0x38,0xFF,Write,ACK
3.356263710,815,0x38,0xFF,Write,ACK
3.356436640,817,0x38,0x11,Write,ACK
3.356511520,817,0x38,0x4D,Write,ACK
3.356586400,817,0x38,0x05,Write,ACK
3.356661285,817,0x38,0xCE,Write,ACK
3.356736160,817,0x38,0x14,Write,ACK
3.436402610,819,0x38,0x11,Write,ACK
3.436477490,819,0x38,0x4D,Write,ACK
3.436552370,819,0x38,0x00,Write,ACK
3.436627250,819,0x38,0x00,Write,ACK
3.436702130,819,0x38,0x00,Write,ACK
3.436872815,821,0x38,0x11,Write,ACK
3.436947695,821,0x38,0x4A,Write,ACK
3.437040625,821,0x38,0x00,Write,ACK
3.437207810,821,0x38,0x00,Write,ACK
3.437282690,821,0x38,0x00,Write,ACK
3.437455560,823,0x38,0x11,Write,ACK
3.437530440,823,0x38,0x4D,Write,ACK
3.437605320,823,0x38,0x05,Write,ACK
3.437680205,823,0x38,0xCE,Write,ACK
3.437755080,823,0x38,0x14,Write,ACK
3.442630800,826,0x38,0x00,Write,ACK
3.442735280,826,0x38,0x07,Write,ACK
3.443046170,827,0x39,0x0D,Read,ACK
3.443151965,827,0x39,0x0A,Read,ACK
3.443257195,827,0x39,0xA2,Read,NAK
3.446502730,829,0x38,0x11,Write,ACK
3.446577805,829,0x38,0xF5,Write,ACK
3.446652865,829,0x38,0x20,Write,ACK
3.446727935,829,0x38,0x01,Write,ACK
3.446803000,829,0x38,0x17,Write,ACK
3.446974870,831,0x38,0x11,Write,ACK
3.447068865,831,0x38,0xF6,Write,ACK
3.447143930,831,0x38,0x20,Write,ACK
3.447291820,831,0x38,0x01,Write,ACK
3.447366885,831,0x38,0x19,Write,ACK
3.447542940,833,0x38,0x20,Write,ACK
3.447618010,833,0x38,0xB0,Write,ACK
3.447693075,833,0x38,0x07,Write,ACK
3.447768145,833,0x38,0xCC,Write,ACK
3.447944760,835,0x38,0x20,Write,ACK
3.448108575,835,0x38,0xB1,Write,ACK
3.448183640,835,0x38,0x03,Write,ACK
3.448258705,835,0x38,0x6E,Write,ACK
3.448435320,837,0x38,0x20,Write,ACK
3.448510395,837,0x38,0xB2,Write,ACK
3.448585455,837,0x38,0x0C,Write,ACK
3.448660525,837,0x38,0x32,Write,ACK
3.448837140,839,0x38,0x20,Write,ACK
3.449002955,839,0x38,0xB3,Write,ACK
3.449078020,839,0x38,0x02,Write,ACK
3.449153085,839,0x38,0x6F,Write,ACK
3.449329705,841,0x38,0x20,Write,ACK
3.449404775,841,0x38,0xB4,Write,ACK
3.449479840,841,0x38,0x01,Write,ACK
3.449554910,841,0x38,0xF3,Write,ACK
3.449804215,843,0x38,0x20,Write,ACK
3.449879285,843,0x38,0xB5,Write,ACK
3.449954355,843,0x38,0x02,Write,ACK
3.450045410,843,0x38,0x1F,Write,ACK
3.450222025,845,0x38,0x20,Write,ACK
3.450297095,845,0x38,0xB6,Write,ACK
3.450372160,845,0x38,0x0C,Write,ACK
3.450447225,845,0x38,0x19,Write,ACK
3.450696535,847,0x38,0x20,Write,ACK
3.450771610,847,0x38,0xB7,Write,ACK
3.450846675,847,0x38,0x03,Write,ACK
3.450921745,847,0x38,0xC0,Write,ACK
3.451117155,849,0x38,0x20,Write,ACK
3.451192225,849,0x38,0xB8,Write,ACK
3.451267290,849,0x38,0x01,Write,ACK
3.451342360,849,0x38,0xF3,Write,ACK
3.451591855,851,0x38,0x20,Write,ACK
3.451666925,851,0x38,0xB9,Write,ACK
3.451741990,851,0x38,0x02,Write,ACK
3.451817060,851,0x38,0x1F,Write,ACK
3.452009035,853,0x38,0x20,Write,ACK
3.452084110,853,0x38,0xBA,Write,ACK
3.452159175,853,0x38,0x00,Write,ACK
3.452307125,853,0x38,0x00,Write,ACK
3.452483740,855,0x38,0x20,Write,ACK
3.452558810,855,0x38,0xBB,Write,ACK
3.452633875,855,0x38,0x00,Write,ACK
3.452708940,855,0x38,0x00,Write,ACK
3.452885555,857,0x38,0x20,Write,ACK
3.452960630,857,0x38,0xBC,Write,ACK
3.453125750,857,0x38,0x07,Write,ACK
3.453200820,857,0x38,0xFF,Write,ACK
3.453377435,859,0x38,0x20,Write,ACK
3.453452505,859,0x38,0xBD,Write,ACK
3.453527570,859,0x38,0x07,Write,ACK
3.453602640,859,0x38,0xFF,Write,ACK
3.453779250,861,0x38,0x20,Write,ACK
3.453854325,861,0x38,0xBE,Write,ACK
3.454017195,861,0x38,0x00,Write,ACK
3.454092265,861,0x38,0x00,Write,ACK
3.454268880,863,0x38,0x20,Write,ACK
3.454343950,863,0x38,0xBF,Write,ACK
3.454419015,863,0x38,0x00,Write,ACK
3.454494080,863,0x38,0x00,Write,ACK
3.457833660,866,0x38,0x00,Write,ACK
3.457938140,866,0x38,0x22,Write,ACK
3.458246595,867,0x39,0x0C,Read,ACK
3.458352200,867,0x39,0x00,Read,ACK
3.458457060,867,0x39,0x00,Read,NAK
3.459032940,869,0x38,0x20,Write,ACK
3.459108010,869,0x38,0xC0,Write,ACK
3.459183075,869,0x38,0x07,Write,ACK
3.459258145,869,0x38,0xDD,Write,ACK
3.459434760,871,0x38,0x20,Write,ACK
3.459509830,871,0x38,0xC1,Write,ACK
3.459584895,871,0x38,0x07,Write,ACK
3.459659965,871,0x38,0xAC,Write,ACK
3.459909395,873,0x38,0x20,Write,ACK
3.460025810,873,0x38,0xC2,Write,ACK
3.460100875,873,0x38,0x0C,Write,ACK
3.460175945,873,0x38,0x21,Write,ACK
3.460352560,875,0x38,0x20,Write,ACK
3.460427630,875,0x38,0xC3,Write,ACK
3.460502695,875,0x38,0x03,Write,ACK
3.460577765,875,0x38,0xE0,Write,ACK
3.460827385,877,0x38,0x20,Write,ACK
3.460902455,877,0x38,0xC4,Write,ACK
3.460995505,877,0x38,0x01,Write,ACK
3.461070575,877,0x38,0xF7,Write,ACK
3.461247190,879,0x38,0x20,Write,ACK
3.461322260,879,0x38,0xC5,Write,ACK
3.461397325,879,0x38,0x04,Write,ACK
3.461545025,879,0x38,0x79,Write,ACK
3.461721640,881,0x38,0x20,Write,ACK
3.461796710,881,0x38,0xC6,Write,ACK
3.461871775,881,0x38,0x0C,Write,ACK
3.461946845,881,0x38,0x10,Write,ACK
3.462139385,883,0x38,0x20,Write,ACK
3.462214455,883,0x38,0xC7,Write,ACK
3.462289520,883,0x38,0x07,Write,ACK
3.462437535,883,0x38,0x0D,Write,ACK
3.462614150,885,0x38,0x20,Write,ACK
3.462689220,885,0x38,0xC8,Write,ACK
3.462764285,885,0x38,0x01,Write,ACK
3.462839355,885,0x38,0xF7,Write,ACK
3.463034265,887,0x38,0x20,Write,ACK
3.463109335,887,0x38,0xC9,Write,ACK
3.463288260,887,0x38,0x04,Write,ACK
3.463363330,887,0x38,0x79,Write,ACK
3.463539945,889,0x38,0x20,Write,ACK
3.463615015,889,0x38,0xCA,Write,ACK
3.463690080,889,0x38,0x00,Write,ACK
3.463765145,889,0x38,0x00,Write,ACK
3.463941760,891,0x38,0x20,Write,ACK
3.464123000,891,0x38,0xCB,Write,ACK
3.464198065,891,0x38,0x00,Write,ACK
3.464273135,891,0x38,0x00,Write,ACK
3.464449750,893,0x38,0x20,Write,ACK
3.464524820,893,0x38,0xCC,Write,ACK
3.464599885,893,0x38,0x07,Write,ACK
3.464674955,893,0x38,0xFF,Write,ACK
3.464942935,895,0x38,0x20,Write,ACK
3.465035370,895,0x38,0xCD,Write,ACK
3.465110435,895,0x38,0x07,Write,ACK
3.465185505,895,0x38,0xFF,Write,ACK
3.465362120,897,0x38,0x20,Write,ACK
3.465437190,897,0x38,0xCE,Write,ACK
3.465512255,897,0x38,0x00,Write,ACK
3.465587320,897,0x38,0x00,Write,ACK
3.465854930,899,0x38,0x20,Write,ACK
3.465930000,899,0x38,0xCF,Write,ACK
3.466020305,899,0x38,0x00,Write,ACK
3.466095370,899,0x38,0x00,Write,ACK
3.469261210,901,0x38,0x21,Write,ACK
3.469336285,901,0x38,0xF3,Write,ACK
3.469411345,901,0x38,0x03,Write,ACK
3.469486415,901,0x38,0x9B,Write,ACK
3.469661655,903,0x38,0x21,Write,ACK
3.469736725,903,0x38,0xF4,Write,ACK
3.469811790,903,0x38,0x00,Write,ACK
3.469993965,903,0x38,0x1D,Write,ACK
3.470169205,905,0x38,0x21,Write,ACK
3.470244280,905,0x38,0xF5,Write,ACK
3.470319345,905,0x38,0x07,Write,ACK
3.470394410,905,0x38,0x36,Write,ACK
3.470569650,907,0x38,0x21,Write,ACK
3.470644725,907,0x38,0xF6,Write,ACK
3.470719790,907,0x38,0x0C,Write,ACK
3.470885975,907,0x38,0x3A,Write,ACK
3.471080140,909,0x38,0x21,Write,ACK
3.471155210,909,0x38,0xF7,Write,ACK
3.471230275,909,0x38,0x06,Write,ACK
3.471305345,909,0x38,0xB1,Write,ACK
3.471480585,911,0x38,0x21,Write,ACK
3.471555655,911,0x38,0xF8,Write,ACK
3.471721400,911,0x38,0x07,Write,ACK
3.471796470,911,0x38,0xC3,Write,ACK
3.471987570,913,0x38,0x21,Write,ACK
3.472062645,913,0x38,0xF9,Write,ACK
3.472137705,913,0x38,0x0F,Write,ACK
3.472212775,913,0x38,0x01,Write,ACK
3.472386080,915,0x38,0x11,Write,ACK
3.472552205,915,0x38,0xE5,Write,ACK
3.472627270,915,0x38,0x20,Write,ACK
3.472702340,915,0x38,0x01,Write,ACK
3.472777410,915,0x38,0x80,Write,ACK
3.472950715,917,0x38,0x11,Write,ACK
3.473043835,917,0x38,0xE6,Write,ACK
3.473118895,917,0x38,0x00,Write,ACK
3.473193965,917,0x38,0x0A,Write,ACK
3.473360025,917,0x38,0x2C,Write,ACK
3.474390115,919,0x38,0x21,Write,ACK
3.474465190,919,0x38,0xF3,Write,ACK
3.474540255,919,0x38,0x07,Write,ACK
3.474615320,919,0x38,0x53,Write,ACK
3.474790560,921,0x38,0x21,Write,ACK
3.474865635,921,0x38,0xF4,Write,ACK
3.475050800,921,0x38,0x00,Write,ACK
3.475125870,921,0x38,0x44,Write,ACK
3.475301110,923,0x38,0x21,Write,ACK
3.475376180,923,0x38,0xF5,Write,ACK
3.475451245,923,0x38,0x06,Write,ACK
3.475526320,923,0x38,0xA7,Write,ACK
3.475701555,925,0x38,0x21,Write,ACK
3.475776625,925,0x38,0xF6,Write,ACK
3.475943060,925,0x38,0x0C,Write,ACK
3.476034055,925,0x38,0x89,Write,ACK
3.476209295,927,0x38,0x21,Write,ACK
3.476284365,927,0x38,0xF7,Write,ACK
3.476359430,927,0x38,0x05,Write,ACK
3.476434500,927,0x38,0x95,Write,ACK
3.476609740,929,0x38,0x21,Write,ACK
3.476775740,929,0x38,0xF8,Write,ACK
3.476850805,929,0x38,0x07,Write,ACK
3.476925875,929,0x38,0x64,Write,ACK
3.477119165,931,0x38,0x21,Write,ACK
3.477194235,931,0x38,0xF9,Write,ACK
3.477269300,931,0x38,0x0E,Write,ACK
3.477344370,931,0x38,0xAC,Write,ACK
3.477609040,933,0x38,0x11,Write,ACK
3.477684110,933,0x38,0xE5,Write,ACK
3.477759175,933,0x38,0x20,Write,ACK
3.477834245,933,0x38,0x01,Write,ACK
3.477909315,933,0x38,0x87,Write,ACK
3.478098545,935,0x38,0x11,Write,ACK
3.478173615,935,0x38,0xE6,Write,ACK
3.478248680,935,0x38,0x00,Write,ACK
3.478415055,935,0x38,0x0A,Write,ACK
3.478490120,935,0x38,0x2C,Write,ACK
3.479394555,937,0x38,0x21,Write,ACK
3.479469625,937,0x38,0xF3,Write,ACK
3.479544690,937,0x38,0x00,Write,ACK
3.479619760,937,0x38,0x26,Write,ACK
3.479795000,939,0x38,0x21,Write,ACK
3.479870070,939,0x38,0xF4,Write,ACK
3.479945135,939,0x38,0x0C,Write,ACK
3.480127375,939,0x38,0x4D,Write,ACK
3.480302615,941,0x38,0x21,Write,ACK
3.480377685,941,0x38,0xF5,Write,ACK
3.480452750,941,0x38,0x07,Write,ACK
3.480527815,941,0x38,0x73,Write,ACK
3.480703060,943,0x38,0x21,Write,ACK
3.480778130,943,0x38,0xF6,Write,ACK
3.480944375,943,0x38,0x0F,Write,ACK
3.481037495,943,0x38,0xE4,Write,ACK
3.481210800,945,0x38,0x11,Write,ACK
3.481285870,945,0x38,0xE5,Write,ACK
3.481360935,945,0x38,0x20,Write,ACK
3.481436000,945,0x38,0x01,Write,ACK
3.481511070,945,0x38,0x8E,Write,ACK
3.481775120,947,0x38,0x11,Write,ACK
3.481850190,947,0x38,0xE6,Write,ACK
3.481925255,947,0x38,0x00,Write,ACK
3.482016185,947,0x38,0x0A,Write,ACK
3.482091250,947,0x38,0x32,Write,ACK
3.482450230,949,0x38,0x21,Write,ACK
3.482616545,949,0x38,0xF3,Write,ACK
3.482691610,949,0x38,0x00,Write,ACK
3.482766675,949,0x38,0x78,Write,ACK
3.482941915,951,0x38,0x21,Write,ACK
3.483035975,951,0x38,0xF4,Write,ACK
3.483111040,951,0x38,0x0C,Write,ACK
3.483186110,951,0x38,0xF1,Write,ACK
3.483452655,953,0x38,0x21,Write,ACK
3.483527725,953,0x38,0xF5,Write,ACK
3.483602790,953,0x38,0x05,Write,ACK
3.483677855,953,0x38,0x57,Write,ACK
3.483853100,955,0x38,0x21,Write,ACK
3.483928170,955,0x38,0xF6,Write,ACK
3.484019160,955,0x38,0x0F,Write,ACK
3.484094230,955,0x38,0xC9,Write,ACK
3.484358715,957,0x38,0x11,Write,ACK
3.484433785,957,0x38,0xE5,Write,ACK
3.484508850,957,0x38,0x20,Write,ACK
3.484583915,957,0x38,0x01,Write,ACK
3.484658985,957,0x38,0x92,Write,ACK
3.484832100,959,0x38,0x11,Write,ACK
3.484907175,959,0x38,0xE6,Write,ACK
3.484999660,959,0x38,0x00,Write,ACK
3.485177900,959,0x38,0x0A,Write,ACK
3.485252970,959,0x38,0x32,Write,ACK
3.486266135,961,0x38,0x21,Write,ACK
3.486341205,961,0x38,0xF3,Write,ACK
3.486416270,961,0x38,0x00,Write,ACK
3.486491340,961,0x38,0xAC,Write,ACK
3.486666580,963,0x38,0x21,Write,ACK
3.486832580,963,0x38,0xF4,Write,ACK
3.486907645,963,0x38,0x0D,Write,ACK
3.487001700,963,0x38,0x59,Write,ACK
3.487176940,965,0x38,0x21,Write,ACK
3.487252010,965,0x38,0xF5,Write,ACK
3.487327080,965,0x38,0x01,Write,ACK
3.487402145,965,0x38,0x6F,Write,ACK
3.487668880,967,0x38,0x21,Write,ACK
3.487743950,967,0x38,0xF6,Write,ACK
3.487819015,967,0x38,0x0F,Write,ACK
3.487894085,967,0x38,0x57,Write,ACK
3.488083315,969,0x38,0x11,Write,ACK
3.488158385,969,0x38,0xE5,Write,ACK
3.488233450,969,0x38,0x20,Write,ACK
3.488308515,969,0x38,0x01,Write,ACK
3.488383590,969,0x38,0x96,Write,ACK
3.488648260,971,0x38,0x11,Write,ACK
3.488723330,971,0x38,0xE6,Write,ACK
3.488798395,971,0x38,0x00,Write,ACK
3.488873460,971,0x38,0x0A,Write,ACK
3.488966640,971,0x38,0x32,Write,ACK
3.489489555,973,0x38,0x21,Write,ACK
3.489564625,973,0x38,0xF3,Write,ACK
3.489639690,973,0x38,0x03,Write,ACK
3.489714760,973,0x38,0x9B,Write,ACK
3.489890000,975,0x38,0x21,Write,ACK
3.489981060,975,0x38,0xF4,Write,ACK
3.490056125,975,0x38,0x00,Write,ACK
3.490222620,975,0x38,0x1D,Write,ACK
3.490397865,977,0x38,0x21,Write,ACK
3.490472935,977,0x38,0xF5,Write,ACK
3.490548000,977,0x38,0x07,Write,ACK
3.490623065,977,0x38,0x36,Write,ACK
3.490798310,979,0x38,0x21,Write,ACK
3.490873380,979,0x38,0xF6,Write,ACK
3.491057610,979,0x38,0x0C,Write,ACK
3.491132680,979,0x38,0x3A,Write,ACK
3.491307920,981,0x38,0x21,Write,ACK
3.491382990,981,0x38,0xF7,Write,ACK
3.491458055,981,0x38,0x06,Write,ACK
3.491533125,981,0x38,0xB1,Write,ACK
3.491708365,983,0x38,0x21,Write,ACK
3.491783435,983,0x38,0xF8,Write,ACK
3.491986840,983,0x38,0x07,Write,ACK
3.492061910,983,0x38,0xC3,Write,ACK
3.492237150,985,0x38,0x21,Write,ACK
3.492312220,985,0x38,0xF9,Write,ACK
3.492387285,985,0x38,0x0F,Write,ACK
3.492462355,985,0x38,0x01,Write,ACK
3.492727400,987,0x38,0x11,Write,ACK
3.492802475,987,0x38,0xE5,Write,ACK
3.492877540,987,0x38,0x20,Write,ACK
3.492970030,987,0x38,0x01,Write,ACK
3.493045100,987,0x38,0x9A,Write,ACK
3.493218405,989,0x38,0x11,Write,ACK
3.493293475,989,0x38,0xE6,Write,ACK
3.493368540,989,0x38,0x00,Write,ACK
3.493443605,989,0x38,0x0A,Write,ACK
3.493610665,989,0x38,0x2C,Write,ACK
3.494846540,991,0x38,0x21,Write,ACK
3.494921610,991,0x38,0xF3,Write,ACK
3.495015660,991,0x38,0x07,Write,ACK
3.495090725,991,0x38,0x53,Write,ACK
3.495357900,993,0x38,0x21,Write,ACK
3.495432970,993,0x38,0xF4,Write,ACK
3.495508035,993,0x38,0x00,Write,ACK
3.495583100,993,0x38,0x44,Write,ACK
3.495758345,995,0x38,0x21,Write,ACK
3.495833415,995,0x38,0xF5,Write,ACK
3.495908480,995,0x38,0x06,Write,ACK
3.496091220,995,0x38,0xA7,Write,ACK
3.496266455,997,0x38,0x21,Write,ACK
3.496341530,997,0x38,0xF6,Write,ACK
3.496416590,997,0x38,0x0C,Write,ACK
3.496491665,997,0x38,0x89,Write,ACK
3.496666900,999,0x38,0x21,Write,ACK
3.496741970,999,0x38,0xF7,Write,ACK
3.496817035,999,0x38,0x05,Write,ACK
3.497002025,999,0x38,0x95,Write,ACK
3.497177265,1001,0x38,0x21,Write,ACK
3.497252335,1001,0x38,0xF8,Write,ACK
3.497327400,1001,0x38,0x07,Write,ACK
3.497402465,1001,0x38,0x64,Write,ACK
3.497577710,1003,0x38,0x21,Write,ACK
3.497652780,1003,0x38,0xF9,Write,ACK
3.497819835,1003,0x38,0x0E,Write,ACK
3.497894905,1003,0x38,0xAC,Write,ACK
3.498084135,1005,0x38,0x11,Write,ACK
3.498159205,1005,0x38,0xE5,Write,ACK
3.498234270,1005,0x38,0x20,Write,ACK
3.498309340,1005,0x38,0x01,Write,ACK
3.498384410,1005,0x38,0xA1,Write,ACK
3.498649830,1007,0x38,0x11,Write,ACK
3.498724900,1007,0x38,0xE6,Write,ACK
3.498799965,1007,0x38,0x00,Write,ACK
3.498875030,1007,0x38,0x0A,Write,ACK
3.498969025,1007,0x38,0x2C,Write,ACK
3.501550495,1009,0x38,0x21,Write,ACK
3.501625565,1009,0x38,0xF3,Write,ACK
3.501700630,1009,0x38,0x00,Write,ACK
3.501775700,1009,0x38,0x26,Write,ACK
3.502058485,1011,0x38,0x21,Write,ACK
3.502133555,1011,0x38,0xF4,Write,ACK
3.502208620,1011,0x38,0x0C,Write,ACK
3.502283685,1011,0x38,0x4D,Write,ACK
3.502458930,1013,0x38,0x21,Write,ACK
3.502534000,1013,0x38,0xF5,Write,ACK
3.502609065,1013,0x38,0x07,Write,ACK
3.502684130,1013,0x38,0x73,Write,ACK
3.502970290,1015,0x38,0x21,Write,ACK
3.503045360,1015,0x38,0xF6,Write,ACK
3.503120425,1015,0x38,0x0F,Write,ACK
3.503195495,1015,0x38,0xE4,Write,ACK
3.503368800,1017,0x38,0x11,Write,ACK
3.503443870,1017,0x38,0xE5,Write,ACK
3.503518935,1017,0x38,0x20,Write,ACK
3.503685870,1017,0x38,0x01,Write,ACK
3.503760940,1017,0x38,0xA8,Write,ACK
3.503949920,1019,0x38,0x11,Write,ACK
3.504024990,1019,0x38,0xE6,Write,ACK
3.504100055,1019,0x38,0x00,Write,ACK
3.504175120,1019,0x38,0x0A,Write,ACK
3.504250190,1019,0x38,0x32,Write,ACK
3.504850795,1021,0x38,0x21,Write,ACK
3.504925865,1021,0x38,0xF3,Write,ACK
3.505018980,1021,0x38,0x00,Write,ACK
3.505094045,1021,0x38,0x78,Write,ACK
3.505360905,1023,0x38,0x21,Write,ACK
3.505435975,1023,0x38,0xF4,Write,ACK
3.505511040,1023,0x38,0x0C,Write,ACK
3.505586110,1023,0x38,0xF1,Write,ACK
3.505761350,1025,0x38,0x21,Write,ACK
3.505836420,1025,0x38,0xF5,Write,ACK
3.505911485,1025,0x38,0x05,Write,ACK
3.506002540,1025,0x38,0x57,Write,ACK
3.506269150,1027,0x38,0x21,Write,ACK
3.506344220,1027,0x38,0xF6,Write,ACK
3.506419285,1027,0x38,0x0F,Write,ACK
3.506494360,1027,0x38,0xC9,Write,ACK
3.506667660,1029,0x38,0x11,Write,ACK
3.506742730,1029,0x38,0xE5,Write,ACK
3.506817795,1029,0x38,0x20,Write,ACK
3.506892865,1029,0x38,0x01,Write,ACK
3.507091155,1029,0x38,0xAC,Write,ACK
3.507264270,1031,0x38,0x11,Write,ACK
3.507339340,1031,0x38,0xE6,Write,ACK
3.507414405,1031,0x38,0x00,Write,ACK
3.507489470,1031,0x38,0x0A,Write,ACK
3.507564540,1031,0x38,0x32,Write,ACK
3.509392400,1033,0x38,0x21,Write,ACK
3.509467470,1033,0x38,0xF3,Write,ACK
3.509634215,1033,0x38,0x00,Write,ACK
3.509709285,1033,0x38,0xAC,Write,ACK
3.509884520,1035,0x38,0x21,Write,ACK
3.509975455,1035,0x38,0xF4,Write,ACK
3.510050520,1035,0x38,0x0D,Write,ACK
3.510125590,1035,0x38,0x59,Write,ACK
3.510300830,1037,0x38,0x21,Write,ACK
3.510467580,1037,0x38,0xF5,Write,ACK
3.510542645,1037,0x38,0x01,Write,ACK
3.510617715,1037,0x38,0x6F,Write,ACK
3.510792955,1039,0x38,0x21,Write,ACK
3.510868030,1039,0x38,0xF6,Write,ACK
3.510962075,1039,0x38,0x0F,Write,ACK
3.511037145,1039,0x38,0x57,Write,ACK
3.511302130,1041,0x38,0x11,Write,ACK
3.511377200,1041,0x38,0xE5,Write,ACK
3.511452265,1041,0x38,0x20,Write,ACK
3.511527335,1041,0x38,0x01,Write,ACK
3.511602405,1041,0x38,0xB0,Write,ACK
3.511775520,1043,0x38,0x11,Write,ACK
3.511850590,1043,0x38,0xE6,Write,ACK
3.511925655,1043,0x38,0x00,Write,ACK
3.512108080,1043,0x38,0x0A,Write,ACK
3.512183145,1043,0x38,0x32,Write,ACK
3.512505460,1046,0x38,0x00,Write,ACK
3.512609940,1046,0x38,0x07,Write,ACK
3.512829900,1047,0x39,0x0C,Read,ACK
3.513045360,1047,0x39,0xF1,Read,ACK
3.513151155,1047,0x39,0xBB,Read,NAK
3.513947860,1049,0x38,0x00,Write,ACK
3.514052345,1049,0x38,0x22,Write,ACK
3.514272300,1050,0x39,0x0C,Read,ACK
3.514377910,1050,0x39,0x00,Read,ACK
3.514482765,1050,0x39,0x00,Read,NAK
3.517179090,1052,0x38,0x21,Write,ACK
3.517254165,1052,0x38,0xF3,Write,ACK
3.517329230,1052,0x38,0x00,Write,ACK
3.517404295,1052,0x38,0x32,Write,ACK
3.517579540,1054,0x38,0x21,Write,ACK
3.517654610,1054,0x38,0xF4,Write,ACK
3.517729675,1054,0x38,0x00,Write,ACK
3.517804740,1054,0x38,0x1B,Write,ACK
3.518082590,1056,0x38,0x21,Write,ACK
3.518157665,1056,0x38,0xF5,Write,ACK
3.518232725,1056,0x38,0x00,Write,ACK
3.518307795,1056,0x38,0x65,Write,ACK
3.518483035,1058,0x38,0x21,Write,ACK
3.518558110,1058,0x38,0xF6,Write,ACK
3.518633175,1058,0x38,0x0C,Write,ACK
3.518708240,1058,0x38,0x36,Write,ACK
3.518989340,1060,0x38,0x21,Write,ACK
3.519064410,1060,0x38,0xF7,Write,ACK
3.519139475,1060,0x38,0x07,Write,ACK
3.519214540,1060,0x38,0x0A,Write,ACK
3.519389785,1062,0x38,0x21,Write,ACK
3.519464855,1062,0x38,0xF8,Write,ACK
3.519539920,1062,0x38,0x07,Write,ACK
3.519701735,1062,0x38,0xC8,Write,ACK
3.519876975,1064,0x38,0x21,Write,ACK
3.519967910,1064,0x38,0xF9,Write,ACK
3.520042975,1064,0x38,0x0E,Write,ACK
3.520118040,1064,0x38,0x73,Write,ACK
3.520291345,1066,0x38,0x11,Write,ACK
3.520366420,1066,0x38,0xE5,Write,ACK
3.520528355,1066,0x38,0x20,Write,ACK
3.520603420,1066,0x38,0x01,Write,ACK
3.520678495,1066,0x38,0xB4,Write,ACK
3.520851795,1068,0x38,0x11,Write,ACK
3.520944790,1068,0x38,0xE6,Write,ACK
3.521019855,1068,0x38,0x00,Write,ACK
3.521094925,1068,0x38,0x0A,Write,ACK
3.521169990,1068,0x38,0x2C,Write,ACK
3.522268530,1070,0x38,0x21,Write,ACK
3.522343600,1070,0x38,0xF3,Write,ACK
3.522418665,1070,0x38,0x00,Write,ACK
3.522493735,1070,0x38,0x8D,Write,ACK
3.522668975,1072,0x38,0x21,Write,ACK
3.522744045,1072,0x38,0xF4,Write,ACK
3.522819110,1072,0x38,0x00,Write,ACK
3.522894180,1072,0x38,0x17,Write,ACK
3.523174090,1074,0x38,0x21,Write,ACK
3.523249160,1074,0x38,0xF5,Write,ACK
3.523324225,1074,0x38,0x01,Write,ACK
3.523399290,1074,0x38,0x1B,Write,ACK
3.523574535,1076,0x38,0x21,Write,ACK
3.523649605,1076,0x38,0xF6,Write,ACK
3.523724670,1076,0x38,0x0C,Write,ACK
3.523886295,1076,0x38,0x2E,Write,ACK
3.524076900,1078,0x38,0x21,Write,ACK
3.524151975,1078,0x38,0xF7,Write,ACK
3.524227035,1078,0x38,0x05,Write,ACK
3.524302110,1078,0x38,0xC0,Write,ACK
3.524477345,1080,0x38,0x21,Write,ACK
3.524552420,1080,0x38,0xF8,Write,ACK
3.524627480,1080,0x38,0x07,Write,ACK
3.524789240,1080,0x38,0xCB,Write,ACK
3.524981960,1082,0x38,0x21,Write,ACK
3.525057035,1082,0x38,0xF9,Write,ACK
3.525132100,1082,0x38,0x01,Write,ACK
3.525207170,1082,0x38,0xC4,Write,ACK
3.525380470,1084,0x38,0x11,Write,ACK
3.525455540,1084,0x38,0xE5,Write,ACK
3.525617605,1084,0x38,0x20,Write,ACK
3.525692670,1084,0x38,0x01,Write,ACK
3.525767740,1084,0x38,0xBB,Write,ACK
3.525956410,1086,0x38,0x11,Write,ACK
3.526031480,1086,0x38,0xE6,Write,ACK
3.526106545,1086,0x38,0x00,Write,ACK
3.526181610,1086,0x38,0x0A,Write,ACK
3.526256680,1086,0x38,0x2C,Write,ACK
3.530804715,1088,0x38,0x21,Write,ACK
3.530879785,1088,0x38,0xF3,Write,ACK
3.530973835,1088,0x38,0x00,Write,ACK
3.531048905,1088,0x38,0x47,Write,ACK
3.531224145,1090,0x38,0x21,Write,ACK
3.531299220,1090,0x38,0xF4,Write,ACK
3.531374280,1090,0x38,0x0C,Write,ACK
3.531536160,1090,0x38,0x90,Write,ACK
3.531711400,1092,0x38,0x21,Write,ACK
3.531786470,1092,0x38,0xF5,Write,ACK
3.531861535,1092,0x38,0x07,Write,ACK
3.531952530,1092,0x38,0x5D,Write,ACK
3.532127770,1094,0x38,0x21,Write,ACK
3.532202840,1094,0x38,0xF6,Write,ACK
3.532364780,1094,0x38,0x0E,Write,ACK
3.532439850,1094,0x38,0xA2,Write,ACK
3.532613150,1096,0x38,0x11,Write,ACK
3.532688220,1096,0x38,0xE5,Write,ACK
3.532763285,1096,0x38,0x20,Write,ACK
3.532838355,1096,0x38,0x01,Write,ACK
3.532931535,1096,0x38,0xC2,Write,ACK
3.533191520,1098,0x38,0x11,Write,ACK
3.533266595,1098,0x38,0xE6,Write,ACK
3.533341660,1098,0x38,0x00,Write,ACK
3.533416725,1098,0x38,0x0A,Write,ACK
3.533491795,1098,0x38,0x32,Write,ACK
3.534038370,1101,0x38,0x00,Write,ACK
3.534142855,1101,0x38,0x07,Write,ACK
3.534362815,1102,0x39,0x0C,Read,ACK
3.534468420,1102,0x39,0x9B,Read,ACK
3.534574215,1102,0x39,0xFD,Read,NAK
3.537634075,1104,0x38,0x21,Write,ACK
3.537709150,1104,0x38,0xF3,Write,ACK
3.537784215,1104,0x38,0x00,Write,ACK
3.537859280,1104,0x38,0x4F,Write,ACK
3.538050450,1106,0x38,0x21,Write,ACK
3.538212450,1106,0x38,0xF4,Write,ACK
3.538287515,1106,0x38,0x0C,Write,ACK
3.538362585,1106,0x38,0xA0,Write,ACK
3.538537825,1108,0x38,0x21,Write,ACK
3.538612895,1108,0x38,0xF5,Write,ACK
3.538687960,1108,0x38,0x06,Write,ACK
3.538763035,1108,0x38,0xB6,Write,ACK
3.539044255,1110,0x38,0x21,Write,ACK
3.539119325,1110,0x38,0xF6,Write,ACK
3.539194390,1110,0x38,0x0F,Write,ACK
3.539269460,1110,0x38,0xAF,Write,ACK
3.539442760,1112,0x38,0x11,Write,ACK
3.539517835,1112,0x38,0xE5,Write,ACK
3.539592895,1112,0x38,0x20,Write,ACK
3.539667965,1112,0x38,0x01,Write,ACK
3.539743035,1112,0x38,0xC6,Write,ACK
3.540018885,1114,0x38,0x11,Write,ACK
3.540093955,1114,0x38,0xE6,Write,ACK
3.540169020,1114,0x38,0x00,Write,ACK
3.540244090,1114,0x38,0x0A,Write,ACK
3.540319160,1114,0x38,0x32,Write,ACK
3.541088195,1116,0x38,0x21,Write,ACK
3.541163265,1116,0x38,0xF3,Write,ACK
3.541238330,1116,0x38,0x00,Write,ACK
3.541313405,1116,0x38,0xB4,Write,ACK
3.541575390,1118,0x38,0x21,Write,ACK
3.541650460,1118,0x38,0xF4,Write,ACK
3.541725525,1118,0x38,0x0D,Write,ACK
3.541800590,1118,0x38,0x69,Write,ACK
3.541991695,1120,0x38,0x21,Write,ACK
3.542066765,1120,0x38,0xF5,Write,ACK
3.542141830,1120,0x38,0x04,Write,ACK
3.542216900,1120,0x38,0x53,Write,ACK
3.542479075,1122,0x38,0x21,Write,ACK
3.542554145,1122,0x38,0xF6,Write,ACK
3.542629210,1122,0x38,0x00,Write,ACK
3.542704280,1122,0x38,0x84,Write,ACK
3.542877585,1124,0x38,0x11,Write,ACK
3.542971015,1124,0x38,0xE5,Write,ACK
3.543046080,1124,0x38,0x20,Write,ACK
3.543121150,1124,0x38,0x01,Write,ACK
3.543282655,1124,0x38,0xCA,Write,ACK
3.543455770,1126,0x38,0x11,Write,ACK
3.543530840,1126,0x38,0xE6,Write,ACK
3.543605905,1126,0x38,0x00,Write,ACK
3.543680970,1126,0x38,0x0A,Write,ACK
3.543756040,1126,0x38,0x32,Write,ACK
3.546262440,1129,0x38,0x00,Write,ACK
3.546366920,1129,0x38,0x22,Write,ACK
3.546673250,1130,0x39,0x0C,Read,ACK
3.546778855,1130,0x39,0x00,Read,ACK
3.546883715,1130,0x39,0x00,Read,NAK
3.547361980,1132,0x38,0x21,Write,ACK
3.547523735,1132,0x38,0xF3,Write,ACK
3.547598800,1132,0x38,0x00,Write,ACK
3.547673870,1132,0x38,0x32,Write,ACK
3.547849110,1134,0x38,0x21,Write,ACK
3.547940670,1134,0x38,0xF4,Write,ACK
3.548015735,1134,0x38,0x00,Write,ACK
3.548090800,1134,0x38,0x1B,Write,ACK
3.548352415,1136,0x38,0x21,Write,ACK
3.548427485,1136,0x38,0xF5,Write,ACK
3.548502550,1136,0x38,0x00,Write,ACK
3.548577615,1136,0x38,0x65,Write,ACK
3.548752860,1138,0x38,0x21,Write,ACK
3.548827930,1138,0x38,0xF6,Write,ACK
3.548946460,1138,0x38,0x0C,Write,ACK
3.549021530,1138,0x38,0x36,Write,ACK
3.549283205,1140,0x38,0x21,Write,ACK
3.549358275,1140,0x38,0xF7,Write,ACK
3.549433340,1140,0x38,0x07,Write,ACK
3.549508410,1140,0x38,0x0A,Write,ACK
3.549683650,1142,0x38,0x21,Write,ACK
3.549758720,1142,0x38,0xF8,Write,ACK
3.549833785,1142,0x38,0x07,Write,ACK
3.550011590,1142,0x38,0xC8,Write,ACK
3.550186830,1144,0x38,0x21,Write,ACK
3.550261900,1144,0x38,0xF9,Write,ACK
3.550336965,1144,0x38,0x0E,Write,ACK
3.550412035,1144,0x38,0x73,Write,ACK
3.550585340,1146,0x38,0x11,Write,ACK
3.550660410,1146,0x38,0xE5,Write,ACK
3.550735475,1146,0x38,0x20,Write,ACK
3.550896975,1146,0x38,0x01,Write,ACK
3.550990910,1146,0x38,0xCE,Write,ACK
3.551164210,1148,0x38,0x11,Write,ACK
3.551239280,1148,0x38,0xE6,Write,ACK
3.551314345,1148,0x38,0x00,Write,ACK
3.551389415,1148,0x38,0x0A,Write,ACK
3.551464480,1148,0x38,0x2C,Write,ACK
3.554283895,1150,0x38,0x21,Write,ACK
3.554358970,1150,0x38,0xF3,Write,ACK
3.554434030,1150,0x38,0x00,Write,ACK
3.554509105,1150,0x38,0x8D,Write,ACK
3.554684340,1152,0x38,0x21,Write,ACK
3.554759415,1152,0x38,0xF4,Write,ACK
3.554834480,1152,0x38,0x00,Write,ACK
3.554928595,1152,0x38,0x17,Write,ACK
3.555190770,1154,0x38,0x21,Write,ACK
3.555265840,1154,0x38,0xF5,Write,ACK
3.555340905,1154,0x38,0x01,Write,ACK
3.555415970,1154,0x38,0x1B,Write,ACK
3.555591215,1156,0x38,0x21,Write,ACK
3.555666285,1156,0x38,0xF6,Write,ACK
3.555741350,1156,0x38,0x0C,Write,ACK
3.555919275,1156,0x38,0x2E,Write,ACK
3.556094520,1158,0x38,0x21,Write,ACK
3.556169590,1158,0x38,0xF7,Write,ACK
3.556244655,1158,0x38,0x05,Write,ACK
3.556319725,1158,0x38,0xC0,Write,ACK
3.556494965,1160,0x38,0x21,Write,ACK
3.556570035,1160,0x38,0xF8,Write,ACK
3.556645100,1160,0x38,0x07,Write,ACK
3.556807165,1160,0x38,0xCB,Write,ACK
3.557000455,1162,0x38,0x21,Write,ACK
3.557075525,1162,0x38,0xF9,Write,ACK
3.557150590,1162,0x38,0x01,Write,ACK
3.557225660,1162,0x38,0xC4,Write,ACK
3.557398960,1164,0x38,0x11,Write,ACK
3.557474035,1164,0x38,0xE5,Write,ACK
3.557671815,1164,0x38,0x20,Write,ACK
3.557746885,1164,0x38,0x01,Write,ACK
3.557821955,1164,0x38,0xD5,Write,ACK
3.558011185,1166,0x38,0x11,Write,ACK
3.558086255,1166,0x38,0xE6,Write,ACK
3.558161320,1166,0x38,0x00,Write,ACK
3.558236385,1166,0x38,0x0A,Write,ACK
3.558311455,1166,0x38,0x2C,Write,ACK
3.562485520,1169,0x38,0x00,Write,ACK
3.562676375,1169,0x38,0x07,Write,ACK
3.562915320,1170,0x39,0x0C,Read,ACK
3.563020925,1170,0x39,0xCE,Read,ACK
3.563126720,1170,0x39,0x46,Read,NAK
3.563694540,1172,0x38,0x21,Write,ACK
3.563769615,1172,0x38,0xF3,Write,ACK
3.563844680,1172,0x38,0x00,Write,ACK
3.563936235,1172,0x38,0x47,Write,ACK
3.564111475,1174,0x38,0x21,Write,ACK
3.564186545,1174,0x38,0xF4,Write,ACK
3.564348355,1174,0x38,0x0C,Write,ACK
3.564423430,1174,0x38,0x90,Write,ACK
3.564598665,1176,0x38,0x21,Write,ACK
3.564673740,1176,0x38,0xF5,Write,ACK
3.564748805,1176,0x38,0x07,Write,ACK
3.564823870,1176,0x38,0x5D,Write,ACK
3.565042580,1178,0x38,0x21,Write,ACK
3.565204585,1178,0x38,0xF6,Write,ACK
3.565279645,1178,0x38,0x0E,Write,ACK
3.565354720,1178,0x38,0xA2,Write,ACK
3.565528020,1180,0x38,0x11,Write,ACK
3.565603090,1180,0x38,0xE5,Write,ACK
3.565678155,1180,0x38,0x20,Write,ACK
3.565753225,1180,0x38,0x01,Write,ACK
3.565828295,1180,0x38,0xDC,Write,ACK
3.566104270,1182,0x38,0x11,Write,ACK
3.566179340,1182,0x38,0xE6,Write,ACK
3.566254405,1182,0x38,0x00,Write,ACK
3.566329475,1182,0x38,0x0A,Write,ACK
3.566404540,1182,0x38,0x32,Write,ACK
3.566963865,1184,0x38,0x21,Write,ACK
3.567038935,1184,0x38,0xF3,Write,ACK
3.567114000,1184,0x38,0x00,Write,ACK
3.567189070,1184,0x38,0x4F,Write,ACK
3.567364310,1186,0x38,0x21,Write,ACK
3.567439380,1186,0x38,0xF4,Write,ACK
3.567514445,1186,0x38,0x0C,Write,ACK
3.567589515,1186,0x38,0xA0,Write,ACK
3.567851690,1188,0x38,0x21,Write,ACK
3.567942060,1188,0x38,0xF5,Write,ACK
3.568017125,1188,0x38,0x06,Write,ACK
3.568092195,1188,0x38,0xB6,Write,ACK
3.568267435,1190,0x38,0x21,Write,ACK
3.568342505,1190,0x38,0xF6,Write,ACK
3.568417570,1190,0x38,0x0F,Write,ACK
3.568579575,1190,0x38,0xAF,Write,ACK
3.568752875,1192,0x38,0x11,Write,ACK
3.568827950,1192,0x38,0xE5,Write,ACK
3.568920435,1192,0x38,0x20,Write,ACK
3.568995505,1192,0x38,0x01,Write,ACK
3.569070575,1192,0x38,0xE0,Write,ACK
3.569243690,1194,0x38,0x11,Write,ACK
3.569405510,1194,0x38,0xE6,Write,ACK
3.569480575,1194,0x38,0x00,Write,ACK
3.569555640,1194,0x38,0x0A,Write,ACK
3.569630710,1194,0x38,0x32,Write,ACK
3.573814145,1197,0x38,0x00,Write,ACK
3.573934490,1197,0x38,0x22,Write,ACK
3.574154445,1198,0x39,0x0C,Read,ACK
3.574260055,1198,0x39,0x00,Read,ACK
3.574451845,1198,0x39,0x00,Read,NAK
3.574936920,1200,0x38,0x21,Write,ACK
3.575011990,1200,0x38,0xF3,Write,ACK
3.575087055,1200,0x38,0x00,Write,ACK
3.575162125,1200,0x38,0xB4,Write,ACK
3.575424360,1202,0x38,0x21,Write,ACK
3.575499430,1202,0x38,0xF4,Write,ACK
3.575574495,1202,0x38,0x0D,Write,ACK
3.575649560,1202,0x38,0x69,Write,ACK
3.575824805,1204,0x38,0x21,Write,ACK
3.575941220,1204,0x38,0xF5,Write,ACK
3.576016285,1204,0x38,0x04,Write,ACK
3.576178350,1204,0x38,0x53,Write,ACK
3.576353590,1206,0x38,0x21,Write,ACK
3.576428660,1206,0x38,0xF6,Write,ACK
3.576503725,1206,0x38,0x00,Write,ACK
3.576578795,1206,0x38,0x84,Write,ACK
3.576752100,1208,0x38,0x11,Write,ACK
3.576827170,1208,0x38,0xE5,Write,ACK
3.577007155,1208,0x38,0x20,Write,ACK
3.577082220,1208,0x38,0x01,Write,ACK
3.577157290,1208,0x38,0xE4,Write,ACK
3.577330410,1210,0x38,0x11,Write,ACK
3.577405480,1210,0x38,0xE6,Write,ACK
3.577480545,1210,0x38,0x00,Write,ACK
3.577555610,1210,0x38,0x0A,Write,ACK
3.577630680,1210,0x38,0x32,Write,ACK
3.582152355,1213,0x38,0x00,Write,ACK
3.582256840,1213,0x38,0x07,Write,ACK
3.582476795,1214,0x39,0x0C,Read,ACK
3.582582405,1214,0x39,0xD4,Read,ACK
3.582688010,1214,0x39,0x9D,Read,NAK
3.586926280,1216,0x38,0x00,Write,ACK
3.587117575,1216,0x38,0x22,Write,ACK
3.587337530,1217,0x39,0x0C,Read,ACK
3.587443140,1217,0x39,0x00,Read,ACK
3.587547995,1217,0x39,0x00,Read,NAK
3.588176085,1219,0x38,0x21,Write,ACK
3.588250965,1219,0x38,0x77,Write,ACK
3.588325845,1219,0x38,0x00,Write,ACK
3.588400725,1219,0x38,0x00,Write,ACK
3.588580090,1221,0x38,0x21,Write,ACK
3.588741845,1221,0x38,0x2A,Write,ACK
3.588816725,1221,0x38,0x0F,Write,ACK
3.588910155,1221,0x38,0x80,Write,ACK
3.589083705,1223,0x38,0x21,Write,ACK
3.589158590,1223,0x38,0x2B,Write,ACK
3.589233470,1223,0x38,0x00,Write,ACK
3.589308350,1223,0x38,0x00,Write,ACK
3.589482530,1225,0x38,0x21,Write,ACK
3.589644220,1225,0x38,0x2C,Write,ACK
3.589719100,1225,0x38,0x0F,Write,ACK
3.589793980,1225,0x38,0x33,Write,ACK
3.590167250,1228,0x38,0x00,Write,ACK
3.590271735,1228,0x38,0x07,Write,ACK
3.590578190,1229,0x39,0x0C,Read,ACK
3.590683795,1229,0x39,0xB5,Read,ACK
3.590789590,1229,0x39,0xF2,Read,NAK
3.593610940,1231,0x38,0x00,Write,ACK
3.593802485,1231,0x38,0x22,Write,ACK
3.594038365,1232,0x39,0x0C,Read,ACK
3.594143975,1232,0x39,0x00,Read,ACK
3.594248830,1232,0x39,0x00,Read,NAK
3.597668790,1234,0x38,0x00,Write,ACK
3.597773270,1234,0x38,0x07,Write,ACK
3.598095900,1235,0x39,0x0C,Read,ACK
3.598201510,1235,0x39,0xD1,Read,ACK
3.598307115,1235,0x39,0x84,Read,NAK
3.600256755,1237,0x38,0x00,Write,ACK
3.600361240,1237,0x38,0x22,Write,ACK
3.600667690,1238,0x39,0x0C,Read,ACK
3.600773300,1238,0x39,0x00,Read,ACK
3.600896145,1238,0x39,0x00,Read,NAK
3.604040250,1240,0x38,0x00,Write,ACK
3.604144730,1240,0x38,0x07,Write,ACK
3.604364690,1241,0x39,0x0C,Read,ACK
3.604470295,1241,0x39,0xDB,Read,ACK
3.604576280,1241,0x39,0x2E,Read,NAK
3.607577430,1243,0x38,0x00,Write,ACK
3.607681915,1243,0x38,0x22,Write,ACK
3.607917795,1244,0x39,0x0C,Read,ACK
3.608023405,1244,0x39,0x00,Read,ACK
3.608215130,1244,0x39,0x00,Read,NAK
3.611226340,1246,0x38,0x00,Write,ACK
3.611330820,1246,0x38,0x07,Write,ACK
3.611637465,1247,0x39,0x0C,Read,ACK
3.611743070,1247,0x39,0x98,Read,ACK
3.611848490,1247,0x39,0x66,Read,NAK
3.614425590,1249,0x38,0x00,Write,ACK
3.614530070,1249,0x38,0x22,Write,ACK
3.614750030,1250,0x39,0x0C,Read,ACK
3.614961120,1250,0x39,0x00,Read,ACK
3.615065975,1250,0x39,0x00,Read,NAK
3.617152825,1252,0x38,0x00,Write,ACK
3.617257310,1252,0x38,0x07,Write,ACK
3.617563825,1253,0x39,0x0C,Read,ACK
3.617669430,1253,0x39,0xFA,Read,ACK
3.617775415,1253,0x39,0xD6,Read,NAK
3.620485475,1255,0x38,0x00,Write,ACK
3.620589955,1255,0x38,0x22,Write,ACK
3.620915145,1256,0x39,0x0C,Read,ACK
3.621020755,1256,0x39,0x00,Read,ACK
3.621125610,1256,0x39,0x00,Read,NAK
3.624468880,1258,0x38,0x00,Write,ACK
3.624573360,1258,0x38,0x07,Write,ACK
3.624793320,1259,0x39,0x0C,Read,ACK
3.625003785,1259,0x39,0xBE,Read,ACK
3.625109765,1259,0x39,0x10,Read,NAK
3.627216475,1261,0x38,0x00,Write,ACK
3.627320955,1261,0x38,0x22,Write,ACK
3.627627785,1262,0x39,0x0C,Read,ACK
3.627733395,1262,0x39,0x00,Read,ACK
3.627838250,1262,0x39,0x00,Read,NAK
3.630694385,1264,0x38,0x00,Write,ACK
3.630904790,1264,0x38,0x07,Write,ACK
3.631124745,1265,0x39,0x0C,Read,ACK
3.631230355,1265,0x39,0xEB,Read,ACK
3.631336335,1265,0x39,0xC8,Read,NAK
3.633991875,1267,0x38,0x00,Write,ACK
3.634096360,1267,0x38,0x22,Write,ACK
3.634403065,1268,0x39,0x0C,Read,ACK
3.634508670,1268,0x39,0x00,Read,ACK
3.634613530,1268,0x39,0x00,Read,NAK
3.639559385,1270,0x38,0x00,Write,ACK
3.639663870,1270,0x38,0x07,Write,ACK
3.639899750,1271,0x39,0x0C,Read,ACK
3.640005360,1271,0x39,0xF6,Read,ACK
3.640198210,1271,0x39,0x85,Read,NAK
3.642255210,1273,0x38,0x00,Write,ACK
3.642359690,1273,0x38,0x22,Write,ACK
3.642666145,1274,0x39,0x0C,Read,ACK
3.642771750,1274,0x39,0x00,Read,ACK
3.642895535,1274,0x39,0x00,Read,NAK
3.646510280,1276,0x38,0x00,Write,ACK
3.646614765,1276,0x38,0x07,Write,ACK
3.646940330,1277,0x39,0x0C,Read,ACK
3.647045935,1277,0x39,0xC8,Read,ACK
3.647151355,1277,0x39,0xC8,Read,NAK
3.650466830,1279,0x38,0x00,Write,ACK
3.650571315,1279,0x38,0x22,Write,ACK
3.650791270,1280,0x39,0x0C,Read,ACK
3.650915865,1280,0x39,0x00,Read,ACK
3.651107090,1280,0x39,0x00,Read,NAK
3.654789540,1282,0x38,0x00,Write,ACK
3.654912945,1282,0x38,0x07,Write,ACK
3.655132900,1283,0x39,0x0C,Read,ACK
3.655325380,1283,0x39,0xBF,Read,ACK
3.655431550,1283,0x39,0x4D,Read,NAK
3.657554495,1285,0x38,0x00,Write,ACK
3.657658975,1285,0x38,0x22,Write,ACK
3.657981795,1286,0x39,0x0C,Read,ACK
3.658087400,1286,0x39,0x00,Read,ACK
3.658192260,1286,0x39,0x00,Read,NAK
3.661668800,1288,0x38,0x00,Write,ACK
3.661773280,1288,0x38,0x07,Write,ACK
3.662095600,1289,0x39,0x0C,Read,ACK
3.662201205,1289,0x39,0xE6,Read,ACK
3.662307000,1289,0x39,0x84,Read,NAK
3.664553100,1291,0x38,0x00,Write,ACK
3.664657585,1291,0x38,0x22,Write,ACK
3.664895590,1292,0x39,0x0C,Read,ACK
3.665001200,1292,0x39,0x00,Read,ACK
3.665106055,1292,0x39,0x00,Read,NAK
3.668624750,1294,0x38,0x00,Write,ACK
3.668834090,1294,0x38,0x07,Write,ACK
3.669054050,1295,0x39,0x0D,Read,ACK
3.669159845,1295,0x39,0x21,Read,ACK
3.669265075,1295,0x39,0xBE,Read,NAK
3.671431175,1297,0x38,0x00,Write,ACK
3.671535660,1297,0x38,0x22,Write,ACK
3.671755615,1298,0x39,0x0C,Read,ACK
3.671877150,1298,0x39,0x00,Read,ACK
3.671982005,1298,0x39,0x00,Read,NAK
3.675698115,1300,0x38,0x00,Write,ACK
3.675818525,1300,0x38,0x07,Write,ACK
3.676038480,1301,0x39,0x0C,Read,ACK
3.676144090,1301,0x39,0xF9,Read,ACK
3.676250070,1301,0x39,0x50,Read,NAK
3.679817290,1303,0x38,0x00,Write,ACK
3.679921775,1303,0x38,0x22,Write,ACK
3.680141730,1304,0x39,0x0C,Read,ACK
3.680247340,1304,0x39,0x00,Read,ACK
3.680352195,1304,0x39,0x00,Read,NAK
3.684774890,1306,0x38,0x00,Write,ACK
3.684897360,1306,0x38,0x07,Write,ACK
3.685117315,1307,0x39,0x0D,Read,ACK
3.685223110,1307,0x39,0x22,Read,ACK
3.685328345,1307,0x39,0x5C,Read,NAK
3.688556135,1309,0x38,0x00,Write,ACK
3.688660620,1309,0x38,0x22,Write,ACK
3.689021220,1310,0x39,0x0C,Read,ACK
3.689126825,1310,0x39,0x00,Read,ACK
3.689231685,1310,0x39,0x00,Read,NAK
3.692684055,1312,0x38,0x00,Write,ACK
3.692788535,1312,0x38,0x07,Write,ACK
3.693026480,1313,0x39,0x0C,Read,ACK
3.693218710,1313,0x39,0xBA,Read,ACK
3.693324505,1313,0x39,0xE7,Read,NAK
3.696368375,1315,0x38,0x00,Write,ACK
3.696559730,1315,0x38,0x22,Write,ACK
3.696779685,1316,0x39,0x0C,Read,ACK
3.696903280,1316,0x39,0x00,Read,ACK
3.697008135,1316,0x39,0x00,Read,NAK
3.700081610,1318,0x38,0x00,Write,ACK
3.700186090,1318,0x38,0x07,Write,ACK
3.700406050,1319,0x39,0x0C,Read,ACK
3.700511655,1319,0x39,0xE7,Read,ACK
3.700617635,1319,0x39,0x03,Read,NAK
3.703999500,1321,0x38,0x00,Write,ACK
3.704190290,1321,0x38,0x22,Write,ACK
3.704410250,1322,0x39,0x0C,Read,ACK
3.704515855,1322,0x39,0x00,Read,ACK
3.704620715,1322,0x39,0x00,Read,NAK
3.707603815,1324,0x38,0x00,Write,ACK
3.707708300,1324,0x38,0x07,Write,ACK
3.707944120,1325,0x39,0x0C,Read,ACK
3.708049730,1325,0x39,0xA6,Read,ACK
3.708155335,1325,0x39,0x46,Read,NAK
3.710182105,1327,0x38,0x00,Write,ACK
3.710286585,1327,0x38,0x22,Write,ACK
3.710506545,1328,0x39,0x0C,Read,ACK
3.710612150,1328,0x39,0x00,Read,ACK
3.710717010,1328,0x39,0x00,Read,NAK
3.713870545,1330,0x38,0x00,Write,ACK
3.713975030,1330,0x38,0x07,Write,ACK
3.714281795,1331,0x39,0x0C,Read,ACK
3.714387400,1331,0x39,0xF4,Read,ACK
3.714493195,1331,0x39,0x63,Read,NAK
3.717272390,1333,0x38,0x00,Write,ACK
3.717376875,1333,0x38,0x22,Write,ACK
3.717683205,1334,0x39,0x0C,Read,ACK
3.717804735,1334,0x39,0x00,Read,ACK
3.717909595,1334,0x39,0x00,Read,NAK
3.720016675,1336,0x38,0x00,Write,ACK
3.720207720,1336,0x38,0x07,Write,ACK
3.720427675,1337,0x39,0x0C,Read,ACK
3.720533285,1337,0x39,0xE9,Read,ACK
3.720639080,1337,0x39,0x2E,Read,NAK
3.723797795,1339,0x38,0x00,Write,ACK
3.723902280,1339,0x38,0x22,Write,ACK
3.724122240,1340,0x39,0x0C,Read,ACK
3.724227845,1340,0x39,0x00,Read,ACK
3.724419385,1340,0x39,0x00,Read,NAK
3.727123390,1342,0x38,0x00,Write,ACK
3.727227875,1342,0x38,0x07,Write,ACK
3.727447830,1343,0x39,0x0C,Read,ACK
3.727553435,1343,0x39,0xE2,Read,ACK
3.727746040,1343,0x39,0xFC,Read,NAK
3.730036045,1345,0x38,0x00,Write,ACK
3.730140530,1345,0x38,0x22,Write,ACK
3.730447545,1346,0x39,0x0C,Read,ACK
3.730553155,1346,0x39,0x00,Read,ACK
3.730658010,1346,0x39,0x00,Read,NAK
3.733308865,1348,0x38,0x00,Write,ACK
3.733413350,1348,0x38,0x07,Write,ACK
3.733719805,1349,0x39,0x0D,Read,ACK
3.733841525,1349,0x39,0x44,Read,ACK
3.733946755,1349,0x39,0x8F,Read,NAK
3.734522450,1351,0x38,0x11,Write,ACK
3.734597330,1351,0x38,0x4D,Write,ACK
3.734672210,1351,0x38,0x00,Write,ACK
3.734747090,1351,0x38,0x00,Write,ACK
3.734841520,1351,0x38,0x00,Write,ACK
3.735012575,1353,0x38,0x11,Write,ACK
3.735087455,1353,0x38,0x4A,Write,ACK
3.735162335,1353,0x38,0x7F,Write,ACK
3.735324280,1353,0x38,0xFF,Write,ACK
3.735399160,1353,0x38,0xFF,Write,ACK
3.735572085,1355,0x38,0x11,Write,ACK
3.735646965,1355,0x38,0x4D,Write,ACK
3.735721850,1355,0x38,0x05,Write,ACK
3.735838140,1355,0x38,0xCE,Write,ACK
3.735913015,1355,0x38,0x14,Write,ACK
3.736408570,1358,0x38,0x00,Write,ACK
3.736513050,1358,0x38,0x22,Write,ACK
3.736733010,1359,0x39,0x0C,Read,ACK
3.736856605,1359,0x39,0x00,Read,ACK
3.737047770,1359,0x39,0x00,Read,NAK
3.739206000,1361,0x38,0x00,Write,ACK
3.739310485,1361,0x38,0x07,Write,ACK
3.739617190,1362,0x39,0x0C,Read,ACK
3.739722795,1362,0x39,0x9C,Read,ACK
3.739844325,1362,0x39,0x5D,Read,NAK
3.742469015,1364,0x38,0x00,Write,ACK
3.742573500,1364,0x38,0x22,Write,ACK
3.742899315,1365,0x39,0x0C,Read,ACK
3.743004920,1365,0x39,0x00,Read,ACK
3.743109780,1365,0x39,0x00,Read,NAK
3.745325965,1367,0x38,0x00,Write,ACK
3.745516820,1367,0x38,0x07,Write,ACK
3.745736780,1368,0x39,0x0C,Read,ACK
3.745858250,1368,0x39,0xAA,Read,ACK
3.745963855,1368,0x39,0x9C,Read,NAK
3.748106660,1370,0x38,0x00,Write,ACK
3.748211145,1370,0x38,0x22,Write,ACK
3.748431100,1371,0x39,0x0C,Read,ACK
3.748536710,1371,0x39,0x00,Read,ACK
3.748641565,1371,0x39,0x00,Read,NAK
3.751488895,1373,0x38,0x00,Write,ACK
3.751593380,1373,0x38,0x07,Write,ACK
3.751829200,1374,0x39,0x0C,Read,ACK
3.751934810,1374,0x39,0x9C,Read,ACK
3.752040415,1374,0x39,0x0D,Read,NAK
3.754228310,1376,0x38,0x00,Write,ACK
3.754332795,1376,0x38,0x22,Write,ACK
3.754552750,1377,0x39,0x0C,Read,ACK
3.754801560,1377,0x39,0x00,Read,ACK
3.754906420,1377,0x39,0x00,Read,NAK
3.757074020,1379,0x38,0x00,Write,ACK
3.757265250,1379,0x38,0x07,Write,ACK
3.757485205,1380,0x39,0x0C,Read,ACK
3.757590815,1380,0x39,0xAA,Read,ACK
3.757696420,1380,0x39,0x05,Read,NAK
3.760706940,1382,0x38,0x00,Write,ACK
3.760829470,1382,0x38,0x22,Write,ACK
3.761049430,1383,0x39,0x0C,Read,ACK
3.761155035,1383,0x39,0x00,Read,ACK
3.761259895,1383,0x39,0x00,Read,NAK
3.764312380,1385,0x38,0x00,Write,ACK
3.764416865,1385,0x38,0x07,Write,ACK
3.764636820,1386,0x39,0x0C,Read,ACK
3.764846850,1386,0x39,0x88,Read,ACK
3.764952080,1386,0x39,0x3A,Read,NAK
3.767324025,1388,0x38,0x00,Write,ACK
3.767428510,1388,0x38,0x22,Write,ACK
3.767648465,1389,0x39,0x0C,Read,ACK
3.767769935,1389,0x39,0x00,Read,ACK
3.767874795,1389,0x39,0x00,Read,NAK
3.770083610,1391,0x38,0x00,Write,ACK
3.770188095,1391,0x38,0x07,Write,ACK
3.770408050,1392,0x39,0x0C,Read,ACK
3.770513660,1392,0x39,0x52,Read,ACK
3.770705950,1392,0x39,0x7D,Read,NAK
3.773261690,1394,0x38,0x00,Write,ACK
3.773366175,1394,0x38,0x22,Write,ACK
3.773586130,1395,0x39,0x0C,Read,ACK
3.773691740,1395,0x39,0x00,Read,ACK
3.773812520,1395,0x39,0x00,Read,NAK
3.776000480,1397,0x38,0x00,Write,ACK
3.776104965,1397,0x38,0x07,Write,ACK
3.776324920,1398,0x39,0x0C,Read,ACK
3.776430530,1398,0x39,0xAB,Read,ACK
3.776659165,1398,0x39,0xD9,Read,NAK
3.780102230,1400,0x38,0x00,Write,ACK
3.780206715,1400,0x38,0x22,Write,ACK
3.780426675,1401,0x39,0x0C,Read,ACK
3.780532280,1401,0x39,0x00,Read,ACK
3.780637140,1401,0x39,0x00,Read,NAK
3.783586330,1403,0x38,0x00,Write,ACK
3.783690810,1403,0x38,0x07,Write,ACK
3.783926695,1404,0x39,0x0C,Read,ACK
3.784032300,1404,0x39,0xCA,Read,ACK
3.784224405,1404,0x39,0x94,Read,NAK
3.786208895,1406,0x38,0x00,Write,ACK
3.786313375,1406,0x38,0x22,Write,ACK
3.786533335,1407,0x39,0x0C,Read,ACK
3.786744985,1407,0x39,0x00,Read,ACK
3.786849845,1407,0x39,0x00,Read,NAK
3.789015070,1409,0x38,0x00,Write,ACK
3.789119555,1409,0x38,0x07,Write,ACK
3.789426005,1410,0x39,0x0C,Read,ACK
3.789531615,1410,0x39,0x74,Read,ACK
3.789637220,1410,0x39,0x57,Read,NAK
3.792294760,1412,0x38,0x00,Write,ACK
3.792399245,1412,0x38,0x22,Write,ACK
3.792706010,1413,0x39,0x0C,Read,ACK
3.792829665,1413,0x39,0x00,Read,ACK
3.792934525,1413,0x39,0x00,Read,NAK
3.795214350,1415,0x38,0x00,Write,ACK
3.795318830,1415,0x38,0x07,Write,ACK
3.795538790,1416,0x39,0x0C,Read,ACK
3.795644395,1416,0x39,0x66,Read,ACK
3.795765930,1416,0x39,0x97,Read,NAK
3.798743535,1418,0x38,0x00,Write,ACK
3.798848020,1418,0x38,0x22,Write,ACK
3.799067975,1419,0x39,0x0C,Read,ACK
3.799173585,1419,0x39,0x00,Read,ACK
3.799365125,1419,0x39,0x00,Read,NAK
3.802270665,1421,0x38,0x00,Write,ACK
3.802375145,1421,0x38,0x07,Write,ACK
3.802595105,1422,0x39,0x0C,Read,ACK
3.802806445,1422,0x39,0x51,Read,ACK
3.802911860,1422,0x39,0x67,Read,NAK
3.807527720,1424,0x38,0x00,Write,ACK
3.807632205,1424,0x38,0x22,Write,ACK
3.807955085,1425,0x39,0x0C,Read,ACK
3.808060690,1425,0x39,0x00,Read,ACK
3.808165550,1425,0x39,0x00,Read,NAK
3.809961245,1427,0x38,0x00,Write,ACK
3.810065725,1427,0x38,0x07,Write,ACK
3.810372495,1428,0x39,0x0C,Read,ACK
3.810478100,1428,0x39,0x3F,Read,ACK
3.810584080,1428,0x39,0xCF,Read,NAK
3.814317490,1430,0x38,0x00,Write,ACK
3.814508780,1430,0x38,0x22,Write,ACK
3.814747725,1431,0x39,0x0C,Read,ACK
3.814853330,1431,0x39,0x00,Read,ACK
3.814958190,1431,0x39,0x00,Read,NAK
3.818830425,1433,0x38,0x00,Write,ACK
3.818934910,1433,0x38,0x07,Write,ACK
3.819154870,1434,0x39,0x0C,Read,ACK
3.819260475,1434,0x39,0x6E,Read,ACK
3.819366270,1434,0x39,0xB4,Read,NAK
3.822283235,1436,0x38,0x00,Write,ACK
3.822387720,1436,0x38,0x22,Write,ACK
3.822607675,1437,0x39,0x0C,Read,ACK
3.822732205,1437,0x39,0x00,Read,ACK
3.822924060,1437,0x39,0x00,Read,NAK
3.825153800,1439,0x38,0x00,Write,ACK
3.825258285,1439,0x38,0x07,Write,ACK
3.825564610,1440,0x39,0x0C,Read,ACK
3.825670220,1440,0x39,0x52,Read,ACK
3.825791500,1440,0x39,0xC4,Read,NAK
3.829219705,1442,0x38,0x00,Write,ACK
3.829324185,1442,0x38,0x22,Write,ACK
3.829544145,1443,0x39,0x0C,Read,ACK
3.829752735,1443,0x39,0x00,Read,ACK
3.829857595,1443,0x39,0x00,Read,NAK
3.831933760,1445,0x38,0x00,Write,ACK
3.832038245,1445,0x38,0x07,Write,ACK
3.832344825,1446,0x39,0x0C,Read,ACK
3.832450430,1446,0x39,0x39,Read,ACK
3.832556040,1446,0x39,0x0E,Read,NAK
3.835545510,1448,0x38,0x00,Write,ACK
3.835649995,1448,0x38,0x22,Write,ACK
3.835885815,1449,0x39,0x0C,Read,ACK
3.835991420,1449,0x39,0x00,Read,ACK
3.836096280,1449,0x39,0x00,Read,NAK
3.839388210,1451,0x38,0x00,Write,ACK
3.839492695,1451,0x38,0x07,Write,ACK
3.839815695,1452,0x39,0x0C,Read,ACK
3.839921305,1452,0x39,0x55,Read,ACK
3.840026910,1452,0x39,0x0E,Read,NAK
3.844081575,1454,0x38,0x00,Write,ACK
3.844186055,1454,0x38,0x22,Write,ACK
3.844406015,1455,0x39,0x0C,Read,ACK
3.844511620,1455,0x39,0x00,Read,ACK
3.844616480,1455,0x39,0x00,Read,NAK
3.848212430,1457,0x38,0x00,Write,ACK
3.848316910,1457,0x38,0x07,Write,ACK
3.848536870,1458,0x39,0x0C,Read,ACK
3.848642475,1458,0x39,0x41,Read,ACK
3.848765695,1458,0x39,0xFA,Read,NAK
3.851604845,1460,0x38,0x00,Write,ACK
3.851725255,1460,0x38,0x22,Write,ACK
3.851945210,1461,0x39,0x0C,Read,ACK
3.852050815,1461,0x39,0x00,Read,ACK
3.852155675,1461,0x39,0x00,Read,NAK
3.854318340,1463,0x38,0x00,Write,ACK
3.854422825,1463,0x38,0x07,Write,ACK
3.854642780,1464,0x39,0x0C,Read,ACK
3.854767310,1464,0x39,0x9E,Read,ACK
3.854959790,1464,0x39,0x3C,Read,NAK
3.857109030,1466,0x38,0x00,Write,ACK
3.857213510,1466,0x38,0x22,Write,ACK
3.857520590,1467,0x39,0x0C,Read,ACK
3.857626195,1467,0x39,0x00,Read,ACK
3.857746915,1467,0x39,0x00,Read,NAK
3.859998765,1469,0x38,0x00,Write,ACK
3.860103250,1469,0x38,0x07,Write,ACK
3.860323205,1470,0x39,0x0C,Read,ACK
3.860428810,1470,0x39,0x51,Read,ACK
3.860534230,1470,0x39,0x17,Read,NAK
3.863429465,1472,0x38,0x00,Write,ACK
3.863533950,1472,0x38,0x22,Write,ACK
3.863769770,1473,0x39,0x0C,Read,ACK
3.863875375,1473,0x39,0x00,Read,ACK
3.863980235,1473,0x39,0x00,Read,NAK
3.866042040,1475,0x38,0x00,Write,ACK
3.866146520,1475,0x38,0x07,Write,ACK
3.866366480,1476,0x39,0x0C,Read,ACK
3.866472085,1476,0x39,0x3F,Read,ACK
3.866578065,1476,0x39,0x10,Read,NAK
3.869432455,1478,0x38,0x00,Write,ACK
3.869536940,1478,0x38,0x22,Write,ACK
3.869772820,1479,0x39,0x0C,Read,ACK
3.869878430,1479,0x39,0x00,Read,ACK
3.869983285,1479,0x39,0x00,Read,NAK
3.872090555,1481,0x38,0x00,Write,ACK
3.872195040,1481,0x38,0x07,Write,ACK
3.872414995,1482,0x39,0x0C,Read,ACK
3.872607540,1482,0x39,0x52,Read,ACK
3.872730945,1482,0x39,0x55,Read,NAK
3.875029945,1484,0x38,0x00,Write,ACK
3.875221050,1484,0x38,0x22,Write,ACK
3.875441005,1485,0x39,0x0C,Read,ACK
3.875546610,1485,0x39,0x00,Read,ACK
3.875667395,1485,0x39,0x00,Read,NAK
3.878212895,1487,0x38,0x00,Write,ACK
3.878317375,1487,0x38,0x07,Write,ACK
3.878624330,1488,0x39,0x0C,Read,ACK
3.878748925,1488,0x39,0x41,Read,ACK
3.878854155,1488,0x39,0x2C,Read,NAK
3.881269940,1490,0x38,0x00,Write,ACK
3.881374425,1490,0x38,0x22,Write,ACK
3.881594380,1491,0x39,0x0C,Read,ACK
3.881715975,1491,0x39,0x00,Read,ACK
3.881907455,1491,0x39,0x00,Read,NAK
3.885825535,1493,0x38,0x00,Write,ACK
3.885930020,1493,0x38,0x07,Write,ACK
3.886278315,1494,0x39,0x0C,Read,ACK
3.886383920,1494,0x39,0x5A,Read,ACK
3.886489530,1494,0x39,0x52,Read,NAK
3.889528465,1496,0x38,0x00,Write,ACK
3.889632950,1496,0x38,0x22,Write,ACK
3.889868895,1497,0x39,0x0C,Read,ACK
3.889974500,1497,0x39,0x00,Read,ACK
3.890079360,1497,0x39,0x00,Read,NAK
3.893764800,1499,0x38,0x00,Write,ACK
3.893869285,1499,0x38,0x07,Write,ACK
3.894089240,1500,0x39,0x0C,Read,ACK
3.894194850,1500,0x39,0x55,Read,ACK
3.894300455,1500,0x39,0xD4,Read,NAK
3.897151160,1502,0x38,0x00,Write,ACK
3.897255645,1502,0x38,0x22,Write,ACK
3.897475600,1503,0x39,0x0C,Read,ACK
3.897581210,1503,0x39,0x00,Read,ACK
3.897701990,1503,0x39,0x00,Read,NAK
3.899882455,1505,0x38,0x00,Write,ACK
3.899986940,1505,0x38,0x07,Write,ACK
3.900206895,1506,0x39,0x0C,Read,ACK
3.900312505,1506,0x39,0x2C,Read,ACK
3.900504730,1506,0x39,0x8A,Read,NAK
3.903405585,1508,0x38,0x00,Write,ACK
3.903510070,1508,0x38,0x22,Write,ACK
3.903832510,1509,0x39,0x0C,Read,ACK
3.903938115,1509,0x39,0x00,Read,ACK
3.904042975,1509,0x39,0x00,Read,NAK
3.906795440,1511,0x38,0x00,Write,ACK
3.906899925,1511,0x38,0x07,Write,ACK
3.907207005,1512,0x39,0x0C,Read,ACK
3.907312610,1512,0x39,0x4E,Read,ACK
3.907418215,1512,0x39,0x7D,Read,NAK
3.910221770,1514,0x38,0x00,Write,ACK
3.910326255,1514,0x38,0x22,Write,ACK
3.910652255,1515,0x39,0x0C,Read,ACK
3.910757860,1515,0x39,0x00,Read,ACK
3.910862720,1515,0x39,0x00,Read,NAK
3.913184765,1517,0x38,0x00,Write,ACK
3.913289245,1517,0x38,0x07,Write,ACK
3.913509205,1518,0x39,0x0C,Read,ACK
3.913614810,1518,0x39,0xD0,Read,ACK
3.913736155,1518,0x39,0xA6,Read,NAK
3.916704085,1520,0x38,0x00,Write,ACK
3.916808565,1520,0x38,0x22,Write,ACK
3.917028525,1521,0x39,0x0C,Read,ACK
3.917134130,1521,0x39,0x00,Read,ACK
3.917325795,1521,0x39,0x00,Read,NAK
3.920154955,1523,0x38,0x00,Write,ACK
3.920259440,1523,0x38,0x07,Write,ACK
3.920479395,1524,0x39,0x0C,Read,ACK
3.920689425,1524,0x39,0x83,Read,ACK
3.920794845,1524,0x39,0x65,Read,NAK
3.923430900,1526,0x38,0x00,Write,ACK
3.923535380,1526,0x38,0x22,Write,ACK
3.923771265,1527,0x39,0x0C,Read,ACK
3.923876870,1527,0x39,0x00,Read,ACK
3.924068540,1527,0x39,0x00,Read,NAK
3.926670180,1529,0x38,0x00,Write,ACK
3.926774665,1529,0x38,0x07,Write,ACK
3.926994620,1530,0x39,0x0C,Read,ACK
3.927100230,1530,0x39,0x8D,Read,ACK
3.927205835,1530,0x39,0xBE,Read,NAK
3.930085520,1532,0x38,0x00,Write,ACK
3.930190000,1532,0x38,0x22,Write,ACK
3.930409960,1533,0x39,0x0C,Read,ACK
3.930515565,1533,0x39,0x00,Read,ACK
3.930725970,1533,0x39,0x00,Read,NAK
3.934439705,1535,0x38,0x00,Write,ACK
3.934544185,1535,0x38,0x07,Write,ACK
3.934783130,1536,0x39,0x0C,Read,ACK
3.934975230,1536,0x39,0x95,Read,ACK
3.935080840,1536,0x39,0xFB,Read,NAK
3.937197725,1538,0x38,0x00,Write,ACK
3.937302210,1538,0x38,0x22,Write,ACK
3.937624775,1539,0x39,0x0C,Read,ACK
3.937730385,1539,0x39,0x00,Read,ACK
3.937835240,1539,0x39,0x00,Read,NAK
3.939876935,1541,0x38,0x00,Write,ACK
3.940068290,1541,0x38,0x07,Write,ACK
3.940288250,1542,0x39,0x0C,Read,ACK
3.940393855,1542,0x39,0x9C,Read,ACK
3.940499465,1542,0x39,0xBC,Read,NAK
3.944080110,1544,0x38,0x00,Write,ACK
3.944271340,1544,0x38,0x22,Write,ACK
3.944491300,1545,0x39,0x0C,Read,ACK
3.944596905,1545,0x39,0x00,Read,ACK
3.944719750,1545,0x39,0x00,Read,NAK
3.947573700,1547,0x38,0x00,Write,ACK
3.947694110,1547,0x38,0x07,Write,ACK
3.947914065,1548,0x39,0x0C,Read,ACK
3.948019675,1548,0x39,0x72,Read,ACK
3.948125280,1548,0x39,0x8B,Read,NAK
3.950167290,1550,0x38,0x00,Write,ACK
3.950271770,1550,0x38,0x22,Write,ACK
3.950491730,1551,0x39,0x0C,Read,ACK
3.950616260,1551,0x39,0x00,Read,ACK
3.950721115,1551,0x39,0x00,Read,NAK
3.953053965,1553,0x38,0x00,Write,ACK
3.953158450,1553,0x38,0x07,Write,ACK
3.953378405,1554,0x39,0x0C,Read,ACK
3.953570945,1554,0x39,0x91,Read,ACK
3.953692290,1554,0x39,0x16,Read,NAK
3.955839595,1556,0x38,0x00,Write,ACK
3.956031010,1556,0x38,0x22,Write,ACK
3.956250970,1557,0x39,0x0C,Read,ACK
3.956356575,1557,0x39,0x00,Read,ACK
3.956461435,1557,0x39,0x00,Read,NAK
3.959038410,1559,0x38,0x00,Write,ACK
3.959142890,1559,0x38,0x07,Write,ACK
3.959449595,1560,0x39,0x0C,Read,ACK
3.959555200,1560,0x39,0x70,Read,ACK
3.959676545,1560,0x39,0x04,Read,NAK
3.962179580,1562,0x38,0x00,Write,ACK
3.962284060,1562,0x38,0x22,Write,ACK
3.962504020,1563,0x39,0x0C,Read,ACK
3.962628610,1563,0x39,0x00,Read,ACK
3.962819905,1563,0x39,0x00,Read,NAK
3.967091965,1565,0x38,0x00,Write,ACK
3.967196445,1565,0x38,0x07,Write,ACK
3.967416405,1566,0x39,0x0C,Read,ACK
3.967522010,1566,0x39,0x62,Read,ACK
3.967643355,1566,0x39,0x21,Read,NAK
3.969832250,1568,0x38,0x00,Write,ACK
3.969936735,1568,0x38,0x22,Write,ACK
3.970156690,1569,0x39,0x0C,Read,ACK
3.970348795,1569,0x39,0x00,Read,ACK
3.970453655,1569,0x39,0x00,Read,NAK
3.974357180,1571,0x38,0x00,Write,ACK
3.974548350,1571,0x38,0x07,Write,ACK
3.974787290,1572,0x39,0x0C,Read,ACK
3.974892900,1572,0x39,0x5E,Read,ACK
3.974998690,1572,0x39,0xC8,Read,NAK
3.977169040,1574,0x38,0x00,Write,ACK
3.977273520,1574,0x38,0x22,Write,ACK
3.977493480,1575,0x39,0x0C,Read,ACK
3.977614950,1575,0x39,0x00,Read,ACK
3.977719810,1575,0x39,0x00,Read,NAK
3.981313635,1577,0x38,0x00,Write,ACK
3.981418115,1577,0x38,0x07,Write,ACK
3.981654000,1578,0x39,0x0C,Read,ACK
3.981759605,1578,0x39,0x7B,Read,ACK
3.981865590,1578,0x39,0x08,Read,NAK
3.984112875,1580,0x38,0x00,Write,ACK
3.984217360,1580,0x38,0x22,Write,ACK
3.984437315,1581,0x39,0x0C,Read,ACK
3.984542925,1581,0x39,0x00,Read,ACK
3.984752700,1581,0x39,0x00,Read,NAK
3.988191960,1583,0x38,0x00,Write,ACK
3.988296440,1583,0x38,0x07,Write,ACK
3.988516400,1584,0x39,0x0C,Read,ACK
3.988639990,1584,0x39,0xB3,Read,ACK
3.988745785,1584,0x39,0xC7,Read,NAK
3.990938180,1586,0x38,0x00,Write,ACK
3.991042660,1586,0x38,0x22,Write,ACK
3.991262620,1587,0x39,0x0C,Read,ACK
3.991454910,1587,0x39,0x00,Read,ACK
3.991559770,1587,0x39,0x00,Read,NAK
3.995133175,1589,0x38,0x00,Write,ACK
3.995237655,1589,0x38,0x07,Write,ACK
3.995457615,1590,0x39,0x0C,Read,ACK
3.995701865,1590,0x39,0xDF,Read,ACK
3.995808035,1590,0x39,0xE3,Read,NAK
3.997831555,1592,0x38,0x00,Write,ACK
3.997936040,1592,0x38,0x22,Write,ACK
3.998243055,1593,0x39,0x0C,Read,ACK
3.998348660,1593,0x39,0x00,Read,ACK
3.998453520,1593,0x39,0x00,Read,NAK
4.001155900,1595,0x38,0x00,Write,ACK
4.001260380,1595,0x38,0x07,Write,ACK
4.001582700,1596,0x39,0x0C,Read,ACK
4.001688305,1596,0x39,0x70,Read,ACK
4.001793725,1596,0x39,0xA0,Read,NAK
4.005747030,1598,0x38,0x00,Write,ACK
4.005851510,1598,0x38,0x22,Write,ACK
4.006071470,1599,0x39,0x0C,Read,ACK
4.006177075,1599,0x39,0x00,Read,ACK
4.006281935,1599,0x39,0x00,Read,NAK
4.009786765,1601,0x38,0x00,Write,ACK
4.009978055,1601,0x38,0x07,Write,ACK
4.010198015,1602,0x39,0x0C,Read,ACK
4.010303620,1602,0x39,0xA6,Read,ACK
4.010409230,1602,0x39,0x07,Read,NAK
4.013399015,1604,0x38,0x00,Write,ACK
4.013503495,1604,0x38,0x22,Write,ACK
4.013739315,1605,0x39,0x0C,Read,ACK
4.013844925,1605,0x39,0x00,Read,ACK
4.013949780,1605,0x39,0x00,Read,NAK
4.016109700,1607,0x38,0x00,Write,ACK
4.016214180,1607,0x38,0x07,Write,ACK
4.016434140,1608,0x39,0x0C,Read,ACK
4.016539745,1608,0x39,0x77,Read,ACK
4.016750085,1608,0x39,0x11,Read,NAK
4.018916685,1610,0x38,0x00,Write,ACK
4.019021170,1610,0x38,0x22,Write,ACK
4.019327935,1611,0x39,0x0C,Read,ACK
4.019433545,1611,0x39,0x00,Read,ACK
4.019538400,1611,0x39,0x00,Read,NAK
4.022087150,1613,0x38,0x00,Write,ACK
4.022191630,1613,0x38,0x07,Write,ACK
4.022411590,1614,0x39,0x0C,Read,ACK
4.022623115,1614,0x39,0x5A,Read,ACK
4.022728720,1614,0x39,0xD1,Read,NAK
4.024940535,1616,0x38,0x00,Write,ACK
4.025131640,1616,0x38,0x22,Write,ACK
4.025351600,1617,0x39,0x0C,Read,ACK
4.025457205,1617,0x39,0x00,Read,ACK
4.025577990,1617,0x39,0x00,Read,NAK
4.028239275,1619,0x38,0x00,Write,ACK
4.028343760,1619,0x38,0x07,Write,ACK
4.028668635,1620,0x39,0x0C,Read,ACK
4.028774245,1620,0x39,0x8A,Read,ACK
4.028879665,1620,0x39,0x06,Read,NAK
4.031086230,1622,0x38,0x00,Write,ACK
4.031190715,1622,0x38,0x22,Write,ACK
4.031410675,1623,0x39,0x0C,Read,ACK
4.031516280,1623,0x39,0x00,Read,ACK
4.031637065,1623,0x39,0x00,Read,NAK
4.033787740,1625,0x38,0x00,Write,ACK
4.033892220,1625,0x38,0x07,Write,ACK
4.034112180,1626,0x39,0x0C,Read,ACK
4.034217785,1626,0x39,0x86,Read,ACK
4.034409950,1626,0x39,0xDD,Read,NAK
4.037168415,1628,0x38,0x00,Write,ACK
4.037272895,1628,0x38,0x22,Write,ACK
4.037492855,1629,0x39,0x0C,Read,ACK
4.037701260,1629,0x39,0x00,Read,ACK
4.037806115,1629,0x39,0x00,Read,NAK
4.039872290,1631,0x38,0x00,Write,ACK
4.039976775,1631,0x38,0x07,Write,ACK
4.040283415,1632,0x39,0x0C,Read,ACK
4.040389025,1632,0x39,0x7B,Read,ACK
4.040495005,1632,0x39,0xF6,Read,NAK
4.043702375,1634,0x38,0x00,Write,ACK
4.043806860,1634,0x38,0x22,Write,ACK
4.044026815,1635,0x39,0x0C,Read,ACK
4.044132425,1635,0x39,0x00,Read,ACK
4.044237280,1635,0x39,0x00,Read,NAK
4.047838850,1637,0x38,0x00,Write,ACK
4.047943335,1637,0x38,0x07,Write,ACK
4.048163290,1638,0x39,0x0C,Read,ACK
4.048268900,1638,0x39,0xA7,Read,ACK
4.048374695,1638,0x39,0xA3,Read,NAK
4.051232705,1640,0x38,0x00,Write,ACK
4.051337185,1640,0x38,0x22,Write,ACK
4.051573005,1641,0x39,0x0C,Read,ACK
4.051678615,1641,0x39,0x00,Read,ACK
4.051783470,1641,0x39,0x00,Read,NAK
4.053958755,1643,0x38,0x00,Write,ACK
4.054063235,1643,0x38,0x07,Write,ACK
4.054283195,1644,0x39,0x0C,Read,ACK
4.054388800,1644,0x39,0x6D,Read,ACK
4.054600265,1644,0x39,0x38,Read,NAK
4.056859105,1646,0x38,0x00,Write,ACK
4.056963590,1646,0x38,0x22,Write,ACK
4.057270355,1647,0x39,0x0C,Read,ACK
4.057375965,1647,0x39,0x00,Read,ACK
4.057480820,1647,0x39,0x00,Read,NAK
4.060065230,1649,0x38,0x00,Write,ACK
4.060169710,1649,0x38,0x07,Write,ACK
4.060476230,1650,0x39,0x0C,Read,ACK
4.060599885,1650,0x39,0x39,Read,ACK
4.060705490,1650,0x39,0x2E,Read,NAK
4.063261795,1652,0x38,0x00,Write,ACK
4.063366275,1652,0x38,0x22,Write,ACK
4.063602160,1653,0x39,0x0C,Read,ACK
4.063707765,1653,0x39,0x00,Read,ACK
4.063899435,1653,0x39,0x00,Read,NAK
4.065822280,1655,0x38,0x00,Write,ACK
4.065926765,1655,0x38,0x07,Write,ACK
4.066146720,1656,0x39,0x0C,Read,ACK
4.066339200,1656,0x39,0x65,Read,ACK
4.066444810,1656,0x39,0x79,Read,NAK
4.069204205,1658,0x38,0x00,Write,ACK
4.069308690,1658,0x38,0x22,Write,ACK
4.069544510,1659,0x39,0x0C,Read,ACK
4.069737175,1659,0x39,0x00,Read,ACK
4.069842035,1659,0x39,0x00,Read,NAK
4.071853500,1661,0x38,0x00,Write,ACK
4.071957985,1661,0x38,0x07,Write,ACK
4.072264440,1662,0x39,0x0C,Read,ACK
4.072370045,1662,0x39,0x57,Read,ACK
4.072475840,1662,0x39,0x89,Read,NAK
4.075353960,1664,0x38,0x00,Write,ACK
4.075458445,1664,0x38,0x22,Write,ACK
4.075781135,1665,0x39,0x0C,Read,ACK
4.075886745,1665,0x39,0x00,Read,ACK
4.075991600,1665,0x39,0x00,Read,NAK
4.077958850,1667,0x38,0x00,Write,ACK
4.078150455,1667,0x38,0x07,Write,ACK
4.078370415,1668,0x39,0x0C,Read,ACK
4.078476020,1668,0x39,0x4F,Read,ACK
4.078600800,1668,0x39,0x9B,Read,NAK
4.081118260,1670,0x38,0x00,Write,ACK
4.081222740,1670,0x38,0x22,Write,ACK
4.081545745,1671,0x39,0x0C,Read,ACK
4.081651355,1671,0x39,0x00,Read,ACK
4.081756210,1671,0x39,0x00,Read,NAK
4.084603170,1673,0x38,0x00,Write,ACK
4.084707650,1673,0x38,0x07,Write,ACK
4.085014170,1674,0x39,0x0C,Read,ACK
4.085119775,1674,0x39,0x4D,Read,ACK
4.085225380,1674,0x39,0xAF,Read,NAK
4.087995085,1676,0x38,0x00,Write,ACK
4.088099570,1676,0x38,0x22,Write,ACK
4.088405895,1677,0x39,0x0C,Read,ACK
4.088529555,1677,0x39,0x00,Read,ACK
4.088634410,1677,0x39,0x00,Read,NAK
4.091371700,1679,0x38,0x00,Write,ACK
4.091476185,1679,0x38,0x07,Write,ACK
4.091798815,1680,0x39,0x0C,Read,ACK
4.091904420,1680,0x39,0x44,Read,ACK
4.092009655,1680,0x39,0x64,Read,NAK
4.094234585,1682,0x38,0x00,Write,ACK
4.094339065,1682,0x38,0x22,Write,ACK
4.094578010,1683,0x39,0x0C,Read,ACK
4.094683615,1683,0x39,0x00,Read,ACK
4.094788475,1683,0x39,0x00,Read,NAK
4.096950890,1685,0x38,0x00,Write,ACK
4.097055375,1685,0x38,0x07,Write,ACK
4.097275330,1686,0x39,0x0C,Read,ACK
4.097380940,1686,0x39,0x72,Read,ACK
4.097588780,1686,0x39,0x6C,Read,NAK
4.099722405,1688,0x38,0x00,Write,ACK
4.099826890,1688,0x38,0x22,Write,ACK
4.100133280,1689,0x39,0x0C,Read,ACK
4.100238885,1689,0x39,0x00,Read,ACK
4.100343745,1689,0x39,0x00,Read,NAK
4.103115385,1691,0x38,0x00,Write,ACK
4.103219865,1691,0x38,0x07,Write,ACK
4.103542620,1692,0x39,0x0C,Read,ACK
4.103648230,1692,0x39,0x3F,Read,ACK
4.103754210,1692,0x39,0x60,Read,NAK
4.105758620,1694,0x38,0x00,Write,ACK
4.105950100,1694,0x38,0x22,Write,ACK
4.106170060,1695,0x39,0x0C,Read,ACK
4.106275665,1695,0x39,0x00,Read,ACK
4.106380525,1695,0x39,0x00,Read,NAK
4.109169525,1697,0x38,0x00,Write,ACK
4.109360815,1697,0x38,0x07,Write,ACK
4.109596760,1698,0x39,0x0C,Read,ACK
4.109702370,1698,0x39,0x56,Read,ACK
4.109807975,1698,0x39,0xCA,Read,NAK
4.112575430,1700,0x38,0x00,Write,ACK
4.112766910,1700,0x38,0x22,Write,ACK
4.112986865,1701,0x39,0x0C,Read,ACK
4.113092475,1701,0x39,0x00,Read,ACK
4.113197330,1701,0x39,0x00,Read,NAK
4.116163075,1703,0x38,0x00,Write,ACK
4.116267555,1703,0x38,0x07,Write,ACK
4.116505565,1704,0x39,0x0C,Read,ACK
4.116611170,1704,0x39,0x79,Read,ACK
4.116716965,1704,0x39,0xFB,Read,NAK
4.119853265,1706,0x38,0x00,Write,ACK
4.119957745,1706,0x38,0x22,Write,ACK
4.120264450,1707,0x39,0x0C,Read,ACK
4.120370060,1707,0x39,0x00,Read,ACK
4.120492965,1707,0x39,0x00,Read,NAK
4.124089850,1709,0x38,0x00,Write,ACK
4.124194335,1709,0x38,0x07,Write,ACK
4.124518960,1710,0x39,0x0C,Read,ACK
4.124624570,1710,0x39,0x89,Read,ACK
4.124729990,1710,0x39,0xB7,Read,NAK
4.126880290,1712,0x38,0x00,Write,ACK
4.127107675,1712,0x38,0x22,Write,ACK
4.127327635,1713,0x39,0x0C,Read,ACK
4.127433240,1713,0x39,0x00,Read,ACK
4.127554025,1713,0x39,0x00,Read,NAK
4.130148360,1715,0x38,0x00,Write,ACK
4.130252845,1715,0x38,0x07,Write,ACK
4.130578410,1716,0x39,0x0C,Read,ACK
4.130684015,1716,0x39,0xC6,Read,ACK
4.130789625,1716,0x39,0xCA,Read,NAK
4.133082065,1718,0x38,0x00,Write,ACK
4.133186550,1718,0x38,0x22,Write,ACK
4.133406505,1719,0x39,0x0C,Read,ACK
4.133528040,1719,0x39,0x00,Read,ACK
4.133632895,1719,0x39,0x00,Read,NAK
4.135749970,1721,0x38,0x00,Write,ACK
4.135854455,1721,0x38,0x07,Write,ACK
4.136074410,1722,0x39,0x0C,Read,ACK
4.136266830,1722,0x39,0x99,Read,ACK
4.136372435,1722,0x39,0xB3,Read,NAK
4.139124025,1724,0x38,0x00,Write,ACK
4.139228510,1724,0x38,0x22,Write,ACK
4.139448470,1725,0x39,0x0C,Read,ACK
4.139656495,1725,0x39,0x00,Read,ACK
4.139761355,1725,0x39,0x00,Read,NAK
4.141734100,1727,0x38,0x00,Write,ACK
4.141838585,1727,0x38,0x07,Write,ACK
4.142058545,1728,0x39,0x0C,Read,ACK
4.142251085,1728,0x39,0xBF,Read,ACK
4.142357255,1728,0x39,0x1E,Read,NAK
4.145262540,1730,0x38,0x00,Write,ACK
4.145367025,1730,0x38,0x22,Write,ACK
4.145689780,1731,0x39,0x0C,Read,ACK
4.145795385,1731,0x39,0x00,Read,ACK
4.145900240,1731,0x39,0x00,Read,NAK
4.147932630,1733,0x38,0x00,Write,ACK
4.148123675,1733,0x38,0x07,Write,ACK
4.148343630,1734,0x39,0x0C,Read,ACK
4.148467350,1734,0x39,0x97,Read,ACK
4.148573145,1734,0x39,0xD7,Read,NAK
4.150975380,1736,0x38,0x00,Write,ACK
4.151079860,1736,0x38,0x22,Write,ACK
4.151299820,1737,0x39,0x0C,Read,ACK
4.151508095,1737,0x39,0x00,Read,ACK
4.151612955,1737,0x39,0x00,Read,NAK
4.153687500,1739,0x38,0x00,Write,ACK
4.153791985,1739,0x38,0x07,Write,ACK
4.154098435,1740,0x39,0x0C,Read,ACK
4.154204045,1740,0x39,0x8F,Read,ACK
4.154309840,1740,0x39,0xF9,Read,NAK
4.157408605,1742,0x38,0x00,Write,ACK
4.157529015,1742,0x38,0x22,Write,ACK
4.157748970,1743,0x39,0x0C,Read,ACK
4.157854575,1743,0x39,0x00,Read,ACK
4.157959435,1743,0x39,0x00,Read,NAK
4.160805765,1745,0x38,0x00,Write,ACK
4.160910250,1745,0x38,0x07,Write,ACK
4.161130210,1746,0x39,0x0C,Read,ACK
4.161235815,1746,0x39,0xA8,Read,ACK
4.161341235,1746,0x39,0xE0,Read,NAK
4.163677145,1748,0x38,0x00,Write,ACK
4.163781625,1748,0x38,0x22,Write,ACK
4.164088705,1749,0x39,0x0C,Read,ACK
4.164194310,1749,0x39,0x00,Read,ACK
4.164299170,1749,0x39,0x00,Read,NAK
4.167029340,1751,0x38,0x00,Write,ACK
4.167133825,1751,0x38,0x07,Write,ACK
4.167456515,1752,0x39,0x0C,Read,ACK
4.167562125,1752,0x39,0x62,Read,ACK
4.167667545,1752,0x39,0x60,Read,NAK
4.169671580,1754,0x38,0x00,Write,ACK
4.169776060,1754,0x38,0x22,Write,ACK
4.170082765,1755,0x39,0x0C,Read,ACK
4.170188375,1755,0x39,0x00,Read,ACK
4.170293230,1755,0x39,0x00,Read,NAK
4.173183530,1757,0x38,0x00,Write,ACK
4.173375070,1757,0x38,0x07,Write,ACK
4.173610955,1758,0x39,0x0C,Read,ACK
4.173716560,1758,0x39,0x59,Read,ACK
4.173822170,1758,0x39,0x84,Read,NAK
4.175959355,1760,0x38,0x00,Write,ACK
4.176063835,1760,0x38,0x22,Write,ACK
4.176283795,1761,0x39,0x0C,Read,ACK
4.176389400,1761,0x39,0x00,Read,ACK
4.176512310,1761,0x39,0x00,Read,NAK
4.178792695,1763,0x38,0x00,Write,ACK
4.178897180,1763,0x38,0x07,Write,ACK
4.179117135,1764,0x39,0x0C,Read,ACK
4.179309680,1764,0x39,0x55,Read,ACK
4.179415285,1764,0x39,0xFC,Read,NAK
4.181969715,1766,0x38,0x00,Write,ACK
4.182074195,1766,0x38,0x22,Write,ACK
4.182294155,1767,0x39,0x0C,Read,ACK
4.182399760,1767,0x39,0x00,Read,ACK
4.182609915,1767,0x39,0x00,Read,NAK
4.184832970,1769,0x38,0x00,Write,ACK
4.184937455,1769,0x38,0x07,Write,ACK
4.185244095,1770,0x39,0x0C,Read,ACK
4.185349705,1770,0x39,0x88,Read,ACK
4.185470860,1770,0x39,0x4A,Read,NAK
4.188197225,1772,0x38,0x00,Write,ACK
4.188301705,1772,0x38,0x22,Write,ACK
4.188626895,1773,0x39,0x0C,Read,ACK
4.188732505,1773,0x39,0x00,Read,ACK
4.188837360,1773,0x39,0x00,Read,NAK
4.190897540,1775,0x38,0x00,Write,ACK
4.191088895,1775,0x38,0x07,Write,ACK
4.191308855,1776,0x39,0x0C,Read,ACK
4.191430325,1776,0x39,0x73,Read,ACK
4.191536120,1776,0x39,0x99,Read,NAK
4.193986000,1778,0x38,0x00,Write,ACK
4.194090485,1778,0x38,0x22,Write,ACK
4.194397315,1779,0x39,0x0C,Read,ACK
4.194521905,1779,0x39,0x00,Read,ACK
4.194626765,1779,0x39,0x00,Read,NAK
4.197466540,1781,0x38,0x00,Write,ACK
4.197571020,1781,0x38,0x07,Write,ACK
4.197877475,1782,0x39,0x0C,Read,ACK
4.197983085,1782,0x39,0x69,Read,ACK
4.198088690,1782,0x39,0x80,Read,NAK
4.200834350,1784,0x38,0x00,Write,ACK
4.200938835,1784,0x38,0x22,Write,ACK
4.201245725,1785,0x39,0x0C,Read,ACK
4.201351330,1785,0x39,0x00,Read,ACK
4.201472115,1785,0x39,0x00,Read,NAK
4.203763870,1787,0x38,0x00,Write,ACK
4.203868350,1787,0x38,0x07,Write,ACK
4.204088310,1788,0x39,0x0C,Read,ACK
4.204193915,1788,0x39,0xD7,Read,ACK
4.204299900,1788,0x39,0xE5,Read,NAK
4.207098395,1790,0x38,0x00,Write,ACK
4.207202875,1790,0x38,0x22,Write,ACK
4.207438760,1791,0x39,0x0C,Read,ACK
4.207544365,1791,0x39,0x00,Read,ACK
4.207649225,1791,0x39,0x00,Read,NAK
4.209730640,1793,0x38,0x00,Write,ACK
4.209835120,1793,0x38,0x07,Write,ACK
4.210055080,1794,0x39,0x0C,Read,ACK
4.210160685,1794,0x39,0x73,Read,ACK
4.210266480,1794,0x39,0xB9,Read,NAK
4.213174515,1796,0x38,0x00,Write,ACK
4.213279000,1796,0x38,0x22,Write,ACK
4.213514820,1797,0x39,0x0C,Read,ACK
4.213620425,1797,0x39,0x00,Read,ACK
4.213812280,1797,0x39,0x00,Read,NAK
4.215872025,1799,0x38,0x00,Write,ACK
4.215976505,1799,0x38,0x07,Write,ACK
4.216283460,1800,0x39,0x0C,Read,ACK
4.216389070,1800,0x39,0x4F,Read,ACK
4.216512910,1800,0x39,0xDA,Read,NAK
4.219282925,1802,0x38,0x00,Write,ACK
4.219387410,1802,0x38,0x22,Write,ACK
4.219709790,1803,0x39,0x0C,Read,ACK
4.219815395,1803,0x39,0x00,Read,ACK
4.219920255,1803,0x39,0x00,Read,NAK
4.221881010,1805,0x38,0x00,Write,ACK
4.221985495,1805,0x38,0x07,Write,ACK
4.222292075,1806,0x39,0x0C,Read,ACK
4.222416605,1806,0x39,0xCE,Read,ACK
4.222522400,1806,0x39,0x9B,Read,NAK
4.224844505,1808,0x38,0x00,Write,ACK
4.224948990,1808,0x38,0x22,Write,ACK
4.225168945,1809,0x39,0x0C,Read,ACK
4.225274555,1809,0x39,0x00,Read,ACK
4.225379410,1809,0x39,0x00,Read,NAK
4.227628260,1811,0x38,0x00,Write,ACK
4.227732745,1811,0x38,0x07,Write,ACK
4.227952700,1812,0x39,0x0C,Read,ACK
4.228144865,1812,0x39,0x60,Read,ACK
4.228250100,1812,0x39,0x55,Read,NAK
4.231147455,1814,0x38,0x00,Write,ACK
4.231251940,1814,0x38,0x22,Write,ACK
4.231574755,1815,0x39,0x0C,Read,ACK
4.231680360,1815,0x39,0x00,Read,ACK
4.231785220,1815,0x39,0x00,Read,NAK
4.234645540,1817,0x38,0x00,Write,ACK
4.234836895,1817,0x38,0x07,Write,ACK
4.235056855,1818,0x39,0x0C,Read,ACK
4.235162460,1818,0x39,0x70,Read,ACK
4.235267880,1818,0x39,0x31,Read,NAK
4.237875460,1820,0x38,0x00,Write,ACK
4.237979940,1820,0x38,0x22,Write,ACK
4.238286955,1821,0x39,0x0C,Read,ACK
4.238411485,1821,0x39,0x00,Read,ACK
4.238516345,1821,0x39,0x00,Read,NAK
4.241115430,1823,0x38,0x00,Write,ACK
4.241219910,1823,0x38,0x07,Write,ACK
4.241455730,1824,0x39,0x0C,Read,ACK
4.241647960,1824,0x39,0x9B,Read,ACK
4.241753755,1824,0x39,0x30,Read,NAK
4.243913050,1826,0x38,0x00,Write,ACK
4.244104215,1826,0x38,0x22,Write,ACK
4.244324170,1827,0x39,0x0C,Read,ACK
4.244447765,1827,0x39,0x00,Read,ACK
4.244552625,1827,0x39,0x00,Read,NAK
4.247277675,1829,0x38,0x00,Write,ACK
4.247484580,1829,0x38,0x07,Write,ACK
4.247704535,1830,0x39,0x0C,Read,ACK
4.247810145,1830,0x39,0x56,Read,ACK
4.247915750,1830,0x39,0x6B,Read,NAK
4.249979115,1832,0x38,0x00,Write,ACK
4.250083600,1832,0x38,0x22,Write,ACK
4.250303555,1833,0x39,0x0C,Read,ACK
4.250428085,1833,0x39,0x00,Read,ACK
4.250532945,1833,0x39,0x00,Read,NAK
4.252877910,1835,0x38,0x00,Write,ACK
4.252982390,1835,0x38,0x07,Write,ACK
4.253202350,1836,0x39,0x0C,Read,ACK
4.253410505,1836,0x39,0x6B,Read,ACK
4.253516300,1836,0x39,0x7C,Read,NAK
4.255600960,1838,0x38,0x00,Write,ACK
4.255705445,1838,0x38,0x22,Write,ACK
4.256012150,1839,0x39,0x0C,Read,ACK
4.256117755,1839,0x39,0x00,Read,ACK
4.256222610,1839,0x39,0x00,Read,NAK
4.258986820,1841,0x38,0x00,Write,ACK
4.259091305,1841,0x38,0x07,Write,ACK
4.259413745,1842,0x39,0x0C,Read,ACK
4.259519350,1842,0x39,0x78,Read,ACK
4.259624960,1842,0x39,0x8E,Read,NAK
4.261596960,1844,0x38,0x00,Write,ACK
4.261788250,1844,0x38,0x22,Write,ACK
4.262008205,1845,0x39,0x0C,Read,ACK
4.262113815,1845,0x39,0x00,Read,ACK
4.262218670,1845,0x39,0x00,Read,NAK
4.264691165,1847,0x38,0x00,Write,ACK
4.264795645,1847,0x38,0x07,Write,ACK
4.265015605,1848,0x39,0x0C,Read,ACK
4.265207895,1848,0x39,0x72,Read,ACK
4.265313505,1848,0x39,0x85,Read,NAK
4.268118490,1850,0x38,0x00,Write,ACK
4.268222975,1850,0x38,0x22,Write,ACK
4.268547850,1851,0x39,0x0C,Read,ACK
4.268653460,1851,0x39,0x00,Read,ACK
4.268758315,1851,0x39,0x00,Read,NAK
4.271581915,1853,0x38,0x00,Write,ACK
4.271686400,1853,0x38,0x07,Write,ACK
4.271993355,1854,0x39,0x0C,Read,ACK
4.272098960,1854,0x39,0x79,Read,ACK
4.272204755,1854,0x39,0x6C,Read,NAK
4.275462585,1856,0x38,0x00,Write,ACK
4.275567070,1856,0x38,0x22,Write,ACK
4.275787030,1857,0x39,0x0C,Read,ACK
4.275892635,1857,0x39,0x00,Read,ACK
4.276084615,1857,0x39,0x00,Read,NAK
4.278824590,1859,0x38,0x00,Write,ACK
4.278929075,1859,0x38,0x07,Write,ACK
4.279149030,1860,0x39,0x0C,Read,ACK
4.279254635,1860,0x39,0x63,Read,ACK
4.279462790,1860,0x39,0xBD,Read,NAK
4.281610220,1862,0x38,0x00,Write,ACK
4.281714700,1862,0x38,0x22,Write,ACK
4.282021595,1863,0x39,0x0C,Read,ACK
4.282127200,1863,0x39,0x00,Read,ACK
4.282232060,1863,0x39,0x00,Read,NAK
4.284997265,1865,0x38,0x00,Write,ACK
4.285101750,1865,0x38,0x07,Write,ACK
4.285424565,1866,0x39,0x0C,Read,ACK
4.285530170,1866,0x39,0x5A,Read,ACK
4.285635780,1866,0x39,0xA2,Read,NAK
4.287681035,1868,0x38,0x00,Write,ACK
4.287872140,1868,0x38,0x22,Write,ACK
4.288092095,1869,0x39,0x0C,Read,ACK
4.288197705,1869,0x39,0x00,Read,ACK
4.288302560,1869,0x39,0x00,Read,NAK
4.291061085,1871,0x38,0x00,Write,ACK
4.291252375,1871,0x38,0x07,Write,ACK
4.291488260,1872,0x39,0x0C,Read,ACK
4.291593865,1872,0x39,0x40,Read,ACK
4.291698910,1872,0x39,0xDC,Read,NAK
4.293893990,1874,0x38,0x00,Write,ACK
4.293998475,1874,0x38,0x22,Write,ACK
4.294218430,1875,0x39,0x0C,Read,ACK
4.294324040,1875,0x39,0x00,Read,ACK
4.294447880,1875,0x39,0x00,Read,NAK
4.296667255,1877,0x38,0x00,Write,ACK
4.296771735,1877,0x38,0x07,Write,ACK
4.296991695,1878,0x39,0x0C,Read,ACK
4.297183610,1878,0x39,0x64,Read,ACK
4.297289030,1878,0x39,0x23,Read,NAK
4.299971550,1880,0x38,0x00,Write,ACK
4.300076035,1880,0x38,0x22,Write,ACK
4.300295990,1881,0x39,0x0C,Read,ACK
4.300506080,1881,0x39,0x00,Read,ACK
4.300610940,1881,0x39,0x00,Read,NAK
4.302833310,1883,0x38,0x00,Write,ACK
4.302937790,1883,0x38,0x07,Write,ACK
4.303244495,1884,0x39,0x0C,Read,ACK
4.303366030,1884,0x39,0x6D,Read,ACK
4.303471825,1884,0x39,0x28,Read,NAK
4.306310100,1886,0x38,0x00,Write,ACK
4.306520190,1886,0x38,0x22,Write,ACK
4.306740145,1887,0x39,0x0C,Read,ACK
4.306845755,1887,0x39,0x00,Read,ACK
4.306950610,1887,0x39,0x00,Read,NAK
4.310439015,1889,0x38,0x00,Write,ACK
4.310630310,1889,0x38,0x07,Write,ACK
4.310850265,1890,0x39,0x0C,Read,ACK
4.310955875,1890,0x39,0x5C,Read,ACK
4.311061480,1890,0x39,0x2E,Read,NAK
4.314052080,1892,0x38,0x00,Write,ACK
4.314156560,1892,0x38,0x22,Write,ACK
4.314395440,1893,0x39,0x0C,Read,ACK
4.314501050,1893,0x39,0x00,Read,ACK
4.314605905,1893,0x39,0x00,Read,NAK
4.316786560,1895,0x38,0x00,Write,ACK
4.316891040,1895,0x38,0x07,Write,ACK
4.317111000,1896,0x39,0x0C,Read,ACK
4.317216605,1896,0x39,0x45,Read,ACK
4.317424760,1896,0x39,0xA1,Read,NAK
4.319552955,1898,0x38,0x00,Write,ACK
4.319657435,1898,0x38,0x22,Write,ACK
4.319964140,1899,0x39,0x0C,Read,ACK
4.320069745,1899,0x39,0x00,Read,ACK
4.320174605,1899,0x39,0x00,Read,NAK
4.323373855,1901,0x38,0x00,Write,ACK
4.323478340,1901,0x38,0x07,Write,ACK
4.323698295,1902,0x39,0x0C,Read,ACK
4.323803905,1902,0x39,0x57,Read,ACK
4.323909700,1902,0x39,0xC8,Read,NAK
4.326966560,1904,0x38,0x00,Write,ACK
4.327071040,1904,0x38,0x22,Write,ACK
4.327291000,1905,0x39,0x0C,Read,ACK
4.327499590,1905,0x39,0x00,Read,ACK
4.327604445,1905,0x39,0x00,Read,NAK
4.329584440,1907,0x38,0x00,Write,ACK
4.329688920,1907,0x38,0x07,Write,ACK
4.329995625,1908,0x39,0x0C,Read,ACK
4.330101235,1908,0x39,0x3B,Read,ACK
4.330207030,1908,0x39,0x39,Read,NAK
4.333104320,1910,0x38,0x00,Write,ACK
4.333208805,1910,0x38,0x22,Write,ACK
4.333531435,1911,0x39,0x0C,Read,ACK
4.333637040,1911,0x39,0x00,Read,ACK
4.333741900,1911,0x39,0x00,Read,NAK
4.335552585,1913,0x38,0x00,Write,ACK
4.335657065,1913,0x38,0x07,Write,ACK
4.335963645,1914,0x39,0x0C,Read,ACK
4.336069250,1914,0x39,0x5E,Read,ACK
4.336175045,1914,0x39,0x79,Read,NAK
4.338916145,1916,0x38,0x00,Write,ACK
4.339020630,1916,0x38,0x22,Write,ACK
4.339342885,1917,0x39,0x0C,Read,ACK
4.339448490,1917,0x39,0x00,Read,ACK
4.339553350,1917,0x39,0x00,Read,NAK
4.341543520,1919,0x38,0x00,Write,ACK
4.341648005,1919,0x38,0x07,Write,ACK
4.341954960,1920,0x39,0x0C,Read,ACK
4.342060565,1920,0x39,0x38,Read,ACK
4.342165985,1920,0x39,0x10,Read,NAK
4.345378040,1922,0x38,0x00,Write,ACK
4.345482520,1922,0x38,0x22,Write,ACK
4.345702480,1923,0x39,0x0C,Read,ACK
4.345808085,1923,0x39,0x00,Read,ACK
4.346035725,1923,0x39,0x00,Read,NAK
4.349531500,1925,0x38,0x00,Write,ACK
4.349635985,1925,0x38,0x07,Write,ACK
4.349855940,1926,0x39,0x0C,Read,ACK
4.349961550,1926,0x39,0x3F,Read,ACK
4.350067530,1926,0x39,0x30,Read,NAK
4.353758660,1928,0x38,0x00,Write,ACK
4.353863140,1928,0x38,0x22,Write,ACK
4.354083100,1929,0x39,0x0C,Read,ACK
4.354188705,1929,0x39,0x00,Read,ACK
4.354312550,1929,0x39,0x00,Read,NAK
4.357145330,1931,0x38,0x00,Write,ACK
4.357249810,1931,0x38,0x07,Write,ACK
4.357485695,1932,0x39,0x0C,Read,ACK
4.357591300,1932,0x39,0x5A,Read,ACK
4.357783220,1932,0x39,0x43,Read,NAK
4.359825475,1934,0x38,0x00,Write,ACK
4.359929960,1934,0x38,0x22,Write,ACK
4.360149915,1935,0x39,0x0C,Read,ACK
4.360360195,1935,0x39,0x00,Read,ACK
4.360465050,1935,0x39,0x00,Read,NAK
4.364067060,1937,0x38,0x00,Write,ACK
4.364171540,1937,0x38,0x07,Write,ACK
4.364409550,1938,0x39,0x0C,Read,ACK
4.364602275,1938,0x39,0x66,Read,ACK
4.364707885,1938,0x39,0x77,Read,NAK
4.366781930,1940,0x38,0x00,Write,ACK
4.366886410,1940,0x38,0x22,Write,ACK
4.367192930,1941,0x39,0x0C,Read,ACK
4.367314400,1941,0x39,0x00,Read,ACK
4.367419255,1941,0x39,0x00,Read,NAK
4.369610090,1943,0x38,0x00,Write,ACK
4.369714570,1943,0x38,0x07,Write,ACK
4.369934530,1944,0x39,0x0C,Read,ACK
4.370040135,1944,0x39,0x4D,Read,ACK
4.370145745,1944,0x39,0x11,Read,NAK
4.372989325,1946,0x38,0x00,Write,ACK
4.373093810,1946,0x38,0x22,Write,ACK
4.373329695,1947,0x39,0x0C,Read,ACK
4.373435300,1947,0x39,0x00,Read,ACK
4.373540160,1947,0x39,0x00,Read,NAK
4.375648305,1949,0x38,0x00,Write,ACK
4.375752785,1949,0x38,0x07,Write,ACK
4.375972745,1950,0x39,0x0C,Read,ACK
4.376078350,1950,0x39,0x93,Read,ACK
4.376183960,1950,0x39,0xE0,Read,NAK
4.379057455,1952,0x38,0x00,Write,ACK
4.379161940,1952,0x38,0x22,Write,ACK
4.379397825,1953,0x39,0x0C,Read,ACK
4.379503430,1953,0x39,0x00,Read,ACK
4.379695095,1953,0x39,0x00,Read,NAK
4.381638305,1955,0x38,0x00,Write,ACK
4.381742785,1955,0x38,0x07,Write,ACK
4.381962745,1956,0x39,0x0C,Read,ACK
4.382068350,1956,0x39,0x8D,Read,ACK
4.382260455,1956,0x39,0x1F,Read,NAK
4.384880525,1958,0x38,0x00,Write,ACK
4.384985005,1958,0x38,0x22,Write,ACK
4.385204965,1959,0x39,0x0C,Read,ACK
4.385326495,1959,0x39,0x00,Read,ACK
4.385431355,1959,0x39,0x00,Read,NAK
4.388244960,1961,0x38,0x00,Write,ACK
4.388367495,1961,0x38,0x07,Write,ACK
4.388587450,1962,0x39,0x0C,Read,ACK
4.388693060,1962,0x39,0x97,Read,ACK
4.388798850,1962,0x39,0x19,Read,NAK
4.390958460,1964,0x38,0x00,Write,ACK
4.391062940,1964,0x38,0x22,Write,ACK
4.391298825,1965,0x39,0x0C,Read,ACK
4.391491300,1965,0x39,0x00,Read,ACK
4.391596160,1965,0x39,0x00,Read,NAK
4.393685880,1967,0x38,0x00,Write,ACK
4.393790365,1967,0x38,0x07,Write,ACK
4.394097255,1968,0x39,0x0C,Read,ACK
4.394202865,1968,0x39,0x64,Read,ACK
4.394327270,1968,0x39,0x1C,Read,NAK
4.397063995,1970,0x38,0x00,Write,ACK
4.397168480,1970,0x38,0x22,Write,ACK
4.397491295,1971,0x39,0x0C,Read,ACK
4.397596905,1971,0x39,0x00,Read,ACK
4.397701760,1971,0x39,0x00,Read,NAK
4.399720410,1973,0x38,0x00,Write,ACK
4.399911765,1973,0x38,0x07,Write,ACK
4.400131725,1974,0x39,0x0C,Read,ACK
4.400237330,1974,0x39,0x82,Read,ACK
4.400360610,1974,0x39,0xE6,Read,NAK
4.403323670,1976,0x38,0x00,Write,ACK
4.403428150,1976,0x38,0x22,Write,ACK
4.403648110,1977,0x39,0x0C,Read,ACK
4.403753715,1977,0x39,0x00,Read,ACK
4.403858575,1977,0x39,0x00,Read,NAK
4.406713650,1979,0x38,0x00,Write,ACK
4.406818130,1979,0x38,0x07,Write,ACK
4.407038090,1980,0x39,0x0C,Read,ACK
4.407143695,1980,0x39,0x8C,Read,ACK
4.407265040,1980,0x39,0x41,Read,NAK
4.409875615,1982,0x38,0x00,Write,ACK
4.410066720,1982,0x38,0x22,Write,ACK
4.410305665,1983,0x39,0x0C,Read,ACK
4.410411270,1983,0x39,0x00,Read,ACK
4.410516130,1983,0x39,0x00,Read,NAK
4.413082800,1985,0x38,0x00,Write,ACK
4.413187280,1985,0x38,0x07,Write,ACK
4.413510225,1986,0x39,0x0C,Read,ACK
4.413615830,1986,0x39,0x78,Read,ACK
4.413721440,1986,0x39,0x9E,Read,NAK
4.415748085,1988,0x38,0x00,Write,ACK
4.415939250,1988,0x38,0x22,Write,ACK
4.416159205,1989,0x39,0x0C,Read,ACK
4.416282800,1989,0x39,0x00,Read,ACK
4.416387660,1989,0x39,0x00,Read,NAK
4.419108775,1991,0x38,0x00,Write,ACK
4.419316115,1991,0x38,0x07,Write,ACK
4.419536075,1992,0x39,0x0C,Read,ACK
4.419641680,1992,0x39,0x78,Read,ACK
4.419747290,1992,0x39,0x7E,Read,NAK
4.422025365,1994,0x38,0x00,Write,ACK
4.422129850,1994,0x38,0x22,Write,ACK
4.422368790,1995,0x39,0x0C,Read,ACK
4.422474400,1995,0x39,0x00,Read,ACK
4.422665630,1995,0x39,0x00,Read,NAK
4.425642610,1997,0x38,0x00,Write,ACK
4.425747095,1997,0x38,0x07,Write,ACK
4.426053800,1998,0x39,0x0C,Read,ACK
4.426159405,1998,0x39,0x61,Read,ACK
4.426283750,1998,0x39,0xE1,Read,NAK
4.429026470,2000,0x38,0x00,Write,ACK
4.429130955,2000,0x38,0x22,Write,ACK
4.429453645,2001,0x39,0x0C,Read,ACK
4.429559255,2001,0x39,0x00,Read,ACK
4.429664110,2001,0x39,0x00,Read,NAK
4.431670585,2003,0x38,0x00,Write,ACK
4.431775065,2003,0x38,0x07,Write,ACK
4.432081520,2004,0x39,0x0C,Read,ACK
4.432187130,2004,0x39,0x72,Read,ACK
4.432310720,2004,0x39,0x18,Read,NAK
4.434689850,2006,0x38,0x00,Write,ACK
4.434794330,2006,0x38,0x22,Write,ACK
4.435014290,2007,0x39,0x0C,Read,ACK
4.435119895,2007,0x39,0x00,Read,ACK
4.435327175,2007,0x39,0x00,Read,NAK
4.437876860,2009,0x38,0x00,Write,ACK
4.437981340,2009,0x38,0x07,Write,ACK
4.438201300,2010,0x39,0x0C,Read,ACK
4.438325890,2010,0x39,0x69,Read,ACK
4.438431500,2010,0x39,0xDF,Read,NAK
4.440637255,2012,0x38,0x00,Write,ACK
4.440741740,2012,0x38,0x22,Write,ACK
4.440961695,2013,0x39,0x0C,Read,ACK
4.441067305,2013,0x39,0x00,Read,ACK
4.441274960,2013,0x39,0x00,Read,NAK
4.443461295,2015,0x38,0x00,Write,ACK
4.443565775,2015,0x38,0x07,Write,ACK
4.443872605,2016,0x39,0x0C,Read,ACK
4.443978215,2016,0x39,0x5E,Read,ACK
4.444084005,2016,0x39,0x1A,Read,NAK
4.446783265,2018,0x38,0x00,Write,ACK
4.446887745,2018,0x38,0x22,Write,ACK
4.447194325,2019,0x39,0x0C,Read,ACK
4.447315860,2019,0x39,0x00,Read,ACK
4.447420715,2019,0x39,0x00,Read,NAK
4.449458975,2021,0x38,0x00,Write,ACK
4.449649895,2021,0x38,0x07,Write,ACK
4.449869850,2022,0x39,0x0C,Read,ACK
4.449975460,2022,0x39,0x6E,Read,ACK
4.450081255,2022,0x39,0xB8,Read,NAK
4.452866755,2024,0x38,0x00,Write,ACK
4.453058050,2024,0x38,0x22,Write,ACK
4.453293930,2025,0x39,0x0C,Read,ACK
4.453399540,2025,0x39,0x00,Read,ACK
4.453504395,2025,0x39,0x00,Read,NAK
4.455679930,2027,0x38,0x00,Write,ACK
4.455784410,2027,0x38,0x07,Write,ACK
4.456004370,2028,0x39,0x0C,Read,ACK
4.456109975,2028,0x39,0x5B,Read,ACK
4.456233820,2028,0x39,0x70,Read,NAK
4.459345200,2030,0x38,0x00,Write,ACK
4.459449685,2030,0x38,0x22,Write,ACK
4.459756575,2031,0x39,0x0C,Read,ACK
4.459862180,2031,0x39,0x00,Read,ACK
4.459967040,2031,0x39,0x00,Read,NAK
4.463584345,2033,0x38,0x00,Write,ACK
4.463688830,2033,0x38,0x07,Write,ACK
4.463995660,2034,0x39,0x0C,Read,ACK
4.464101265,2034,0x39,0x55,Read,ACK
4.464224985,2034,0x39,0xE1,Read,NAK
4.466964210,2036,0x38,0x00,Write,ACK
4.467068695,2036,0x38,0x22,Write,ACK
4.467391700,2037,0x39,0x0C,Read,ACK
4.467497305,2037,0x39,0x00,Read,ACK
4.467602165,2037,0x39,0x00,Read,NAK
4.469534505,2039,0x38,0x00,Write,ACK
4.469638985,2039,0x38,0x07,Write,ACK
4.469945630,2040,0x39,0x0C,Read,ACK
4.470051235,2040,0x39,0x4F,Read,ACK
4.470157030,2040,0x39,0x1C,Read,NAK
4.473064940,2042,0x38,0x00,Write,ACK
4.473272095,2042,0x38,0x22,Write,ACK
4.473492055,2043,0x39,0x0C,Read,ACK
4.473597660,2043,0x39,0x00,Read,ACK
4.473702520,2043,0x39,0x00,Read,NAK
4.475808915,2045,0x38,0x00,Write,ACK
4.475913395,2045,0x38,0x07,Write,ACK
4.476133355,2046,0x39,0x0C,Read,ACK
4.476257075,2046,0x39,0x50,Read,ACK
4.476362305,2046,0x39,0x2A,Read,NAK
4.478616090,2048,0x38,0x00,Write,ACK
4.478720570,2048,0x38,0x22,Write,ACK
4.478940530,2049,0x39,0x0C,Read,ACK
4.479132945,2049,0x39,0x00,Read,ACK
4.479253730,2049,0x39,0x00,Read,NAK
4.481803785,2051,0x38,0x00,Write,ACK
4.481908270,2051,0x38,0x07,Write,ACK
4.482128230,2052,0x39,0x0C,Read,ACK
4.482252760,2052,0x39,0x45,Read,ACK
4.482358180,2052,0x39,0xD1,Read,NAK
4.484648185,2054,0x38,0x00,Write,ACK
4.484752665,2054,0x38,0x22,Write,ACK
4.485059245,2055,0x39,0x0C,Read,ACK
4.485164855,2055,0x39,0x00,Read,ACK
4.485285635,2055,0x39,0x00,Read,NAK
4.487542915,2057,0x38,0x00,Write,ACK
4.487647400,2057,0x38,0x07,Write,ACK
4.487867360,2058,0x39,0x0C,Read,ACK
4.487972965,2058,0x39,0x58,Read,ACK
4.488078385,2058,0x39,0x4B,Read,NAK
4.490713440,2060,0x38,0x00,Write,ACK
4.490904795,2060,0x38,0x22,Write,ACK
4.491124755,2061,0x39,0x0C,Read,ACK
4.491246285,2061,0x39,0x00,Read,ACK
4.491351145,2061,0x39,0x00,Read,NAK
4.493508190,2063,0x38,0x00,Write,ACK
4.493612670,2063,0x38,0x07,Write,ACK
4.493832630,2064,0x39,0x0C,Read,ACK
4.493938235,2064,0x39,0x50,Read,ACK
4.494043470,2064,0x39,0x69,Read,NAK
4.497116315,2066,0x38,0x00,Write,ACK
4.497236725,2066,0x38,0x22,Write,ACK
4.497456680,2067,0x39,0x0C,Read,ACK
4.497649220,2067,0x39,0x00,Read,ACK
4.497754080,2067,0x39,0x00,Read,NAK
4.500625330,2069,0x38,0x00,Write,ACK
4.500729815,2069,0x38,0x07,Write,ACK
4.501036580,2070,0x39,0x0C,Read,ACK
4.501142190,2070,0x39,0x4B,Read,ACK
4.501263720,2070,0x39,0x55,Read,NAK
4.503597945,2072,0x38,0x00,Write,ACK
4.503702425,2072,0x38,0x22,Write,ACK
4.503922385,2073,0x39,0x0C,Read,ACK
4.504027990,2073,0x39,0x00,Read,ACK
4.504132850,2073,0x39,0x00,Read,NAK
4.506958320,2075,0x38,0x00,Write,ACK
4.507062805,2075,0x38,0x07,Write,ACK
4.507298690,2076,0x39,0x0C,Read,ACK
4.507404295,2076,0x39,0x53,Read,ACK
4.507509900,2076,0x39,0x13,Read,NAK
4.509561715,2078,0x38,0x00,Write,ACK
4.509666200,2078,0x38,0x22,Write,ACK
4.509886155,2079,0x39,0x0C,Read,ACK
4.509991760,2079,0x39,0x00,Read,ACK
4.510096620,2079,0x39,0x00,Read,NAK
4.513044250,2081,0x38,0x00,Write,ACK
4.513148735,2081,0x38,0x07,Write,ACK
4.513384615,2082,0x39,0x0C,Read,ACK
4.513490225,2082,0x39,0x46,Read,ACK
4.513682200,2082,0x39,0xAF,Read,NAK
4.515706975,2084,0x38,0x00,Write,ACK
4.515811455,2084,0x38,0x22,Write,ACK
4.516031415,2085,0x39,0x0C,Read,ACK
4.516241755,2085,0x39,0x00,Read,ACK
4.516346610,2085,0x39,0x00,Read,NAK
4.518571730,2087,0x38,0x00,Write,ACK
4.518763270,2087,0x38,0x07,Write,ACK
4.518983230,2088,0x39,0x0C,Read,ACK
4.519088835,2088,0x39,0x4A,Read,ACK
4.519210120,2088,0x39,0x6E,Read,NAK
4.521733195,2090,0x38,0x00,Write,ACK
4.521837680,2090,0x38,0x22,Write,ACK
4.522144195,2091,0x39,0x0C,Read,ACK
4.522268790,2091,0x39,0x00,Read,ACK
4.522373645,2091,0x39,0x00,Read,NAK
4.524658970,2093,0x38,0x00,Write,ACK
4.524763450,2093,0x38,0x07,Write,ACK
4.524983410,2094,0x39,0x0C,Read,ACK
4.525089015,2094,0x39,0x4A,Read,ACK
4.525210360,2094,0x39,0x67,Read,NAK
4.527399445,2096,0x38,0x00,Write,ACK
4.527503930,2096,0x38,0x22,Write,ACK
4.527723885,2097,0x39,0x0C,Read,ACK
4.527829495,2097,0x39,0x00,Read,ACK
4.528021095,2097,0x39,0x00,Read,NAK
4.530686005,2099,0x38,0x00,Write,ACK
4.530790490,2099,0x38,0x07,Write,ACK
4.531010445,2100,0x39,0x0C,Read,ACK
4.531116055,2100,0x39,0x40,Read,ACK
4.531323895,2100,0x39,0x7D,Read,NAK
4.533671170,2102,0x38,0x00,Write,ACK
4.533862585,2102,0x38,0x22,Write,ACK
4.534082545,2103,0x39,0x0C,Read,ACK
4.534207135,2103,0x39,0x00,Read,ACK
4.534311995,2103,0x39,0x00,Read,NAK
4.537288415,2105,0x38,0x00,Write,ACK
4.537392900,2105,0x38,0x07,Write,ACK
4.537612855,2106,0x39,0x0C,Read,ACK
4.537718465,2106,0x39,0x4E,Read,ACK
4.537824070,2106,0x39,0x80,Read,NAK
4.540604390,2108,0x38,0x00,Write,ACK
4.540708875,2108,0x38,0x22,Write,ACK
4.540928830,2109,0x39,0x0C,Read,ACK
4.541034440,2109,0x39,0x00,Read,ACK
4.541139295,2109,0x39,0x00,Read,NAK
4.543413005,2111,0x38,0x00,Write,ACK
4.543517485,2111,0x38,0x07,Write,ACK
4.543737445,2112,0x39,0x0C,Read,ACK
4.543843050,2112,0x39,0x6A,Read,ACK
4.544035280,2112,0x39,0x91,Read,NAK
4.546790930,2114,0x38,0x00,Write,ACK
4.546895415,2114,0x38,0x22,Write,ACK
4.547115370,2115,0x39,0x0C,Read,ACK
4.547323465,2115,0x39,0x00,Read,ACK
4.547428320,2115,0x39,0x00,Read,NAK
4.549409810,2117,0x38,0x00,Write,ACK
4.549514295,2117,0x38,0x07,Write,ACK
4.549734250,2118,0x39,0x0C,Read,ACK
4.549926980,2118,0x39,0x51,Read,ACK
4.550032400,2118,0x39,0xB1,Read,NAK
4.552910645,2120,0x38,0x00,Write,ACK
4.553015130,2120,0x38,0x22,Write,ACK
4.553337510,2121,0x39,0x0C,Read,ACK
4.553443115,2121,0x39,0x00,Read,ACK
4.553547975,2121,0x39,0x00,Read,NAK
4.555574245,2123,0x38,0x00,Write,ACK
4.555765410,2123,0x38,0x07,Write,ACK
4.555985370,2124,0x39,0x0C,Read,ACK
4.556090975,2124,0x39,0x50,Read,ACK
4.556214255,2124,0x39,0x2A,Read,NAK
4.558985395,2126,0x38,0x00,Write,ACK
4.559192240,2126,0x38,0x22,Write,ACK
4.559412195,2127,0x39,0x0C,Read,ACK
4.559517805,2127,0x39,0x00,Read,ACK
4.559622660,2127,0x39,0x00,Read,NAK
4.561811870,2132,0x38,0x00,Write,ACK
4.561916350,2132,0x38,0x07,Write,ACK
4.562155295,2133,0x39,0x0C,Read,ACK
4.562260900,2133,0x39,0x56,Read,ACK
4.562366510,2133,0x39,0x0C,Read,NAK
4.564704915,2135,0x38,0x00,Write,ACK
4.564809400,2135,0x38,0x22,Write,ACK
4.565167815,2136,0x39,0x0C,Read,ACK
4.565273420,2136,0x39,0x00,Read,ACK
4.565378280,2136,0x39,0x00,Read,NAK
4.567403860,2138,0x38,0x00,Write,ACK
4.567594840,2138,0x38,0x07,Write,ACK
4.567814800,2139,0x39,0x0C,Read,ACK
4.567920405,2139,0x39,0x3A,Read,ACK
4.568026015,2139,0x39,0x1C,Read,NAK
4.571097610,2141,0x38,0x00,Write,ACK
4.571218020,2141,0x38,0x22,Write,ACK
4.571437975,2142,0x39,0x0C,Read,ACK
4.571543585,2142,0x39,0x00,Read,ACK
4.571735315,2142,0x39,0x00,Read,NAK
4.574548420,2144,0x38,0x00,Write,ACK
4.574652905,2144,0x38,0x07,Write,ACK
4.574872860,2145,0x39,0x0C,Read,ACK
4.574978470,2145,0x39,0x53,Read,ACK
4.575186625,2145,0x39,0xD1,Read,NAK
4.577357470,2147,0x38,0x00,Write,ACK
4.577461955,2147,0x38,0x22,Write,ACK
4.577768655,2148,0x39,0x0C,Read,ACK
4.577874265,2148,0x39,0x00,Read,ACK
4.577979120,2148,0x39,0x00,Read,NAK
4.580667950,2150,0x38,0x00,Write,ACK
4.580772435,2150,0x38,0x07,Write,ACK
4.581079200,2151,0x39,0x0C,Read,ACK
4.581200670,2151,0x39,0x54,Read,ACK
4.581306090,2151,0x39,0x30,Read,NAK
4.583552755,2153,0x38,0x00,Write,ACK
4.583657235,2153,0x38,0x22,Write,ACK
4.583877195,2154,0x39,0x0C,Read,ACK
4.583982800,2154,0x39,0x00,Read,ACK
4.584087660,2154,0x39,0x00,Read,NAK
4.586954915,2156,0x38,0x00,Write,ACK
4.587059395,2156,0x38,0x07,Write,ACK
4.587295280,2157,0x39,0x0C,Read,ACK
4.587400885,2157,0x39,0x71,Read,ACK
4.587506495,2157,0x39,0xCD,Read,NAK
4.589675590,2159,0x38,0x00,Write,ACK
4.589780075,2159,0x38,0x22,Write,ACK
4.590000030,2160,0x39,0x0C,Read,ACK
4.590105640,2160,0x39,0x00,Read,ACK
4.590316230,2160,0x39,0x00,Read,NAK
4.592526235,2162,0x38,0x00,Write,ACK
4.592630715,2162,0x38,0x07,Write,ACK
4.592937045,2163,0x39,0x0C,Read,ACK
4.593042655,2163,0x39,0x61,Read,ACK
4.593164000,2163,0x39,0xB2,Read,NAK
4.595864255,2165,0x38,0x00,Write,ACK
4.595968735,2165,0x38,0x22,Write,ACK
4.596293365,2166,0x39,0x0C,Read,ACK
4.596398970,2166,0x39,0x00,Read,ACK
4.596503830,2166,0x39,0x00,Read,NAK
4.598576940,2168,0x38,0x00,Write,ACK
4.598768045,2168,0x38,0x07,Write,ACK
4.598988000,2169,0x39,0x0C,Read,ACK
4.599093610,2169,0x39,0x4F,Read,ACK
4.599215265,2169,0x39,0x3C,Read,NAK
4.601822720,2171,0x38,0x00,Write,ACK
4.601927200,2171,0x38,0x22,Write,ACK
4.602253015,2172,0x39,0x0C,Read,ACK
4.602358620,2172,0x39,0x00,Read,ACK
4.602463480,2172,0x39,0x00,Read,NAK
4.604738810,2174,0x38,0x00,Write,ACK
4.604843295,2174,0x38,0x07,Write,ACK
4.605063250,2175,0x39,0x0C,Read,ACK
4.605184785,2175,0x39,0x4F,Read,ACK
4.605290575,2175,0x39,0x9B,Read,NAK
4.607641725,2177,0x38,0x00,Write,ACK
4.607746210,2177,0x38,0x22,Write,ACK
4.608053225,2178,0x39,0x0C,Read,ACK
4.608176815,2178,0x39,0x00,Read,ACK
4.608281675,2178,0x39,0x00,Read,NAK
4.611340720,2180,0x38,0x00,Write,ACK
4.611445205,2180,0x38,0x07,Write,ACK
4.611665160,2181,0x39,0x0C,Read,ACK
4.611770770,2181,0x39,0x61,Read,ACK
4.611876190,2181,0x39,0x23,Read,NAK
4.614762430,2183,0x38,0x00,Write,ACK
4.614866910,2183,0x38,0x22,Write,ACK
4.615102795,2184,0x39,0x0C,Read,ACK
4.615208400,2184,0x39,0x00,Read,ACK
4.615313260,2184,0x39,0x00,Read,NAK
4.617414160,2186,0x38,0x00,Write,ACK
4.617518640,2186,0x38,0x07,Write,ACK
4.617738600,2187,0x39,0x0C,Read,ACK
4.617844205,2187,0x39,0x5A,Read,ACK
4.617949815,2187,0x39,0x23,Read,NAK
4.620710025,2189,0x38,0x00,Write,ACK
4.620814510,2189,0x38,0x22,Write,ACK
4.621034465,2190,0x39,0x0C,Read,ACK
4.621156060,2190,0x39,0x00,Read,ACK
4.621260920,2190,0x39,0x00,Read,NAK
4.623492095,2192,0x38,0x00,Write,ACK
4.623596575,2192,0x38,0x07,Write,ACK
4.623816535,2193,0x39,0x0C,Read,ACK
4.624009075,2193,0x39,0x55,Read,ACK
4.624132730,2193,0x39,0x5E,Read,NAK
4.626900935,2195,0x38,0x00,Write,ACK
4.627005420,2195,0x38,0x22,Write,ACK
4.627328550,2196,0x39,0x0C,Read,ACK
4.627434155,2196,0x39,0x00,Read,ACK
4.627539015,2196,0x39,0x00,Read,NAK
4.629488530,2198,0x38,0x00,Write,ACK
4.629593010,2198,0x38,0x07,Write,ACK
4.629899590,2199,0x39,0x0C,Read,ACK
4.630005200,2199,0x39,0x5C,Read,ACK
4.630129790,2199,0x39,0xBC,Read,NAK
4.633027395,2201,0x38,0x00,Write,ACK
4.633234740,2201,0x38,0x22,Write,ACK
4.633454695,2202,0x39,0x0C,Read,ACK
4.633560305,2202,0x39,0x00,Read,ACK
4.633665160,2202,0x39,0x00,Read,NAK
4.635760505,2204,0x38,0x00,Write,ACK
4.635864985,2204,0x38,0x07,Write,ACK
4.636102990,2205,0x39,0x0C,Read,ACK
4.636208600,2205,0x39,0x5B,Read,ACK
4.636314395,2205,0x39,0x80,Read,NAK
4.638530205,2207,0x38,0x00,Write,ACK
4.638634690,2207,0x38,0x22,Write,ACK
4.638854645,2208,0x39,0x0C,Read,ACK
4.638960255,2208,0x39,0x00,Read,ACK
4.639167660,2208,0x39,0x00,Read,NAK
4.641747380,2210,0x38,0x00,Write,ACK
4.641851865,2210,0x38,0x07,Write,ACK
4.642090870,2211,0x39,0x0C,Read,ACK
4.642196480,2211,0x39,0x6E,Read,ACK
4.642302270,2211,0x39,0x15,Read,NAK
4.644833285,2213,0x38,0x00,Write,ACK
4.645024200,2213,0x38,0x22,Write,ACK
4.645260020,2214,0x39,0x0C,Read,ACK
4.645365625,2214,0x39,0x00,Read,ACK
4.645470485,2214,0x39,0x00,Read,NAK
4.648229385,2216,0x38,0x00,Write,ACK
4.648420550,2216,0x38,0x07,Write,ACK
4.648640510,2217,0x39,0x0C,Read,ACK
4.648746115,2217,0x39,0x54,Read,ACK
4.648851535,2217,0x39,0x74,Read,NAK
4.651605000,2219,0x38,0x00,Write,ACK
4.651796295,2219,0x38,0x22,Write,ACK
4.652016250,2220,0x39,0x0C,Read,ACK
4.652139905,2220,0x39,0x00,Read,ACK
4.652244765,2220,0x39,0x00,Read,NAK
4.654569680,2222,0x38,0x00,Write,ACK
4.654674165,2222,0x38,0x07,Write,ACK
4.654894125,2223,0x39,0x0C,Read,ACK
4.654999730,2223,0x39,0x67,Read,ACK
4.655207820,2223,0x39,0x35,Read,NAK
4.657327705,2225,0x38,0x00,Write,ACK
4.657432190,2225,0x38,0x22,Write,ACK
4.657739205,2226,0x39,0x0C,Read,ACK
4.657844815,2226,0x39,0x00,Read,ACK
4.657949670,2226,0x39,0x00,Read,NAK
4.660602590,2228,0x38,0x00,Write,ACK
4.660707070,2228,0x38,0x07,Write,ACK
4.660927030,2229,0x39,0x0C,Read,ACK
4.661135370,2229,0x39,0x57,Read,ACK
4.661241165,2229,0x39,0xE8,Read,NAK
4.663390905,2231,0x38,0x00,Write,ACK
4.663581945,2231,0x38,0x22,Write,ACK
4.663801905,2232,0x39,0x0C,Read,ACK
4.663907510,2232,0x39,0x00,Read,ACK
4.664012370,2232,0x39,0x00,Read,NAK
4.666750095,2234,0x38,0x00,Write,ACK
4.666941325,2234,0x38,0x07,Write,ACK
4.667177210,2235,0x39,0x0C,Read,ACK
4.667282815,2235,0x39,0x66,Read,ACK
4.667388420,2235,0x39,0x47,Read,NAK
4.669347680,2237,0x38,0x00,Write,ACK
4.669538845,2237,0x38,0x22,Write,ACK
4.669758805,2238,0x39,0x0C,Read,ACK
4.669864410,2238,0x39,0x00,Read,ACK
4.669969270,2238,0x39,0x00,Read,NAK
4.672948000,2240,0x38,0x00,Write,ACK
4.673068410,2240,0x38,0x07,Write,ACK
4.673288370,2241,0x39,0x0C,Read,ACK
4.673393975,2241,0x39,0x5E,Read,ACK
4.673499770,2241,0x39,0x11,Read,NAK
4.675893885,2243,0x38,0x00,Write,ACK
4.675998365,2243,0x38,0x22,Write,ACK
4.676323430,2244,0x39,0x0C,Read,ACK
4.676429040,2244,0x39,0x00,Read,ACK
4.676533895,2244,0x39,0x00,Read,NAK
4.678595515,2246,0x38,0x00,Write,ACK
4.678786680,2246,0x38,0x07,Write,ACK
4.679006640,2247,0x39,0x0C,Read,ACK
4.679128170,2247,0x39,0x61,Read,ACK
4.679233590,2247,0x39,0xD1,Read,NAK
4.681603600,2249,0x38,0x00,Write,ACK
4.681708080,2249,0x38,0x22,Write,ACK
4.681928040,2250,0x39,0x0C,Read,ACK
4.682139440,2250,0x39,0x00,Read,ACK
4.682244300,2250,0x39,0x00,Read,NAK
4.685099315,2252,0x38,0x00,Write,ACK
4.685203795,2252,0x38,0x07,Write,ACK
4.685510685,2253,0x39,0x0C,Read,ACK
4.685616295,2253,0x39,0x48,Read,ACK
4.685721525,2253,0x39,0x9B,Read,NAK
4.688505530,2255,0x38,0x00,Write,ACK
4.688610015,2255,0x38,0x22,Write,ACK
4.688917095,2256,0x39,0x0C,Read,ACK
4.689022700,2256,0x39,0x00,Read,ACK
4.689143485,2256,0x39,0x00,Read,NAK
4.691359920,2258,0x38,0x00,Write,ACK
4.691464405,2258,0x38,0x07,Write,ACK
4.691684360,2259,0x39,0x0C,Read,ACK
4.691789970,2259,0x39,0x70,Read,ACK
4.691895390,2259,0x39,0x11,Read,NAK
4.694741845,2261,0x38,0x00,Write,ACK
4.694846330,2261,0x38,0x22,Write,ACK
4.695082210,2262,0x39,0x0C,Read,ACK
4.695187820,2262,0x39,0x00,Read,ACK
4.695292675,2262,0x39,0x00,Read,NAK
4.697360540,2264,0x38,0x00,Write,ACK
4.697465025,2264,0x38,0x07,Write,ACK
4.697684980,2265,0x39,0x0C,Read,ACK
4.697790585,2265,0x39,0x50,Read,ACK
4.697895820,2265,0x39,0xA8,Read,NAK
4.700736155,2267,0x38,0x00,Write,ACK
4.700840640,2267,0x38,0x22,Write,ACK
4.701076460,2268,0x39,0x0C,Read,ACK
4.701182070,2268,0x39,0x00,Read,ACK
4.701286925,2268,0x39,0x00,Read,NAK
4.704470065,2270,0x38,0x00,Write,ACK
4.704574545,2270,0x38,0x07,Write,ACK
4.704881440,2271,0x39,0x0C,Read,ACK
4.704987045,2271,0x39,0x57,Read,ACK
4.705108765,2271,0x39,0x1A,Read,NAK
4.707356240,2273,0x38,0x00,Write,ACK
4.707460725,2273,0x38,0x22,Write,ACK
4.707680680,2274,0x39,0x0C,Read,ACK
4.707786290,2274,0x39,0x00,Read,ACK
4.707891145,2274,0x39,0x00,Read,NAK
4.710561740,2276,0x38,0x00,Write,ACK
4.710752905,2276,0x38,0x07,Write,ACK
4.710972865,2277,0x39,0x0C,Read,ACK
4.711094395,2277,0x39,0x5D,Read,ACK
4.711200190,2277,0x39,0x5C,Read,NAK
4.713372225,2279,0x38,0x00,Write,ACK
4.713476705,2279,0x38,0x22,Write,ACK
4.713696665,2280,0x39,0x0C,Read,ACK
4.713802270,2280,0x39,0x00,Read,ACK
4.713907130,2280,0x39,0x00,Read,NAK
4.716732980,2282,0x38,0x00,Write,ACK
4.716837460,2282,0x38,0x07,Write,ACK
4.717073345,2283,0x39,0x0C,Read,ACK
4.717178950,2283,0x39,0x4D,Read,ACK
4.717284560,2283,0x39,0x11,Read,NAK
4.719691785,2285,0x38,0x00,Write,ACK
4.719796270,2285,0x38,0x22,Write,ACK
4.720121085,2286,0x39,0x0C,Read,ACK
4.720226695,2286,0x39,0x00,Read,ACK
4.720331550,2286,0x39,0x00,Read,NAK
4.723365990,2288,0x38,0x00,Write,ACK
4.723470475,2288,0x38,0x07,Write,ACK
4.723690430,2289,0x39,0x0C,Read,ACK
4.723796040,2289,0x39,0x75,Read,ACK
4.723901830,2289,0x39,0xE4,Read,NAK
4.726745355,2291,0x38,0x00,Write,ACK
4.726849835,2291,0x38,0x22,Write,ACK
4.727085720,2292,0x39,0x0C,Read,ACK
4.727191330,2292,0x39,0x00,Read,ACK
4.727296185,2292,0x39,0x00,Read,NAK
4.729338815,2294,0x38,0x00,Write,ACK
4.729443300,2294,0x38,0x07,Write,ACK
4.729663260,2295,0x39,0x0C,Read,ACK
4.729768865,2295,0x39,0x54,Read,ACK
4.729874285,2295,0x39,0x9F,Read,NAK
4.732854140,2297,0x38,0x00,Write,ACK
4.732958625,2297,0x38,0x22,Write,ACK
4.733194505,2298,0x39,0x0C,Read,ACK
4.733300115,2298,0x39,0x00,Read,ACK
4.733492095,2298,0x39,0x00,Read,NAK
4.733923455,2300,0x45,0xF7,Read,ACK
4.733992535,2300,0x45,0x77,Read,ACK
4.734081155,2300,0x45,0x7D,Read,ACK
4.735356485,2303,0x38,0x00,Write,ACK
4.735460970,2303,0x38,0x07,Write,ACK
4.735680925,2304,0x39,0x0C,Read,ACK
4.735786535,2304,0x39,0x94,Read,ACK
4.735891955,2304,0x39,0x9E,Read,NAK
4.738680765,2306,0x38,0x00,Write,ACK
4.738785250,2306,0x38,0x22,Write,ACK
4.739021135,2307,0x39,0x0C,Read,ACK
4.739126740,2307,0x39,0x00,Read,ACK
4.739231600,2307,0x39,0x00,Read,NAK
4.741298585,2309,0x38,0x00,Write,ACK
4.741403070,2309,0x38,0x07,Write,ACK
4.741623025,2310,0x39,0x0C,Read,ACK
4.741728635,2310,0x39,0x59,Read,ACK
4.741921240,2310,0x39,0x94,Read,NAK
4.744806665,2312,0x38,0x00,Write,ACK
4.744911150,2312,0x38,0x22,Write,ACK
4.745146970,2313,0x39,0x0C,Read,ACK
4.745339385,2313,0x39,0x00,Read,ACK
4.745444245,2313,0x39,0x00,Read,NAK
4.748898425,2315,0x38,0x00,Write,ACK
4.749018770,2315,0x38,0x07,Write,ACK
4.749238730,2316,0x39,0x0C,Read,ACK
4.749344335,2316,0x39,0x52,Read,ACK
4.749536005,2316,0x39,0xC4,Read,NAK
4.751574200,2318,0x38,0x00,Write,ACK
4.751678685,2318,0x38,0x22,Write,ACK
4.751898640,2319,0x39,0x0C,Read,ACK
4.752109045,2319,0x39,0x00,Read,ACK
4.752213900,2319,0x39,0x00,Read,NAK
4.754414790,2321,0x38,0x00,Write,ACK
4.754606265,2321,0x38,0x07,Write,ACK
4.754826225,2322,0x39,0x0C,Read,ACK
4.754931830,2322,0x39,0x5E,Read,ACK
4.755053550,2322,0x39,0x99,Read,NAK
4.758037590,2324,0x38,0x00,Write,ACK
4.758142075,2324,0x38,0x22,Write,ACK
4.758362035,2325,0x39,0x0C,Read,ACK
4.758467640,2325,0x39,0x00,Read,ACK
4.758572500,2325,0x39,0x00,Read,NAK
4.761485215,2327,0x38,0x00,Write,ACK
4.761589700,2327,0x38,0x07,Write,ACK
4.761809660,2328,0x39,0x0C,Read,ACK
4.761915265,2328,0x39,0x65,Read,ACK
4.762168195,2328,0x39,0x89,Read,NAK
4.764519470,2330,0x38,0x00,Write,ACK
4.764710825,2330,0x38,0x22,Write,ACK
4.764930780,2331,0x39,0x0C,Read,ACK
4.765052315,2331,0x39,0x00,Read,ACK
4.765157170,2331,0x39,0x00,Read,NAK
4.767335765,2333,0x38,0x00,Write,ACK
4.767440245,2333,0x38,0x07,Write,ACK
4.767660205,2334,0x39,0x0C,Read,ACK
4.767765810,2334,0x39,0x56,Read,ACK
4.767871420,2334,0x39,0x3C,Read,NAK
4.770658985,2336,0x38,0x00,Write,ACK
4.770763465,2336,0x38,0x22,Write,ACK
4.770999350,2337,0x39,0x0C,Read,ACK
4.771104955,2337,0x39,0x00,Read,ACK
4.771209815,2337,0x39,0x00,Read,NAK
4.773372980,2339,0x38,0x00,Write,ACK
4.773477460,2339,0x38,0x07,Write,ACK
4.773697420,2340,0x39,0x0C,Read,ACK
4.773803025,2340,0x39,0x55,Read,ACK
4.774014115,2340,0x39,0xAD,Read,NAK
4.776756965,2342,0x38,0x00,Write,ACK
4.776861450,2342,0x38,0x22,Write,ACK
4.777097330,2343,0x39,0x0C,Read,ACK
4.777289995,2343,0x39,0x00,Read,ACK
4.777394855,2343,0x39,0x00,Read,NAK
4.779412320,2345,0x38,0x00,Write,ACK
4.779516800,2345,0x38,0x07,Write,ACK
4.779823320,2346,0x39,0x0C,Read,ACK
4.779928925,2346,0x39,0x6F,Read,ACK
4.780052955,2346,0x39,0xCA,Read,NAK
4.783759320,2348,0x38,0x00,Write,ACK
4.783863805,2348,0x38,0x22,Write,ACK
4.784224590,2349,0x39,0x0C,Read,ACK
4.784330200,2349,0x39,0x00,Read,ACK
4.784435055,2349,0x39,0x00,Read,NAK
4.786598845,2351,0x38,0x00,Write,ACK
4.786703330,2351,0x38,0x07,Write,ACK
4.786923285,2352,0x39,0x0C,Read,ACK
4.787044820,2352,0x39,0x5C,Read,ACK
4.787150425,2352,0x39,0xAD,Read,NAK
4.789293485,2354,0x38,0x00,Write,ACK
4.789397965,2354,0x38,0x22,Write,ACK
4.789617925,2355,0x39,0x0C,Read,ACK
4.789723530,2355,0x39,0x00,Read,ACK
4.789914885,2355,0x39,0x00,Read,NAK
4.794161215,2357,0x38,0x00,Write,ACK
4.794265695,2357,0x38,0x07,Write,ACK
4.794485655,2358,0x39,0x0C,Read,ACK
4.794591260,2358,0x39,0x57,Read,ACK
4.794697055,2358,0x39,0x79,Read,NAK
4.797767470,2360,0x38,0x00,Write,ACK
4.797871950,2360,0x38,0x22,Write,ACK
4.798110830,2361,0x39,0x0C,Read,ACK
4.798216440,2361,0x39,0x00,Read,ACK
4.798407730,2361,0x39,0x00,Read,NAK
4.801260185,2363,0x38,0x00,Write,ACK
4.801364665,2363,0x38,0x07,Write,ACK
4.801584625,2364,0x39,0x0C,Read,ACK
4.801777165,2364,0x39,0x5B,Read,ACK
4.801882960,2364,0x39,0x21,Read,NAK
4.807073445,2366,0x38,0x00,Write,ACK
4.807177930,2366,0x38,0x22,Write,ACK
4.807397885,2367,0x39,0x0C,Read,ACK
4.807590300,2367,0x39,0x00,Read,ACK
4.807695160,2367,0x39,0x00,Read,NAK
4.810547115,2369,0x38,0x00,Write,ACK
4.810651595,2369,0x38,0x07,Write,ACK
4.810974290,2370,0x39,0x0C,Read,ACK
4.811079895,2370,0x39,0x69,Read,ACK
4.811185505,2370,0x39,0xCF,Read,NAK
4.813261610,2372,0x38,0x00,Write,ACK
4.813366090,2372,0x38,0x22,Write,ACK
4.813672920,2373,0x39,0x0C,Read,ACK
4.813778530,2373,0x39,0x00,Read,ACK
4.813883385,2373,0x39,0x00,Read,NAK
4.816622490,2375,0x38,0x00,Write,ACK
4.816726970,2375,0x38,0x07,Write,ACK
4.817050040,2376,0x39,0x0C,Read,ACK
4.817155645,2376,0x39,0x6B,Read,ACK
4.817261440,2376,0x39,0x6C,Read,NAK
4.819414300,2378,0x38,0x00,Write,ACK
4.819518785,2378,0x38,0x22,Write,ACK
4.819738740,2379,0x39,0x0C,Read,ACK
4.819844350,2379,0x39,0x00,Read,ACK
4.819967255,2379,0x39,0x00,Read,NAK
4.822897960,2381,0x38,0x00,Write,ACK
4.823018370,2381,0x38,0x07,Write,ACK
4.823238325,2382,0x39,0x0C,Read,ACK
4.823343935,2382,0x39,0x5F,Read,ACK
4.823449915,2382,0x39,0xB6,Read,NAK
4.825503850,2384,0x38,0x00,Write,ACK
4.825608335,2384,0x38,0x22,Write,ACK
4.825828290,2385,0x39,0x0C,Read,ACK
4.825952885,2385,0x39,0x00,Read,ACK
4.826144240,2385,0x39,0x00,Read,NAK
4.828243390,2387,0x38,0x00,Write,ACK
4.828347875,2387,0x38,0x07,Write,ACK
4.828654515,2388,0x39,0x0C,Read,ACK
4.828760120,2388,0x39,0x58,Read,ACK
4.828865540,2388,0x39,0x18,Read,NAK
4.831562990,2390,0x38,0x00,Write,ACK
4.831667470,2390,0x38,0x22,Write,ACK
4.831887430,2391,0x39,0x0C,Read,ACK
4.832096645,2391,0x39,0x00,Read,ACK
4.832201500,2391,0x39,0x00,Read,NAK
4.834346120,2393,0x38,0x00,Write,ACK
4.834450600,2393,0x38,0x07,Write,ACK
4.834756995,2394,0x39,0x0C,Read,ACK
4.834862600,2394,0x39,0x62,Read,ACK
4.834983885,2394,0x39,0x80,Read,NAK
4.837819910,2396,0x38,0x00,Write,ACK
4.838030065,2396,0x38,0x22,Write,ACK
4.838250020,2397,0x39,0x0C,Read,ACK
4.838355630,2397,0x39,0x00,Read,ACK
4.838460485,2397,0x39,0x00,Read,NAK
4.841360280,2399,0x38,0x00,Write,ACK
4.841464760,2399,0x38,0x07,Write,ACK
4.841684720,2400,0x39,0x0C,Read,ACK
4.841790325,2400,0x39,0x5B,Read,ACK
4.841896120,2400,0x39,0x50,Read,NAK
4.844216605,2402,0x38,0x00,Write,ACK
4.844321085,2402,0x38,0x22,Write,ACK
4.844541045,2403,0x39,0x0C,Read,ACK
4.844733525,2403,0x39,0x00,Read,ACK
4.844838380,2403,0x39,0x00,Read,NAK
4.847519775,2405,0x38,0x00,Write,ACK
4.847624260,2405,0x38,0x07,Write,ACK
4.847844220,2406,0x39,0x0C,Read,ACK
4.848054805,2406,0x39,0x79,Read,ACK
4.848160600,2406,0x39,0xDB,Read,NAK
4.850398460,2408,0x38,0x00,Write,ACK
4.850589815,2408,0x38,0x22,Write,ACK
4.850809770,2409,0x39,0x0C,Read,ACK
4.850931305,2409,0x39,0x00,Read,ACK
4.851036160,2409,0x39,0x00,Read,NAK
4.853234300,2411,0x38,0x00,Write,ACK
4.853338785,2411,0x38,0x07,Write,ACK
4.853558740,2412,0x39,0x0C,Read,ACK
4.853664350,2412,0x39,0x62,Read,ACK
4.853769770,2412,0x39,0x5A,Read,NAK
4.856594930,2414,0x38,0x00,Write,ACK
4.856699415,2414,0x38,0x22,Write,ACK
4.856935295,2415,0x39,0x0C,Read,ACK
4.857040905,2415,0x39,0x00,Read,ACK
4.857145760,2415,0x39,0x00,Read,NAK
4.859253155,2417,0x38,0x00,Write,ACK
4.859357640,2417,0x38,0x07,Write,ACK
4.859577595,2418,0x39,0x0C,Read,ACK
4.859683205,2418,0x39,0x6A,Read,ACK
4.859875185,2418,0x39,0x6E,Read,NAK
4.862751990,2420,0x38,0x00,Write,ACK
4.862856475,2420,0x38,0x22,Write,ACK
4.863092295,2421,0x39,0x0C,Read,ACK
4.863284400,2421,0x39,0x00,Read,ACK
4.863389255,2421,0x39,0x00,Read,NAK
4.865365130,2423,0x38,0x00,Write,ACK
4.865469610,2423,0x38,0x07,Write,ACK
4.865776065,2424,0x39,0x0C,Read,ACK
4.865881670,2424,0x39,0x6E,Read,ACK
4.866006390,2424,0x39,0x35,Read,NAK
4.868291400,2426,0x38,0x00,Write,ACK
4.868395885,2426,0x38,0x22,Write,ACK
4.868615840,2427,0x39,0x0C,Read,ACK
4.868721450,2427,0x39,0x00,Read,ACK
4.868826305,2427,0x39,0x00,Read,NAK
4.871386855,2429,0x38,0x00,Write,ACK
4.871491340,2429,0x38,0x07,Write,ACK
4.871833890,2430,0x39,0x0C,Read,ACK
4.871957545,2430,0x39,0x64,Read,ACK
4.872062965,2430,0x39,0x0C,Read,NAK
4.874595790,2432,0x38,0x00,Write,ACK
4.874700270,2432,0x38,0x22,Write,ACK
4.875022900,2433,0x39,0x0C,Read,ACK
4.875128505,2433,0x39,0x00,Read,ACK
4.875233365,2433,0x39,0x00,Read,NAK
4.877928750,2435,0x38,0x00,Write,ACK
4.878033235,2435,0x38,0x07,Write,ACK
4.878253190,2436,0x39,0x0C,Read,ACK
4.878445545,2436,0x39,0x6F,Read,ACK
4.878551525,2436,0x39,0x43,Read,NAK
4.880659420,2438,0x38,0x00,Write,ACK
4.880763905,2438,0x38,0x22,Write,ACK
4.881086660,2439,0x39,0x0C,Read,ACK
4.881192265,2439,0x39,0x00,Read,ACK
4.881297125,2439,0x39,0x00,Read,NAK
4.883533045,2441,0x38,0x00,Write,ACK
4.883637530,2441,0x38,0x07,Write,ACK
4.883857485,2442,0x39,0x0C,Read,ACK
4.883981140,2442,0x39,0x57,Read,ACK
4.884086935,2442,0x39,0x59,Read,NAK
4.886302625,2444,0x38,0x00,Write,ACK
4.886407110,2444,0x38,0x22,Write,ACK
4.886627065,2445,0x39,0x0C,Read,ACK
4.886819545,2445,0x39,0x00,Read,ACK
4.886940325,2445,0x39,0x00,Read,NAK
4.890349045,2447,0x38,0x00,Write,ACK
4.890453525,2447,0x38,0x07,Write,ACK
4.890673485,2448,0x39,0x0C,Read,ACK
4.890779090,2448,0x39,0x65,Read,ACK
4.890986435,2448,0x39,0xF8,Read,NAK
4.893121495,2450,0x38,0x00,Write,ACK
4.893225980,2450,0x38,0x22,Write,ACK
4.893570090,2451,0x39,0x0C,Read,ACK
4.893675700,2451,0x39,0x00,Read,ACK
4.893780555,2451,0x39,0x00,Read,NAK
4.897212695,2453,0x38,0x00,Write,ACK
4.897317175,2453,0x38,0x07,Write,ACK
4.897537135,2454,0x39,0x0C,Read,ACK
4.897729115,2454,0x39,0x65,Read,ACK
4.897834720,2454,0x39,0x99,Read,NAK
4.900613855,2456,0x38,0x00,Write,ACK
4.900718335,2456,0x38,0x22,Write,ACK
4.900954160,2457,0x39,0x0C,Read,ACK
4.901146635,2457,0x39,0x00,Read,ACK
4.901251495,2457,0x39,0x00,Read,NAK
4.903408790,2459,0x38,0x00,Write,ACK
4.903513270,2459,0x38,0x07,Write,ACK
4.903819725,2460,0x39,0x0C,Read,ACK
4.903943380,2460,0x39,0x72,Read,ACK
4.904048990,2460,0x39,0x5D,Read,NAK
4.907484250,2462,0x38,0x00,Write,ACK
4.907588730,2462,0x38,0x22,Write,ACK
4.907913235,2463,0x39,0x0C,Read,ACK
4.908018840,2463,0x39,0x00,Read,ACK
4.908123700,2463,0x39,0x00,Read,NAK
4.910239650,2465,0x38,0x00,Write,ACK
4.910430940,2465,0x38,0x07,Write,ACK
4.910650900,2466,0x39,0x0C,Read,ACK
4.910756505,2466,0x39,0x57,Read,ACK
4.910878225,2466,0x39,0xF8,Read,NAK
4.913382445,2468,0x38,0x00,Write,ACK
4.913486930,2468,0x38,0x22,Write,ACK
4.913793505,2469,0x39,0x0C,Read,ACK
4.913918100,2469,0x39,0x00,Read,ACK
4.914022960,2469,0x39,0x00,Read,NAK
4.918149315,2471,0x38,0x00,Write,ACK
4.918253800,2471,0x38,0x07,Write,ACK
4.918473755,2472,0x39,0x0C,Read,ACK
4.918579365,2472,0x39,0x52,Read,ACK
4.918684785,2472,0x39,0xF3,Read,NAK
4.921535175,2474,0x38,0x00,Write,ACK
4.921639660,2474,0x38,0x22,Write,ACK
4.921878540,2475,0x39,0x0C,Read,ACK
4.921984145,2475,0x39,0x00,Read,ACK
4.922176000,2475,0x39,0x00,Read,NAK
4.925318735,2477,0x38,0x00,Write,ACK
4.925423215,2477,0x38,0x07,Write,ACK
4.925730105,2478,0x39,0x0C,Read,ACK
4.925835715,2478,0x39,0x9B,Read,ACK
4.925960495,2478,0x39,0x36,Read,NAK
4.931829340,2480,0x38,0x00,Write,ACK
4.931951870,2480,0x38,0x22,Write,ACK
4.932258385,2481,0x39,0x0C,Read,ACK
4.932363995,2481,0x39,0x00,Read,ACK
4.932468850,2481,0x39,0x00,Read,NAK
4.934801700,2483,0x38,0x00,Write,ACK
4.934922045,2483,0x38,0x07,Write,ACK
4.935142005,2484,0x39,0x0C,Read,ACK
4.935247610,2484,0x39,0x73,Read,ACK
4.935353405,2484,0x39,0xD9,Read,NAK
4.937450995,2486,0x38,0x00,Write,ACK
4.937555480,2486,0x38,0x22,Write,ACK
4.937775435,2487,0x39,0x0C,Read,ACK
4.937900030,2487,0x39,0x00,Read,ACK
4.938004885,2487,0x39,0x00,Read,NAK
4.940989740,2489,0x38,0x00,Write,ACK
4.941094220,2489,0x38,0x07,Write,ACK
4.941314180,2490,0x39,0x0C,Read,ACK
4.941419785,2490,0x39,0x6E,Read,ACK
4.941612330,2490,0x39,0xE4,Read,NAK
4.944505875,2492,0x38,0x00,Write,ACK
4.944610360,2492,0x38,0x22,Write,ACK
4.944933175,2493,0x39,0x0C,Read,ACK
4.945038780,2493,0x39,0x00,Read,ACK
4.945143640,2493,0x39,0x00,Read,NAK
4.947877935,2495,0x38,0x00,Write,ACK
4.947982415,2495,0x38,0x07,Write,ACK
4.948289305,2496,0x39,0x0C,Read,ACK
4.948394915,2496,0x39,0x73,Read,ACK
4.948500710,2496,0x39,0x0A,Read,NAK
4.950595050,2498,0x38,0x00,Write,ACK
4.950786095,2498,0x38,0x22,Write,ACK
4.951021975,2499,0x39,0x0C,Read,ACK
4.951127585,2499,0x39,0x00,Read,ACK
4.951232440,2499,0x39,0x00,Read,NAK
4.953389735,2501,0x38,0x00,Write,ACK
4.953494220,2501,0x38,0x07,Write,ACK
4.953714175,2502,0x39,0x0C,Read,ACK
4.953819785,2502,0x39,0x8A,Read,ACK
4.953944190,2502,0x39,0x55,Read,NAK
4.957280210,2504,0x38,0x00,Write,ACK
4.957384695,2504,0x38,0x22,Write,ACK
4.957691400,2505,0x39,0x0C,Read,ACK
4.957797005,2505,0x39,0x00,Read,ACK
4.957920785,2505,0x39,0x00,Read,NAK
4.961497750,2507,0x38,0x00,Write,ACK
4.961602235,2507,0x38,0x07,Write,ACK
4.961928175,2508,0x39,0x0C,Read,ACK
4.962033780,2508,0x39,0x7D,Read,ACK
4.962139760,2508,0x39,0xB2,Read,NAK
4.965670385,2510,0x38,0x00,Write,ACK
4.965774870,2510,0x38,0x22,Write,ACK
4.966100560,2511,0x39,0x0C,Read,ACK
4.966206165,2511,0x39,0x00,Read,ACK
4.966311025,2511,0x39,0x00,Read,NAK
4.968507600,2513,0x38,0x00,Write,ACK
4.968612085,2513,0x38,0x07,Write,ACK
4.968847965,2514,0x39,0x0C,Read,ACK
4.968953575,2514,0x39,0x4F,Read,ACK
4.969059370,2514,0x39,0xCA,Read,NAK
4.971194305,2516,0x38,0x00,Write,ACK
4.971298790,2516,0x38,0x22,Write,ACK
4.971518745,2517,0x39,0x0C,Read,ACK
4.971624355,2517,0x39,0x00,Read,ACK
4.971729210,2517,0x39,0x00,Read,NAK
4.975342400,2519,0x38,0x00,Write,ACK
4.975446880,2519,0x38,0x07,Write,ACK
4.975666840,2520,0x39,0x0C,Read,ACK
4.975772445,2520,0x39,0x64,Read,ACK
4.975895915,2520,0x39,0xFA,Read,NAK
4.979303880,2522,0x38,0x00,Write,ACK
4.979495235,2522,0x38,0x22,Write,ACK
4.979715195,2523,0x39,0x0C,Read,ACK
4.979838785,2523,0x39,0x00,Read,ACK
4.979943645,2523,0x39,0x00,Read,NAK
4.982393090,2525,0x38,0x00,Write,ACK
4.982497575,2525,0x38,0x07,Write,ACK
4.982804340,2526,0x39,0x0C,Read,ACK
4.982925875,2526,0x39,0x8A,Read,ACK
4.983031295,2526,0x39,0xF4,Read,NAK
4.985550565,2528,0x38,0x00,Write,ACK
4.985655045,2528,0x38,0x22,Write,ACK
4.985893990,2529,0x39,0x0C,Read,ACK
4.985999595,2529,0x39,0x00,Read,ACK
4.986191450,2529,0x39,0x00,Read,NAK
4.989581305,2531,0x38,0x00,Write,ACK
4.989685790,2531,0x38,0x07,Write,ACK
4.989924735,2532,0x39,0x0C,Read,ACK
4.990030340,2532,0x39,0x55,Read,ACK
4.990135950,2532,0x39,0x5E,Read,NAK
4.992487780,2534,0x38,0x00,Write,ACK
4.992592265,2534,0x38,0x22,Write,ACK
4.992913710,2535,0x39,0x0C,Read,ACK
4.993019315,2535,0x39,0x00,Read,ACK
4.993124175,2535,0x39,0x00,Read,NAK
4.995151815,2537,0x38,0x00,Write,ACK
4.995256300,2537,0x38,0x07,Write,ACK
4.995562755,2538,0x39,0x0C,Read,ACK
4.995668360,2538,0x39,0x48,Read,ACK
4.995773595,2538,0x39,0xFA,Read,NAK
4.999415320,2540,0x38,0x00,Write,ACK
4.999519805,2540,0x38,0x22,Write,ACK
4.999844430,2541,0x39,0x0C,Read,ACK
4.999950040,2541,0x39,0x00,Read,ACK
5.000054895,2541,0x39,0x00,Read,NAK
5.003197255,2543,0x38,0x00,Write,ACK
5.003301735,2543,0x38,0x07,Write,ACK
5.003521695,2544,0x39,0x0C,Read,ACK
5.003627300,2544,0x39,0x50,Read,ACK
5.003732535,2544,0x39,0xB8,Read,NAK
5.008433390,2546,0x38,0x00,Write,ACK
5.008537875,2546,0x38,0x22,Write,ACK
5.008757835,2547,0x39,0x0C,Read,ACK
5.008965925,2547,0x39,0x00,Read,ACK
5.009070780,2547,0x39,0x00,Read,NAK
5.011150325,2549,0x38,0x00,Write,ACK
5.011254805,2549,0x38,0x07,Write,ACK
5.011561575,2550,0x39,0x0C,Read,ACK
5.011667180,2550,0x39,0x60,Read,ACK
5.011772415,2550,0x39,0xA4,Read,NAK
5.014653845,2552,0x38,0x00,Write,ACK
5.014860750,2552,0x38,0x22,Write,ACK
5.015080705,2553,0x39,0x0C,Read,ACK
5.015186315,2553,0x39,0x00,Read,ACK
5.015291170,2553,0x39,0x00,Read,NAK
5.018673595,2555,0x38,0x00,Write,ACK
5.018778080,2555,0x38,0x07,Write,ACK
5.019100520,2556,0x39,0x0C,Read,ACK
5.019206130,2556,0x39,0x37,Read,ACK
5.019311925,2556,0x39,0xF1,Read,NAK
5.021308280,2558,0x38,0x00,Write,ACK
5.021412760,2558,0x38,0x22,Write,ACK
5.021719840,2559,0x39,0x0C,Read,ACK
5.021844430,2559,0x39,0x00,Read,ACK
5.021949290,2559,0x39,0x00,Read,NAK
5.024213130,2561,0x38,0x00,Write,ACK
5.024317610,2561,0x38,0x07,Write,ACK
5.024537570,2562,0x39,0x0C,Read,ACK
5.024643175,2562,0x39,0x48,Read,ACK
5.024748410,2562,0x39,0x5B,Read,NAK
5.028351230,2564,0x38,0x00,Write,ACK
5.028455710,2564,0x38,0x22,Write,ACK
5.028675670,2565,0x39,0x0C,Read,ACK
5.028797200,2565,0x39,0x00,Read,ACK
5.028902060,2565,0x39,0x00,Read,NAK
5.031049110,2567,0x38,0x00,Write,ACK
5.031153595,2567,0x38,0x07,Write,ACK
5.031373550,2568,0x39,0x0C,Read,ACK
5.031479160,2568,0x39,0x48,Read,ACK
5.031671140,2568,0x39,0x1C,Read,NAK
5.034470695,2570,0x38,0x00,Write,ACK
5.034575175,2570,0x38,0x22,Write,ACK
5.034811000,2571,0x39,0x0C,Read,ACK
5.034916605,2571,0x39,0x00,Read,ACK
5.035107895,2571,0x39,0x00,Read,NAK
5.038287725,2573,0x38,0x00,Write,ACK
5.038478895,2573,0x38,0x07,Write,ACK
5.038698850,2574,0x39,0x0C,Read,ACK
5.038820385,2574,0x39,0x5F,Read,ACK
5.038926365,2574,0x39,0x28,Read,NAK
5.041333095,2576,0x38,0x00,Write,ACK
5.041437580,2576,0x38,0x22,Write,ACK
5.041657535,2577,0x39,0x0C,Read,ACK
5.041869250,2577,0x39,0x00,Read,ACK
5.041974105,2577,0x39,0x00,Read,NAK
5.044842860,2579,0x38,0x00,Write,ACK
5.044947345,2579,0x38,0x07,Write,ACK
5.045254420,2580,0x39,0x0C,Read,ACK
5.045360030,2580,0x39,0x3F,Read,ACK
5.045466010,2580,0x39,0x70,Read,NAK
5.048901645,2582,0x38,0x00,Write,ACK
5.049006130,2582,0x38,0x22,Write,ACK
5.049226085,2583,0x39,0x0C,Read,ACK
5.049418690,2583,0x39,0x00,Read,ACK
5.049523545,2583,0x39,0x00,Read,NAK
5.052331410,2585,0x38,0x00,Write,ACK
5.052435890,2585,0x38,0x07,Write,ACK
5.052742220,2586,0x39,0x0C,Read,ACK
5.052863690,2586,0x39,0x53,Read,ACK
5.052969300,2586,0x39,0x0E,Read,NAK
5.055023545,2588,0x38,0x00,Write,ACK
5.055128030,2588,0x38,0x22,Write,ACK
5.055434920,2589,0x39,0x0C,Read,ACK
5.055540530,2589,0x39,0x00,Read,ACK
5.055645385,2589,0x39,0x00,Read,NAK
5.059031685,2591,0x38,0x00,Write,ACK
5.059136165,2591,0x38,0x07,Write,ACK
5.059356125,2592,0x39,0x0C,Read,ACK
5.059547980,2592,0x39,0x3B,Read,ACK
5.059653770,2592,0x39,0xF7,Read,NAK
5.062481555,2594,0x38,0x00,Write,ACK
5.062586040,2594,0x38,0x22,Write,ACK
5.062908730,2595,0x39,0x0C,Read,ACK
5.063014340,2595,0x39,0x00,Read,ACK
5.063119195,2595,0x39,0x00,Read,NAK
5.065025680,2597,0x38,0x00,Write,ACK
5.065130165,2597,0x38,0x07,Write,ACK
5.065437055,2598,0x39,0x0C,Read,ACK
5.065542665,2598,0x39,0x60,Read,ACK
5.065647895,2598,0x39,0x25,Read,NAK
5.069128495,2600,0x38,0x00,Write,ACK
5.069232980,2600,0x38,0x22,Write,ACK
5.069452935,2601,0x39,0x0C,Read,ACK
5.069645165,2601,0x39,0x00,Read,ACK
5.069769010,2601,0x39,0x00,Read,NAK
5.072653435,2603,0x38,0x00,Write,ACK
5.072773845,2603,0x38,0x07,Write,ACK
5.073080240,2604,0x39,0x0C,Read,ACK
5.073185845,2604,0x39,0x73,Read,ACK
5.073291640,2604,0x39,0x0A,Read,NAK
5.075333710,2606,0x38,0x00,Write,ACK
5.075525190,2606,0x38,0x22,Write,ACK
5.075763195,2607,0x39,0x0C,Read,ACK
5.075868800,2607,0x39,0x00,Read,ACK
5.075973660,2607,0x39,0x00,Read,NAK
5.079378755,2609,0x38,0x00,Write,ACK
5.079483240,2609,0x38,0x07,Write,ACK
5.079807930,2610,0x39,0x0C,Read,ACK
5.079913535,2610,0x39,0x4C,Read,ACK
5.080018955,2610,0x39,0xB1,Read,NAK
5.082557835,2612,0x38,0x00,Write,ACK
5.082662315,2612,0x38,0x22,Write,ACK
5.082898200,2613,0x39,0x0C,Read,ACK
5.083090430,2613,0x39,0x00,Read,ACK
5.083195285,2613,0x39,0x00,Read,NAK
5.085884990,2615,0x38,0x00,Write,ACK
5.085989470,2615,0x38,0x07,Write,ACK
5.086209430,2616,0x39,0x0C,Read,ACK
5.086401785,2616,0x39,0x64,Read,ACK
5.086507205,2616,0x39,0xCB,Read,NAK
5.089992610,2618,0x38,0x00,Write,ACK
5.090097095,2618,0x38,0x22,Write,ACK
5.090317050,2619,0x39,0x0C,Read,ACK
5.090422660,2619,0x39,0x00,Read,ACK
5.090650175,2619,0x39,0x00,Read,NAK
5.092974590,2621,0x38,0x00,Write,ACK
5.093165510,2621,0x38,0x07,Write,ACK
5.093385465,2622,0x39,0x0C,Read,ACK
5.093491075,2622,0x39,0x2E,Read,ACK
5.093596680,2622,0x39,0x17,Read,NAK
5.096686705,2624,0x38,0x00,Write,ACK
5.096807110,2624,0x38,0x22,Write,ACK
5.097027070,2625,0x39,0x0C,Read,ACK
5.097132675,2625,0x39,0x00,Read,ACK
5.097237535,2625,0x39,0x00,Read,NAK
5.100884445,2627,0x38,0x00,Write,ACK
5.100988930,2627,0x38,0x07,Write,ACK
5.101208885,2628,0x39,0x0C,Read,ACK
5.101314490,2628,0x39,0x48,Read,ACK
5.101419725,2628,0x39,0x4B,Read,NAK
5.105055455,2630,0x38,0x00,Write,ACK
5.105159940,2630,0x38,0x22,Write,ACK
5.105379895,2631,0x39,0x0C,Read,ACK
5.105485505,2631,0x39,0x00,Read,ACK
5.105590360,2631,0x39,0x00,Read,NAK
5.109147340,2633,0x38,0x00,Write,ACK
5.109251825,2633,0x38,0x07,Write,ACK
5.109471780,2634,0x39,0x0C,Read,ACK
5.109577390,2634,0x39,0x67,Read,ACK
5.109683185,2634,0x39,0x94,Read,NAK
5.112133070,2636,0x38,0x00,Write,ACK
5.112237550,2636,0x38,0x22,Write,ACK
5.112585600,2637,0x39,0x0C,Read,ACK
5.112691205,2637,0x39,0x00,Read,ACK
5.112811925,2637,0x39,0x00,Read,NAK
5.115629345,2639,0x38,0x00,Write,ACK
5.115751875,2639,0x38,0x07,Write,ACK
5.116058890,2640,0x39,0x0C,Read,ACK
5.116164500,2640,0x39,0x6A,Read,ACK
5.116270105,2640,0x39,0xBD,Read,NAK
5.119725915,2642,0x38,0x00,Write,ACK
5.119830395,2642,0x38,0x22,Write,ACK
5.120137160,2643,0x39,0x0C,Read,ACK
5.120242770,2643,0x39,0x00,Read,ACK
5.120347625,2643,0x39,0x00,Read,NAK
5.122661680,2645,0x38,0x00,Write,ACK
5.122782085,2645,0x38,0x07,Write,ACK
5.123002045,2646,0x39,0x0C,Read,ACK
5.123107650,2646,0x39,0xC5,Read,ACK
5.123213260,2646,0x39,0x7F,Read,NAK
5.125516880,2648,0x38,0x00,Write,ACK
5.125621360,2648,0x38,0x22,Write,ACK
5.125860245,2649,0x39,0x0C,Read,ACK
5.126052595,2649,0x39,0x00,Read,ACK
5.126157455,2649,0x39,0x00,Read,NAK
5.130323220,2651,0x38,0x00,Write,ACK
5.130427705,2651,0x38,0x07,Write,ACK
5.130647660,2652,0x39,0x0C,Read,ACK
5.130769195,2652,0x39,0x83,Read,ACK
5.130874615,2652,0x39,0xD4,Read,NAK
5.133175860,2654,0x38,0x00,Write,ACK
5.133280345,2654,0x38,0x22,Write,ACK
5.133586860,2655,0x39,0x0C,Read,ACK
5.133711455,2655,0x39,0x00,Read,ACK
5.133816310,2655,0x39,0x00,Read,NAK
5.135994465,2657,0x38,0x00,Write,ACK
5.136185570,2657,0x38,0x07,Write,ACK
5.136405525,2658,0x39,0x0C,Read,ACK
5.136511135,2658,0x39,0x7C,Read,ACK
5.136616930,2658,0x39,0x45,Read,NAK
5.139229250,2660,0x38,0x00,Write,ACK
5.139333735,2660,0x38,0x22,Write,ACK
5.139640000,2661,0x39,0x0C,Read,ACK
5.139763660,2661,0x39,0x00,Read,ACK
5.139868515,2661,0x39,0x00,Read,NAK
5.142846000,2663,0x38,0x00,Write,ACK
5.142950480,2663,0x38,0x07,Write,ACK
5.143170440,2664,0x39,0x0C,Read,ACK
5.143276045,2664,0x39,0x7C,Read,ACK
5.143381840,2664,0x39,0xB4,Read,NAK
5.146226050,2666,0x38,0x00,Write,ACK
5.146330535,2666,0x38,0x22,Write,ACK
5.146550490,2667,0x39,0x0C,Read,ACK
5.146656100,2667,0x39,0x00,Read,ACK
5.146776880,2667,0x39,0x00,Read,NAK
5.149367220,2669,0x38,0x00,Write,ACK
5.149471705,2669,0x38,0x07,Write,ACK
5.149797080,2670,0x39,0x0C,Read,ACK
5.149902690,2670,0x39,0x78,Read,ACK
5.150008295,2670,0x39,0x2C,Read,NAK
5.152296740,2672,0x38,0x00,Write,ACK
5.152401225,2672,0x38,0x22,Write,ACK
5.152621180,2673,0x39,0x0C,Read,ACK
5.152742650,2673,0x39,0x00,Read,ACK
5.152847510,2673,0x39,0x00,Read,NAK
5.154955840,2675,0x38,0x00,Write,ACK
5.155060325,2675,0x38,0x07,Write,ACK
5.155280285,2676,0x39,0x0C,Read,ACK
5.155472635,2676,0x39,0x90,Read,ACK
5.155577870,2676,0x39,0x48,Read,NAK
5.158450680,2678,0x38,0x00,Write,ACK
5.158555165,2678,0x38,0x22,Write,ACK
5.158877855,2679,0x39,0x0C,Read,ACK
5.158983465,2679,0x39,0x00,Read,ACK
5.159088320,2679,0x39,0x00,Read,NAK
5.161035215,2681,0x38,0x00,Write,ACK
5.161139695,2681,0x38,0x07,Write,ACK
5.161446465,2682,0x39,0x0C,Read,ACK
5.161552070,2682,0x39,0xA0,Read,ACK
5.161657305,2682,0x39,0xE2,Read,NAK
5.164284055,2684,0x38,0x00,Write,ACK
5.164388535,2684,0x38,0x22,Write,ACK
5.164608495,2685,0x39,0x0C,Read,ACK
5.164816835,2685,0x39,0x00,Read,ACK
5.164921695,2685,0x39,0x00,Read,NAK
5.167647865,2687,0x38,0x00,Write,ACK
5.167770400,2687,0x38,0x07,Write,ACK
5.167990355,2688,0x39,0x0C,Read,ACK
5.168183085,2688,0x39,0x66,Read,ACK
5.168288690,2688,0x39,0x18,Read,NAK
5.171050340,2690,0x38,0x00,Write,ACK
5.171154820,2690,0x38,0x22,Write,ACK
5.171374780,2691,0x39,0x0C,Read,ACK
5.171567260,2691,0x39,0x00,Read,ACK
5.171690165,2691,0x39,0x00,Read,NAK
5.174552110,2693,0x38,0x00,Write,ACK
5.174656595,2693,0x38,0x07,Write,ACK
5.174979035,2694,0x39,0x0C,Read,ACK
5.175084645,2694,0x39,0x42,Read,ACK
5.175189875,2694,0x39,0x88,Read,NAK
5.177154315,2696,0x38,0x00,Write,ACK
5.177258800,2696,0x38,0x22,Write,ACK
5.177565565,2697,0x39,0x0C,Read,ACK
5.177690095,2697,0x39,0x00,Read,ACK
5.177794955,2697,0x39,0x00,Read,NAK
5.180047175,2699,0x38,0x00,Write,ACK
5.180151660,2699,0x38,0x07,Write,ACK
5.180371620,2700,0x39,0x0C,Read,ACK
5.180477225,2700,0x39,0x99,Read,ACK
5.180582830,2700,0x39,0x73,Read,NAK
5.182898945,2702,0x38,0x00,Write,ACK
5.183003425,2702,0x38,0x22,Write,ACK
5.183309755,2703,0x39,0x0C,Read,ACK
5.183415365,2703,0x39,0x00,Read,ACK
5.183520220,2703,0x39,0x00,Read,NAK
5.186135915,2705,0x38,0x00,Write,ACK
5.186240400,2705,0x38,0x07,Write,ACK
5.186460360,2706,0x39,0x0C,Read,ACK
5.186668635,2706,0x39,0x83,Read,ACK
5.186774055,2706,0x39,0xD4,Read,NAK
5.189410550,2708,0x38,0x00,Write,ACK
5.189515030,2708,0x38,0x22,Write,ACK
5.189753975,2709,0x39,0x0C,Read,ACK
5.189859580,2709,0x39,0x00,Read,ACK
5.190051185,2709,0x39,0x00,Read,NAK
5.192247200,2711,0x38,0x00,Write,ACK
5.192351685,2711,0x38,0x07,Write,ACK
5.192674625,2712,0x39,0x0C,Read,ACK
5.192780235,2712,0x39,0x61,Read,ACK
5.192885655,2712,0x39,0xD1,Read,NAK
5.196797985,2714,0x38,0x00,Write,ACK
5.196902470,2714,0x38,0x22,Write,ACK
5.197122430,2715,0x39,0x0C,Read,ACK
5.197228035,2715,0x39,0x00,Read,ACK
5.197332895,2715,0x39,0x00,Read,NAK
5.200239615,2717,0x38,0x00,Write,ACK
5.200344100,2717,0x38,0x07,Write,ACK
5.200564060,2718,0x39,0x0C,Read,ACK
5.200685590,2718,0x39,0x56,Read,ACK
5.200791200,2718,0x39,0x1C,Read,NAK
5.203328830,2720,0x38,0x00,Write,ACK
5.203519870,2720,0x38,0x22,Write,ACK
5.203757875,2721,0x39,0x0C,Read,ACK
5.203863485,2721,0x39,0x00,Read,ACK
5.203968340,2721,0x39,0x00,Read,NAK
5.206910540,2723,0x38,0x00,Write,ACK
5.207015020,2723,0x38,0x07,Write,ACK
5.207234980,2724,0x39,0x0C,Read,ACK
5.207340585,2724,0x39,0x73,Read,ACK
5.207446380,2724,0x39,0x3A,Read,NAK
5.210287405,2726,0x38,0x00,Write,ACK
5.210391890,2726,0x38,0x22,Write,ACK
5.210611845,2727,0x39,0x0C,Read,ACK
5.210733380,2727,0x39,0x00,Read,ACK
5.210838235,2727,0x39,0x00,Read,NAK
5.213693250,2729,0x38,0x00,Write,ACK
5.213797735,2729,0x38,0x07,Write,ACK
5.214017690,2730,0x39,0x0C,Read,ACK
5.214123300,2730,0x39,0xD9,Read,ACK
5.214229090,2730,0x39,0x23,Read,NAK
5.217077550,2732,0x38,0x00,Write,ACK
5.217182030,2732,0x38,0x22,Write,ACK
5.217401990,2733,0x39,0x0C,Read,ACK
5.217507595,2733,0x39,0x00,Read,ACK
5.217612455,2733,0x39,0x00,Read,NAK
5.220854175,2735,0x38,0x00,Write,ACK
5.220958655,2735,0x38,0x07,Write,ACK
5.221265300,2736,0x39,0x0C,Read,ACK
5.221370905,2736,0x39,0x72,Read,ACK
5.221476510,2736,0x39,0xEB,Read,NAK
5.225155400,2738,0x38,0x00,Write,ACK
5.225259880,2738,0x38,0x22,Write,ACK
5.225566650,2739,0x39,0x0C,Read,ACK
5.225691240,2739,0x39,0x00,Read,ACK
5.225796100,2739,0x39,0x00,Read,NAK
5.229207125,2741,0x38,0x00,Write,ACK
5.229311610,2741,0x38,0x07,Write,ACK
5.229618565,2742,0x39,0x0C,Read,ACK
5.229743095,2742,0x39,0x77,Read,ACK
5.229849075,2742,0x39,0x01,Read,NAK
5.232158445,2744,0x38,0x00,Write,ACK
5.232262925,2744,0x38,0x22,Write,ACK
5.232482885,2745,0x39,0x0C,Read,ACK
5.232588490,2745,0x39,0x00,Read,ACK
5.232709275,2745,0x39,0x00,Read,NAK
5.234887425,2747,0x38,0x00,Write,ACK
5.234991910,2747,0x38,0x07,Write,ACK
5.235211870,2748,0x39,0x0C,Read,ACK
5.235317475,2748,0x39,0x5E,Read,ACK
5.235510265,2748,0x39,0x1A,Read,NAK
5.238168990,2750,0x38,0x00,Write,ACK
5.238273475,2750,0x38,0x22,Write,ACK
5.238493430,2751,0x39,0x0C,Read,ACK
5.238599040,2751,0x39,0x00,Read,ACK
5.238719825,2751,0x39,0x00,Read,NAK
5.240889110,2753,0x38,0x00,Write,ACK
5.240993590,2753,0x38,0x07,Write,ACK
5.241213550,2754,0x39,0x0C,Read,ACK
5.241406090,2754,0x39,0x7B,Read,ACK
5.241512070,2754,0x39,0xE6,Read,NAK
5.244553630,2756,0x38,0x00,Write,ACK
5.244760725,2756,0x38,0x22,Write,ACK
5.244980680,2757,0x39,0x0C,Read,ACK
5.245086290,2757,0x39,0x00,Read,ACK
5.245191145,2757,0x39,0x00,Read,NAK
5.247951670,2759,0x38,0x00,Write,ACK
5.248142775,2759,0x38,0x07,Write,ACK
5.248362730,2760,0x39,0x0C,Read,ACK
5.248468340,2760,0x39,0xBC,Read,ACK
5.248574135,2760,0x39,0x34,Read,NAK
5.251327785,2762,0x38,0x00,Write,ACK
5.251518890,2762,0x38,0x22,Write,ACK
5.251756895,2763,0x39,0x0C,Read,ACK
5.251862505,2763,0x39,0x00,Read,ACK
5.251967360,2763,0x39,0x00,Read,NAK
5.254253935,2765,0x38,0x00,Write,ACK
5.254358415,2765,0x38,0x07,Write,ACK
5.254578375,2766,0x39,0x0C,Read,ACK
5.254699905,2766,0x39,0x62,Read,ACK
5.254892135,2766,0x39,0x80,Read,NAK
5.256930210,2768,0x38,0x00,Write,ACK
5.257034690,2768,0x38,0x22,Write,ACK
5.257254650,2769,0x39,0x0C,Read,ACK
5.257446815,2769,0x39,0x00,Read,ACK
5.257551675,2769,0x39,0x00,Read,NAK
5.260293025,2771,0x38,0x00,Write,ACK
5.260397505,2771,0x38,0x07,Write,ACK
5.260633390,2772,0x39,0x0C,Read,ACK
5.260825305,2772,0x39,0x4F,Read,ACK
5.260931100,2772,0x39,0x9B,Read,NAK
5.263812530,2774,0x38,0x00,Write,ACK
5.263917015,2774,0x38,0x22,Write,ACK
5.264223405,2775,0x39,0x0C,Read,ACK
5.264329015,2775,0x39,0x00,Read,ACK
5.264433870,2775,0x39,0x00,Read,NAK
5.267210880,2777,0x38,0x00,Write,ACK
5.267315365,2777,0x38,0x07,Write,ACK
5.267640370,2778,0x39,0x0C,Read,ACK
5.267745975,2778,0x39,0x5E,Read,ACK
5.267851770,2778,0x39,0xFC,Read,NAK
5.270054840,2780,0x38,0x00,Write,ACK
5.270159325,2780,0x38,0x22,Write,ACK
5.270379285,2781,0x39,0x0C,Read,ACK
5.270484890,2781,0x39,0x00,Read,ACK
5.270605675,2781,0x39,0x00,Read,NAK
5.272862580,2783,0x38,0x00,Write,ACK
5.272967065,2783,0x38,0x07,Write,ACK
5.273187020,2784,0x39,0x0C,Read,ACK
5.273292625,2784,0x39,0x90,Read,ACK
5.273484730,2784,0x39,0x87,Read,NAK
5.276131280,2786,0x38,0x00,Write,ACK
5.276235760,2786,0x38,0x22,Write,ACK
5.276455720,2787,0x39,0x0C,Read,ACK
5.276561325,2787,0x39,0x00,Read,ACK
5.276768730,2787,0x39,0x00,Read,NAK
5.278827540,2789,0x38,0x00,Write,ACK
5.278932020,2789,0x38,0x07,Write,ACK
5.279151980,2790,0x39,0x0C,Read,ACK
5.279344645,2790,0x39,0x66,Read,ACK
5.279450250,2790,0x39,0x67,Read,NAK
5.282519230,2792,0x38,0x00,Write,ACK
5.282726320,2792,0x38,0x22,Write,ACK
5.282946280,2793,0x39,0x0C,Read,ACK
5.283051885,2793,0x39,0x00,Read,ACK
5.283156745,2793,0x39,0x00,Read,NAK
5.285855690,2795,0x38,0x00,Write,ACK
5.286047105,2795,0x38,0x07,Write,ACK
5.286267065,2796,0x39,0x0C,Read,ACK
5.286372670,2796,0x39,0x70,Read,ACK
5.286478090,2796,0x39,0x70,Read,NAK
5.288985495,2798,0x38,0x00,Write,ACK
5.289089975,2798,0x38,0x22,Write,ACK
5.289309935,2799,0x39,0x0C,Read,ACK
5.289502785,2799,0x39,0x00,Read,ACK
5.289626690,2799,0x39,0x00,Read,NAK
5.292347935,2801,0x38,0x00,Write,ACK
5.292452415,2801,0x38,0x07,Write,ACK
5.292775360,2802,0x39,0x0C,Read,ACK
5.292880965,2802,0x39,0x5C,Read,ACK
5.292986570,2802,0x39,0x8D,Read,NAK
5.295024270,2804,0x38,0x00,Write,ACK
5.295128755,2804,0x38,0x22,Write,ACK
5.295435210,2805,0x39,0x0C,Read,ACK
5.295540815,2805,0x39,0x00,Read,ACK
5.295663660,2805,0x39,0x00,Read,NAK
5.298390520,2807,0x38,0x00,Write,ACK
5.298495005,2807,0x38,0x07,Write,ACK
5.298817260,2808,0x39,0x0C,Read,ACK
5.298922865,2808,0x39,0x58,Read,ACK
5.299028285,2808,0x39,0xE6,Read,NAK
5.300987420,2810,0x38,0x00,Write,ACK
5.301091900,2810,0x38,0x22,Write,ACK
5.301398295,2811,0x39,0x0C,Read,ACK
5.301503900,2811,0x39,0x00,Read,ACK
5.301627680,2811,0x39,0x00,Read,NAK
5.303986760,2813,0x38,0x00,Write,ACK
5.304091245,2813,0x38,0x07,Write,ACK
5.304311200,2814,0x39,0x0C,Read,ACK
5.304416810,2814,0x39,0x72,Read,ACK
5.304625150,2814,0x39,0x8B,Read,NAK
5.307252210,2816,0x38,0x00,Write,ACK
5.307356695,2816,0x38,0x22,Write,ACK
5.307594640,2817,0x39,0x0C,Read,ACK
5.307700245,2817,0x39,0x00,Read,ACK
5.307805105,2817,0x39,0x00,Read,NAK
5.309894265,2819,0x38,0x00,Write,ACK
5.309998745,2819,0x38,0x07,Write,ACK
5.310218705,2820,0x39,0x0C,Read,ACK
5.310324310,2820,0x39,0x5F,Read,ACK
5.310516850,2820,0x39,0xB6,Read,NAK
5.312801235,2822,0x38,0x00,Write,ACK
5.312992590,2822,0x38,0x22,Write,ACK
5.313212550,2823,0x39,0x0C,Read,ACK
5.313318155,2823,0x39,0x00,Read,ACK
5.313423015,2823,0x39,0x00,Read,NAK
5.316099350,2825,0x38,0x00,Write,ACK
5.316203835,2825,0x38,0x07,Write,ACK
5.316510540,2826,0x39,0x0C,Read,ACK
5.316632070,2826,0x39,0x5D,Read,ACK
5.316737865,2826,0x39,0xFA,Read,NAK
5.319150155,2828,0x38,0x00,Write,ACK
5.319254635,2828,0x38,0x22,Write,ACK
5.319474595,2829,0x39,0x0C,Read,ACK
5.319598250,2829,0x39,0x00,Read,ACK
5.319789790,2829,0x39,0x00,Read,NAK
5.322822360,2831,0x38,0x00,Write,ACK
5.322926840,2831,0x38,0x07,Write,ACK
5.323233420,2832,0x39,0x0C,Read,ACK
5.323339030,2832,0x39,0x61,Read,ACK
5.323444445,2832,0x39,0x13,Read,NAK
5.326141645,2834,0x38,0x00,Write,ACK
5.326246125,2834,0x38,0x22,Write,ACK
5.326568630,2835,0x39,0x0C,Read,ACK
5.326674240,2835,0x39,0x00,Read,ACK
5.326779095,2835,0x39,0x00,Read,NAK
5.328794375,2837,0x38,0x00,Write,ACK
5.328898855,2837,0x38,0x07,Write,ACK
5.329205560,2838,0x39,0x0C,Read,ACK
5.329311170,2838,0x39,0x4A,Read,ACK
5.329416590,2838,0x39,0x76,Read,NAK
5.332253555,2840,0x38,0x00,Write,ACK
5.332444660,2840,0x38,0x22,Write,ACK
5.332680540,2841,0x39,0x0C,Read,ACK
5.332786150,2841,0x39,0x00,Read,ACK
5.332891005,2841,0x39,0x00,Read,NAK
5.335018635,2843,0x38,0x00,Write,ACK
5.335123120,2843,0x38,0x07,Write,ACK
5.335343075,2844,0x39,0x0C,Read,ACK
5.335448685,2844,0x39,0x64,Read,ACK
5.335572150,2844,0x39,0xBB,Read,NAK
5.338401935,2846,0x38,0x00,Write,ACK
5.338506420,2846,0x38,0x22,Write,ACK
5.338742300,2847,0x39,0x0C,Read,ACK
5.338847910,2847,0x39,0x00,Read,ACK
5.338952765,2847,0x39,0x00,Read,NAK
5.340990215,2849,0x38,0x00,Write,ACK
5.341094700,2849,0x38,0x07,Write,ACK
5.341314655,2850,0x39,0x0C,Read,ACK
5.341420265,2850,0x39,0x6A,Read,ACK
5.341525870,2850,0x39,0x66,Read,NAK
5.343845165,2852,0x38,0x00,Write,ACK
5.343949650,2852,0x38,0x22,Write,ACK
5.344256480,2853,0x39,0x0C,Read,ACK
5.344362085,2853,0x39,0x00,Read,ACK
5.344466945,2853,0x39,0x00,Read,NAK
5.347148840,2855,0x38,0x00,Write,ACK
5.347253320,2855,0x38,0x07,Write,ACK
5.347577700,2856,0x39,0x0C,Read,ACK
5.347683305,2856,0x39,0x30,Read,ACK
5.347788540,2856,0x39,0x72,Read,NAK
5.349938155,2858,0x38,0x00,Write,ACK
5.350129070,2858,0x38,0x22,Write,ACK
5.350349030,2859,0x39,0x0C,Read,ACK
5.350454635,2859,0x39,0x00,Read,ACK
5.350575355,2859,0x39,0x00,Read,NAK
5.352813275,2861,0x38,0x00,Write,ACK
5.352917760,2861,0x38,0x07,Write,ACK
5.353137715,2862,0x39,0x0C,Read,ACK
5.353243325,2862,0x39,0x31,Read,ACK
5.353471275,2862,0x39,0x10,Read,NAK
5.356386620,2864,0x38,0x00,Write,ACK
5.356491100,2864,0x38,0x22,Write,ACK
5.356813480,2865,0x39,0x0C,Read,ACK
5.356919090,2865,0x39,0x00,Read,ACK
5.357023945,2865,0x39,0x00,Read,NAK
5.359796335,2867,0x38,0x00,Write,ACK
5.359900820,2867,0x38,0x07,Write,ACK
5.360207895,2868,0x39,0x0C,Read,ACK
5.360313505,2868,0x39,0x56,Read,ACK
5.360419110,2868,0x39,0xFA,Read,NAK
5.365637200,2870,0x38,0x00,Write,ACK
5.365741685,2870,0x38,0x22,Write,ACK
5.365961640,2871,0x39,0x0C,Read,ACK
5.366154310,2871,0x39,0x00,Read,ACK
5.366259165,2871,0x39,0x00,Read,NAK
5.369067965,2873,0x38,0x00,Write,ACK
5.369172450,2873,0x38,0x07,Write,ACK
5.369478965,2874,0x39,0x0C,Read,ACK
5.369603495,2874,0x39,0x4D,Read,ACK
5.369709100,2874,0x39,0x11,Read,NAK
5.372023650,2876,0x38,0x00,Write,ACK
5.372128135,2876,0x38,0x22,Write,ACK
5.372348095,2877,0x39,0x0C,Read,ACK
5.372453700,2877,0x39,0x00,Read,ACK
5.372574420,2877,0x39,0x00,Read,NAK
5.374749140,2879,0x38,0x00,Write,ACK
5.374853625,2879,0x38,0x07,Write,ACK
5.375073580,2880,0x39,0x0C,Read,ACK
5.375179190,2880,0x39,0x35,Read,ACK
5.375412510,2880,0x39,0xE5,Read,NAK
5.378333600,2882,0x38,0x00,Write,ACK
5.378438080,2882,0x38,0x22,Write,ACK
5.378760960,2883,0x39,0x0C,Read,ACK
5.378866570,2883,0x39,0x00,Read,ACK
5.378971425,2883,0x39,0x00,Read,NAK
5.380915010,2885,0x38,0x00,Write,ACK
5.381019490,2885,0x38,0x07,Write,ACK
5.381326070,2886,0x39,0x0C,Read,ACK
5.381431680,2886,0x39,0x5F,Read,ACK
5.381556585,2886,0x39,0x77,Read,NAK
5.383917970,2888,0x38,0x00,Write,ACK
5.384022455,2888,0x38,0x22,Write,ACK
5.384242415,2889,0x39,0x0C,Read,ACK
5.384348020,2889,0x39,0x00,Read,ACK
5.384452880,2889,0x39,0x00,Read,NAK
5.387180675,2891,0x38,0x00,Write,ACK
5.387285160,2891,0x38,0x07,Write,ACK
5.387523105,2892,0x39,0x0C,Read,ACK
5.387628710,2892,0x39,0x53,Read,ACK
5.387734315,2892,0x39,0x62,Read,NAK
5.389965055,2894,0x38,0x00,Write,ACK
5.390069540,2894,0x38,0x22,Write,ACK
5.390289495,2895,0x39,0x0C,Read,ACK
5.390482040,2895,0x39,0x00,Read,ACK
5.390602885,2895,0x39,0x00,Read,NAK
5.392739630,2897,0x38,0x00,Write,ACK
5.392844115,2897,0x38,0x07,Write,ACK
5.393151130,2898,0x39,0x0C,Read,ACK
5.393256740,2898,0x39,0x9F,Read,ACK
5.393362720,2898,0x39,0xA5,Read,NAK
5.396225915,2900,0x38,0x00,Write,ACK
5.396416955,2900,0x38,0x22,Write,ACK
5.396652840,2901,0x39,0x0C,Read,ACK
5.396758445,2901,0x39,0x00,Read,ACK
5.396863305,2901,0x39,0x00,Read,NAK
5.399777275,2903,0x38,0x00,Write,ACK
5.399881755,2903,0x38,0x07,Write,ACK
5.400101715,2904,0x39,0x0C,Read,ACK
5.400207320,2904,0x39,0x79,Read,ACK
5.400313115,2904,0x39,0x42,Read,NAK
5.402739520,2906,0x38,0x00,Write,ACK
5.402844000,2906,0x38,0x22,Write,ACK
5.403150330,2907,0x39,0x0C,Read,ACK
5.403255940,2907,0x39,0x00,Read,ACK
5.403360795,2907,0x39,0x00,Read,NAK
5.405991980,2909,0x38,0x00,Write,ACK
5.406096465,2909,0x38,0x07,Write,ACK
5.406316420,2910,0x39,0x0C,Read,ACK
5.406524950,2910,0x39,0x66,Read,ACK
5.406630555,2910,0x39,0x77,Read,NAK
5.409242820,2912,0x38,0x00,Write,ACK
5.409347300,2912,0x38,0x22,Write,ACK
5.409586245,2913,0x39,0x0C,Read,ACK
5.409691850,2913,0x39,0x00,Read,ACK
5.409883645,2913,0x39,0x00,Read,NAK
5.413458795,2915,0x38,0x00,Write,ACK
5.413582265,2915,0x38,0x07,Write,ACK
5.413802220,2916,0x39,0x0C,Read,ACK
5.413907830,2916,0x39,0xAB,Read,ACK
5.414100120,2916,0x39,0xD9,Read,NAK
5.416211265,2918,0x38,0x00,Write,ACK
5.416315745,2918,0x38,0x22,Write,ACK
5.416638690,2919,0x39,0x0C,Read,ACK
5.416744295,2919,0x39,0x00,Read,ACK
5.416849155,2919,0x39,0x00,Read,NAK
5.418866555,2921,0x38,0x00,Write,ACK
5.418971035,2921,0x38,0x07,Write,ACK
5.419314965,2922,0x39,0x0C,Read,ACK
5.419420570,2922,0x39,0x8B,Read,ACK
5.419544225,2922,0x39,0x43,Read,NAK
5.422527145,2924,0x38,0x00,Write,ACK
5.422631625,2924,0x38,0x22,Write,ACK
5.422851585,2925,0x39,0x0C,Read,ACK
5.422957190,2925,0x39,0x00,Read,ACK
5.423062050,2925,0x39,0x00,Read,NAK
5.425938360,2927,0x38,0x00,Write,ACK
5.426042840,2927,0x38,0x07,Write,ACK
5.426262800,2928,0x39,0x0C,Read,ACK
5.426368405,2928,0x39,0x7D,Read,ACK
5.426490375,2928,0x39,0x33,Read,NAK
5.429080840,2930,0x38,0x00,Write,ACK
5.429271820,2930,0x38,0x22,Write,ACK
5.429510765,2931,0x39,0x0C,Read,ACK
5.429616370,2931,0x39,0x00,Read,ACK
5.429721230,2931,0x39,0x00,Read,NAK
5.432033970,2933,0x38,0x00,Write,ACK
5.432138450,2933,0x38,0x07,Write,ACK
5.432358410,2934,0x39,0x0C,Read,ACK
5.432464015,2934,0x39,0x6F,Read,ACK
5.432672230,2934,0x39,0xF1,Read,NAK
5.434942380,2936,0x38,0x00,Write,ACK
5.435133360,2936,0x38,0x22,Write,ACK
5.435353315,2937,0x39,0x0C,Read,ACK
5.435458925,2937,0x39,0x00,Read,ACK
5.435581890,2937,0x39,0x00,Read,NAK
5.439039945,2939,0x38,0x00,Write,ACK
5.439144430,2939,0x38,0x07,Write,ACK
5.439450945,2940,0x39,0x0C,Read,ACK
5.439574600,2940,0x39,0x97,Read,ACK
5.439680395,2940,0x39,0xA7,Read,NAK
5.442044095,2942,0x38,0x00,Write,ACK
5.442148580,2942,0x38,0x22,Write,ACK
5.442368540,2943,0x39,0x0C,Read,ACK
5.442490010,2943,0x39,0x00,Read,ACK
5.442594865,2943,0x39,0x00,Read,NAK
5.444700885,2945,0x38,0x00,Write,ACK
5.444805370,2945,0x38,0x07,Write,ACK
5.445025330,2946,0x39,0x0C,Read,ACK
5.445130935,2946,0x39,0xDB,Read,ACK
5.445323540,2946,0x39,0x8D,Read,NAK
5.448014675,2948,0x38,0x00,Write,ACK
5.448119160,2948,0x38,0x22,Write,ACK
5.448339120,2949,0x39,0x0C,Read,ACK
5.448444725,2949,0x39,0x00,Read,ACK
5.448652315,2949,0x39,0x00,Read,NAK
5.450699820,2951,0x38,0x00,Write,ACK
5.450804305,2951,0x38,0x07,Write,ACK
5.451024260,2952,0x39,0x0C,Read,ACK
5.451216490,2952,0x39,0x81,Read,ACK
5.451321720,2952,0x39,0x6A,Read,NAK
5.454163435,2954,0x38,0x00,Write,ACK
5.454267915,2954,0x38,0x22,Write,ACK
5.454590610,2955,0x39,0x0C,Read,ACK
5.454696215,2955,0x39,0x00,Read,ACK
5.454801075,2955,0x39,0x00,Read,NAK
5.456793555,2957,0x38,0x00,Write,ACK
5.456898040,2957,0x38,0x07,Write,ACK
5.457204805,2958,0x39,0x0C,Read,ACK
5.457310415,2958,0x39,0x7C,Read,ACK
5.457416210,2958,0x39,0xC4,Read,NAK
5.460174235,2960,0x38,0x00,Write,ACK
5.460278715,2960,0x38,0x22,Write,ACK
5.460601035,2961,0x39,0x0C,Read,ACK
5.460706640,2961,0x39,0x00,Read,ACK
5.460811500,2961,0x39,0x00,Read,NAK
5.463113870,2963,0x38,0x00,Write,ACK
5.463218355,2963,0x38,0x07,Write,ACK
5.463438310,2964,0x39,0x0C,Read,ACK
5.463561965,2964,0x39,0x80,Read,ACK
5.463667010,2964,0x39,0x0D,Read,NAK
5.465963825,2966,0x38,0x00,Write,ACK
5.466068310,2966,0x38,0x22,Write,ACK
5.466375075,2967,0x39,0x0C,Read,ACK
5.466496610,2967,0x39,0x00,Read,ACK
5.466601465,2967,0x39,0x00,Read,NAK
5.469191620,2969,0x38,0x00,Write,ACK
5.469296100,2969,0x38,0x07,Write,ACK
5.469535045,2970,0x39,0x0C,Read,ACK
5.469726960,2970,0x39,0x81,Read,ACK
5.469832195,2970,0x39,0xC9,Read,NAK
5.472360330,2972,0x38,0x00,Write,ACK
5.472480740,2972,0x38,0x22,Write,ACK
5.472700695,2973,0x39,0x0C,Read,ACK
5.472806305,2973,0x39,0x00,Read,ACK
5.472911160,2973,0x39,0x00,Read,NAK
5.475770110,2975,0x38,0x00,Write,ACK
5.475874595,2975,0x38,0x07,Write,ACK
5.476094550,2976,0x39,0x0C,Read,ACK
5.476200160,2976,0x39,0x78,Read,ACK
5.476305765,2976,0x39,0x7E,Read,NAK
5.479177265,2978,0x38,0x00,Write,ACK
5.479281750,2978,0x38,0x22,Write,ACK
5.479519755,2979,0x39,0x0C,Read,ACK
5.479625365,2979,0x39,0x00,Read,ACK
5.479817280,2979,0x39,0x00,Read,NAK
5.482003365,2981,0x38,0x00,Write,ACK
5.482107850,2981,0x38,0x07,Write,ACK
5.482414865,2982,0x39,0x0C,Read,ACK
5.482536335,2982,0x39,0x78,Read,ACK
5.482641940,2982,0x39,0x5E,Read,NAK
5.484665465,2984,0x38,0x00,Write,ACK
5.484892665,2984,0x38,0x22,Write,ACK
5.485112625,2985,0x39,0x0C,Read,ACK
5.485218230,2985,0x39,0x00,Read,ACK
5.485323090,2985,0x39,0x00,Read,NAK
5.488009420,2987,0x38,0x00,Write,ACK
5.488200770,2987,0x38,0x07,Write,ACK
5.488420730,2988,0x39,0x0C,Read,ACK
5.488542260,2988,0x39,0xA2,Read,ACK
5.488647680,2988,0x39,0xDE,Read,NAK
5.490767445,2990,0x38,0x00,Write,ACK
5.490871925,2990,0x38,0x22,Write,ACK
5.491091885,2991,0x39,0x0C,Read,ACK
5.491197490,2991,0x39,0x00,Read,ACK
5.491302350,2991,0x39,0x00,Read,NAK
5.494284515,2993,0x38,0x00,Write,ACK
5.494389000,2993,0x38,0x07,Write,ACK
5.494624820,2994,0x39,0x0C,Read,ACK
5.494730425,2994,0x39,0x93,Read,ACK
5.494836035,2994,0x39,0x51,Read,NAK
5.496871545,2996,0x38,0x00,Write,ACK
5.496976030,2996,0x38,0x22,Write,ACK
5.497195985,2997,0x39,0x0C,Read,ACK
5.497301595,2997,0x39,0x00,Read,ACK
5.497511870,2997,0x39,0x00,Read,NAK
5.500231240,2999,0x38,0x00,Write,ACK
5.500335720,2999,0x38,0x07,Write,ACK
5.500571540,3000,0x39,0x0C,Read,ACK
5.500677150,3000,0x39,0xAC,Read,ACK
5.500869255,3000,0x39,0xF7,Read,NAK
5.503034980,3002,0x38,0x00,Write,ACK
5.503139460,3002,0x38,0x22,Write,ACK
5.503464155,3003,0x39,0x0C,Read,ACK
5.503569760,3003,0x39,0x00,Read,ACK
5.503674620,3003,0x39,0x00,Read,NAK
5.505788320,3005,0x38,0x00,Write,ACK
5.505979615,3005,0x38,0x07,Write,ACK
5.506199570,3006,0x39,0x0C,Read,ACK
5.506305180,3006,0x39,0x9D,Read,ACK
5.506426895,3006,0x39,0x4A,Read,NAK
5.509378965,3008,0x38,0x00,Write,ACK
5.509502430,3008,0x38,0x22,Write,ACK
5.509722390,3009,0x39,0x0C,Read,ACK
5.509827995,3009,0x39,0x00,Read,ACK
5.509932855,3009,0x39,0x00,Read,NAK
5.512955675,3011,0x38,0x00,Write,ACK
5.513060160,3011,0x38,0x07,Write,ACK
5.513280120,3012,0x39,0x0C,Read,ACK
5.513491770,3012,0x39,0x91,Read,ACK
5.513597190,3012,0x39,0xD4,Read,NAK
5.515711390,3014,0x38,0x00,Write,ACK
5.515815875,3014,0x38,0x22,Write,ACK
5.516122580,3015,0x39,0x0C,Read,ACK
5.516228185,3015,0x39,0x00,Read,ACK
5.516333045,3015,0x39,0x00,Read,NAK
5.519029430,3017,0x38,0x00,Write,ACK
5.519133910,3017,0x38,0x07,Write,ACK
5.519458665,3018,0x39,0x0C,Read,ACK
5.519564270,3018,0x39,0x9B,Read,ACK
5.519670065,3018,0x39,0xFD,Read,NAK
5.522976925,3020,0x38,0x00,Write,ACK
5.523081405,3020,0x38,0x22,Write,ACK
5.523301365,3021,0x39,0x0C,Read,ACK
5.523424955,3021,0x39,0x00,Read,ACK
5.523616500,3021,0x39,0x00,Read,NAK
5.526583305,3023,0x38,0x00,Write,ACK
5.526687785,3023,0x38,0x07,Write,ACK
5.526994430,3024,0x39,0x0C,Read,ACK
5.527100035,3024,0x39,0xB7,Read,ACK
5.527206015,3024,0x39,0x9F,Read,NAK
5.530005450,3026,0x38,0x00,Write,ACK
5.530109930,3026,0x38,0x22,Write,ACK
5.530432435,3027,0x39,0x0C,Read,ACK
5.530538045,3027,0x39,0x00,Read,ACK
5.530642900,3027,0x39,0x00,Read,NAK
5.532716320,3029,0x38,0x00,Write,ACK
5.532907365,3029,0x38,0x07,Write,ACK
5.533127320,3030,0x39,0x0C,Read,ACK
5.533232930,3030,0x39,0xA3,Read,ACK
5.533338535,3030,0x39,0x27,Read,NAK
5.536107800,3032,0x38,0x00,Write,ACK
5.536298655,3032,0x38,0x22,Write,ACK
5.536534540,3033,0x39,0x0C,Read,ACK
5.536640145,3033,0x39,0x00,Read,ACK
5.536745005,3033,0x39,0x00,Read,NAK
5.538870575,3035,0x38,0x00,Write,ACK
5.538975055,3035,0x38,0x07,Write,ACK
5.539195015,3036,0x39,0x0C,Read,ACK
5.539300620,3036,0x39,0x99,Read,ACK
5.539424215,3036,0x39,0x24,Read,NAK
5.542430800,3038,0x38,0x00,Write,ACK
5.542535285,3038,0x38,0x22,Write,ACK
5.542755240,3039,0x39,0x0C,Read,ACK
5.542947410,3039,0x39,0x00,Read,ACK
5.543052265,3039,0x39,0x00,Read,NAK
5.545019830,3041,0x38,0x00,Write,ACK
5.545124315,3041,0x38,0x07,Write,ACK
5.545344270,3042,0x39,0x0C,Read,ACK
5.545555360,3042,0x39,0x97,Read,ACK
5.545661155,3042,0x39,0xB7,Read,NAK
5.548071070,3044,0x38,0x00,Write,ACK
5.548175555,3044,0x38,0x22,Write,ACK
5.548411435,3045,0x39,0x0C,Read,ACK
5.548517045,3045,0x39,0x00,Read,ACK
5.548621900,3045,0x39,0x00,Read,NAK
5.551607005,3047,0x38,0x00,Write,ACK
5.551711485,3047,0x38,0x07,Write,ACK
5.551931445,3048,0x39,0x0C,Read,ACK
5.552037050,3048,0x39,0x73,Read,ACK
5.552230030,3048,0x39,0x38,Read,NAK
5.555130885,3050,0x38,0x00,Write,ACK
5.555235365,3050,0x38,0x22,Write,ACK
5.555473375,3051,0x39,0x0C,Read,ACK
5.555665600,3051,0x39,0x00,Read,ACK
5.555770460,3051,0x39,0x00,Read,NAK
5.557944305,3053,0x38,0x00,Write,ACK
5.558135160,3053,0x38,0x07,Write,ACK
5.558355115,3054,0x39,0x0C,Read,ACK
5.558476650,3054,0x39,0x6E,Read,ACK
5.558582445,3054,0x39,0xCD,Read,NAK
5.560802315,3059,0x38,0x00,Write,ACK
5.560906800,3059,0x38,0x22,Write,ACK
5.561126755,3060,0x39,0x0C,Read,ACK
5.561232365,3060,0x39,0x00,Read,ACK
5.561337220,3060,0x39,0x00,Read,NAK
5.564387775,3062,0x38,0x00,Write,ACK
5.564492255,3062,0x38,0x07,Write,ACK
5.564712215,3063,0x39,0x0C,Read,ACK
5.564904820,3063,0x39,0x35,Read,ACK
5.565010425,3063,0x39,0x76,Read,NAK
5.567048875,3065,0x38,0x00,Write,ACK
5.567153355,3065,0x38,0x22,Write,ACK
5.567477735,3066,0x39,0x0C,Read,ACK
5.567583340,3066,0x39,0x00,Read,ACK
5.567688200,3066,0x39,0x00,Read,NAK
5.569776920,3068,0x38,0x00,Write,ACK
5.569968150,3068,0x38,0x07,Write,ACK
5.570188110,3069,0x39,0x0C,Read,ACK
5.570293715,3069,0x39,0x6B,Read,ACK
5.570415435,3069,0x39,0x0D,Read,NAK
5.572738915,3071,0x38,0x00,Write,ACK
5.572843400,3071,0x38,0x22,Write,ACK
5.573063355,3072,0x39,0x0C,Read,ACK
5.573168965,3072,0x39,0x00,Read,ACK
5.573379305,3072,0x39,0x00,Read,NAK
5.576047460,3074,0x38,0x00,Write,ACK
5.576151945,3074,0x38,0x07,Write,ACK
5.576387765,3075,0x39,0x0C,Read,ACK
5.576493370,3075,0x39,0x55,Read,ACK
5.576685225,3075,0x39,0xDD,Read,NAK
5.578723610,3077,0x38,0x00,Write,ACK
5.578828095,3077,0x38,0x22,Write,ACK
5.579048050,3078,0x39,0x0C,Read,ACK
5.579240345,3078,0x39,0x00,Read,ACK
5.579345200,3078,0x39,0x00,Read,NAK
5.582223820,3080,0x38,0x00,Write,ACK
5.582328305,3080,0x38,0x07,Write,ACK
5.582651060,3081,0x39,0x0C,Read,ACK
5.582756665,3081,0x39,0x61,Read,ACK
5.582862085,3081,0x39,0x92,Read,NAK
5.585156525,3083,0x38,0x00,Write,ACK
5.585261010,3083,0x38,0x22,Write,ACK
5.585499950,3084,0x39,0x0C,Read,ACK
5.585605560,3084,0x39,0x00,Read,ACK
5.585710415,3084,0x39,0x00,Read,NAK
5.588665105,3086,0x38,0x00,Write,ACK
5.588769590,3086,0x38,0x07,Write,ACK
5.588989545,3087,0x39,0x0C,Read,ACK
5.589095155,3087,0x39,0x5C,Read,ACK
5.589287445,3087,0x39,0x6E,Read,NAK
5.592183240,3089,0x38,0x00,Write,ACK
5.592287725,3089,0x38,0x22,Write,ACK
5.592523605,3090,0x39,0x0C,Read,ACK
5.592716395,3090,0x39,0x00,Read,ACK
5.592821255,3090,0x39,0x00,Read,NAK
5.594885185,3092,0x38,0x00,Write,ACK
5.594989665,3092,0x38,0x07,Write,ACK
5.595296245,3093,0x39,0x0C,Read,ACK
5.595419840,3093,0x39,0x63,Read,ACK
5.595525445,3093,0x39,0xAD,Read,NAK
5.597812390,3095,0x38,0x00,Write,ACK
5.597916875,3095,0x38,0x22,Write,ACK
5.598136835,3096,0x39,0x0C,Read,ACK
5.598242440,3096,0x39,0x00,Read,ACK
5.598363225,3096,0x39,0x00,Read,NAK
5.600875375,3098,0x38,0x00,Write,ACK
5.601066915,3098,0x38,0x07,Write,ACK
5.601286870,3099,0x39,0x0C,Read,ACK
5.601411340,3099,0x39,0x60,Read,ACK
5.601516570,3099,0x39,0xB4,Read,NAK
5.603863160,3101,0x38,0x00,Write,ACK
5.603967645,3101,0x38,0x22,Write,ACK
5.604187600,3102,0x39,0x0C,Read,ACK
5.604293210,3102,0x39,0x00,Read,ACK
5.604500425,3102,0x39,0x00,Read,NAK
5.606590585,3104,0x38,0x00,Write,ACK
5.606695065,3104,0x38,0x07,Write,ACK
5.607001710,3105,0x39,0x0C,Read,ACK
5.607107315,3105,0x39,0x7C,Read,ACK
5.607213110,3105,0x39,0x75,Read,NAK
5.609916615,3107,0x38,0x00,Write,ACK
5.610021100,3107,0x38,0x22,Write,ACK
5.610328050,3108,0x39,0x0C,Read,ACK
5.610449585,3108,0x39,0x00,Read,ACK
5.610554440,3108,0x39,0x00,Read,NAK
5.612640480,3110,0x38,0x00,Write,ACK
5.612744960,3110,0x38,0x07,Write,ACK
5.613051915,3111,0x39,0x0C,Read,ACK
5.613157525,3111,0x39,0x68,Read,ACK
5.613262945,3111,0x39,0x72,Read,NAK
5.616033270,3113,0x38,0x00,Write,ACK
5.616260475,3113,0x38,0x22,Write,ACK
5.616496295,3114,0x39,0x0C,Read,ACK
5.616601900,3114,0x39,0x00,Read,ACK
5.616706760,3114,0x39,0x00,Read,NAK
5.618857810,3116,0x38,0x00,Write,ACK
5.618962290,3116,0x38,0x07,Write,ACK
5.619182250,3117,0x39,0x0C,Read,ACK
5.619287855,3117,0x39,0x65,Read,ACK
5.619411510,3117,0x39,0x0A,Read,NAK
5.622173035,3119,0x38,0x00,Write,ACK
5.622277520,3119,0x38,0x22,Write,ACK
5.622513340,3120,0x39,0x0C,Read,ACK
5.622618945,3120,0x39,0x00,Read,ACK
5.622723805,3120,0x39,0x00,Read,NAK
5.626714640,3122,0x38,0x00,Write,ACK
5.626819125,3122,0x38,0x07,Write,ACK
5.627039080,3123,0x39,0x0C,Read,ACK
5.627231245,3123,0x39,0x30,Read,ACK
5.627354465,3123,0x39,0x62,Read,NAK
5.629785990,3125,0x38,0x00,Write,ACK
5.629890470,3125,0x38,0x22,Write,ACK
5.630110430,3126,0x39,0x0C,Read,ACK
5.630216035,3126,0x39,0x00,Read,ACK
5.630336820,3126,0x39,0x00,Read,NAK
5.633410605,3128,0x38,0x00,Write,ACK
5.633515090,3128,0x38,0x07,Write,ACK
5.633735045,3129,0x39,0x0C,Read,ACK
5.633927335,3129,0x39,0x53,Read,ACK
5.634032945,3129,0x39,0x33,Read,NAK
5.636814765,3131,0x38,0x00,Write,ACK
5.636919245,3131,0x38,0x22,Write,ACK
5.637139205,3132,0x39,0x0C,Read,ACK
5.637350355,3132,0x39,0x00,Read,ACK
5.637455215,3132,0x39,0x00,Read,NAK
5.639843210,3134,0x38,0x00,Write,ACK
5.639947690,3134,0x38,0x07,Write,ACK
5.640167650,3135,0x39,0x0C,Read,ACK
5.640273255,3135,0x39,0x58,Read,ACK
5.640394600,3135,0x39,0x27,Read,NAK
5.642604855,3137,0x38,0x00,Write,ACK
5.642709340,3137,0x38,0x22,Write,ACK
5.642929295,3138,0x39,0x0C,Read,ACK
5.643034905,3138,0x39,0x00,Read,ACK
5.643226820,3138,0x39,0x00,Read,NAK
5.645979475,3140,0x38,0x00,Write,ACK
5.646083960,3140,0x38,0x07,Write,ACK
5.646319840,3141,0x39,0x0C,Read,ACK
5.646425450,3141,0x39,0x45,Read,ACK
5.646617300,3141,0x39,0x96,Read,NAK
5.648593295,3143,0x38,0x00,Write,ACK
5.648697780,3143,0x38,0x22,Write,ACK
5.648917740,3144,0x39,0x0C,Read,ACK
5.649110090,3144,0x39,0x00,Read,ACK
5.649214950,3144,0x39,0x00,Read,NAK
5.652124670,3146,0x38,0x00,Write,ACK
5.652229155,3146,0x38,0x07,Write,ACK
5.652551845,3147,0x39,0x0C,Read,ACK
5.652657455,3147,0x39,0xBB,Read,ACK
5.652763435,3147,0x39,0x76,Read,NAK
5.654816060,3149,0x38,0x00,Write,ACK
5.655007415,3149,0x38,0x22,Write,ACK
5.655227370,3150,0x39,0x0C,Read,ACK
5.655350965,3150,0x39,0x00,Read,ACK
5.655455825,3150,0x39,0x00,Read,NAK
5.657775805,3152,0x38,0x00,Write,ACK
5.657880290,3152,0x38,0x07,Write,ACK
5.658100250,3153,0x39,0x0C,Read,ACK
5.658205855,3153,0x39,0x3A,Read,ACK
5.658414195,3153,0x39,0xFA,Read,NAK
5.661206570,3155,0x38,0x00,Write,ACK
5.661330040,3155,0x38,0x22,Write,ACK
5.661549995,3156,0x39,0x0C,Read,ACK
5.661742225,3156,0x39,0x00,Read,ACK
5.661847085,3156,0x39,0x00,Read,NAK
5.664812640,3158,0x38,0x00,Write,ACK
5.664917120,3158,0x38,0x07,Write,ACK
5.665223450,3159,0x39,0x0C,Read,ACK
5.665348045,3159,0x39,0x53,Read,ACK
5.665453650,3159,0x39,0xC1,Read,NAK
5.667714865,3161,0x38,0x00,Write,ACK
5.667819350,3161,0x38,0x22,Write,ACK
5.668039305,3162,0x39,0x0C,Read,ACK
5.668144915,3162,0x39,0x00,Read,ACK
5.668249770,3162,0x39,0x00,Read,NAK
5.670993560,3164,0x38,0x00,Write,ACK
5.671098040,3164,0x38,0x07,Write,ACK
5.671335985,3165,0x39,0x0C,Read,ACK
5.671441590,3165,0x39,0x5F,Read,ACK
5.671547575,3165,0x39,0x28,Read,NAK
5.673854565,3167,0x38,0x00,Write,ACK
5.673959050,3167,0x38,0x22,Write,ACK
5.674179010,3168,0x39,0x0C,Read,ACK
5.674387285,3168,0x39,0x00,Read,ACK
5.674492145,3168,0x39,0x00,Read,NAK
5.676532840,3170,0x38,0x00,Write,ACK
5.676637325,3170,0x38,0x07,Write,ACK
5.676943965,3171,0x39,0x0C,Read,ACK
5.677049575,3171,0x39,0x97,Read,ACK
5.677155365,3171,0x39,0x68,Read,NAK
5.679845255,3173,0x38,0x00,Write,ACK
5.679949740,3173,0x38,0x22,Write,ACK
5.680256695,3174,0x39,0x0C,Read,ACK
5.680378225,3174,0x39,0x00,Read,ACK
5.680483085,3174,0x39,0x00,Read,NAK
5.682798135,3176,0x38,0x00,Write,ACK
5.682902615,3176,0x38,0x07,Write,ACK
5.683122575,3177,0x39,0x0C,Read,ACK
5.683228180,3177,0x39,0xCA,Read,ACK
5.683351775,3177,0x39,0x44,Read,NAK
5.686191300,3179,0x38,0x00,Write,ACK
5.686311645,3179,0x38,0x22,Write,ACK
5.686531605,3180,0x39,0x0C,Read,ACK
5.686637210,3180,0x39,0x00,Read,ACK
5.686742070,3180,0x39,0x00,Read,NAK
5.688776895,3182,0x38,0x00,Write,ACK
5.688881380,3182,0x38,0x07,Write,ACK
5.689101335,3183,0x39,0x0C,Read,ACK
5.689206945,3183,0x39,0x89,Read,ACK
5.689331350,3183,0x39,0xA7,Read,NAK
5.691521370,3185,0x38,0x00,Write,ACK
5.691625850,3185,0x38,0x22,Write,ACK
5.691845810,3186,0x39,0x0C,Read,ACK
5.692038100,3186,0x39,0x00,Read,ACK
5.692142960,3186,0x39,0x00,Read,NAK
5.694967560,3188,0x38,0x00,Write,ACK
5.695072040,3188,0x38,0x07,Write,ACK
5.695309985,3189,0x39,0x0C,Read,ACK
5.695502215,3189,0x39,0x64,Read,ACK
5.695607635,3189,0x39,0x1C,Read,NAK
5.698059580,3191,0x38,0x00,Write,ACK
5.698164060,3191,0x38,0x22,Write,ACK
5.698399885,3192,0x39,0x0C,Read,ACK
5.698505490,3192,0x39,0x00,Read,ACK
5.698610345,3192,0x39,0x00,Read,NAK
5.701399910,3194,0x38,0x00,Write,ACK
5.701504395,3194,0x38,0x07,Write,ACK
5.701724350,3195,0x39,0x0C,Read,ACK
5.701829960,3195,0x39,0x7E,Read,ACK
5.701935940,3195,0x39,0x70,Read,NAK
5.704953895,3197,0x38,0x00,Write,ACK
5.705058375,3197,0x38,0x22,Write,ACK
5.705297320,3198,0x39,0x0C,Read,ACK
5.705402925,3198,0x39,0x00,Read,ACK
5.705594530,3198,0x39,0x00,Read,NAK
5.707683255,3200,0x38,0x00,Write,ACK
5.707787735,3200,0x38,0x07,Write,ACK
5.708094315,3201,0x39,0x0C,Read,ACK
5.708199920,3201,0x39,0x52,Read,ACK
5.708321265,3201,0x39,0xC4,Read,NAK
5.711018340,3203,0x38,0x00,Write,ACK
5.711122820,3203,0x38,0x22,Write,ACK
5.711447825,3204,0x39,0x0C,Read,ACK
5.711553430,3204,0x39,0x00,Read,ACK
5.711658290,3204,0x39,0x00,Read,NAK
5.714624095,3206,0x38,0x00,Write,ACK
5.714814885,3206,0x38,0x07,Write,ACK
5.715034845,3207,0x39,0x0C,Read,ACK
5.715140450,3207,0x39,0x51,Read,ACK
5.715245870,3207,0x39,0x47,Read,NAK
5.718015950,3209,0x38,0x00,Write,ACK
5.718207305,3209,0x38,0x22,Write,ACK
5.718443125,3210,0x39,0x0C,Read,ACK
5.718548730,3210,0x39,0x00,Read,ACK
5.718653590,3210,0x39,0x00,Read,NAK
5.720700530,3212,0x38,0x00,Write,ACK
5.720805015,3212,0x38,0x07,Write,ACK
5.721024970,3213,0x39,0x0C,Read,ACK
5.721130580,3213,0x39,0x53,Read,ACK
5.721236185,3213,0x39,0x82,Read,NAK
5.724302290,3215,0x38,0x00,Write,ACK
5.724406770,3215,0x38,0x22,Write,ACK
5.724626730,3216,0x39,0x0C,Read,ACK
5.724732335,3216,0x39,0x00,Read,ACK
5.724923940,3216,0x39,0x00,Read,NAK
5.727069060,3218,0x38,0x00,Write,ACK
5.727173540,3218,0x38,0x07,Write,ACK
5.727498480,3219,0x39,0x0C,Read,ACK
5.727604090,3219,0x39,0x5F,Read,ACK
5.727710070,3219,0x39,0x0B,Read,NAK
5.729845695,3221,0x38,0x00,Write,ACK
5.730037300,3221,0x38,0x22,Write,ACK
5.730273180,3222,0x39,0x0C,Read,ACK
5.730378790,3222,0x39,0x00,Read,ACK
5.730483645,3222,0x39,0x00,Read,NAK
5.731862045,3224,0x45,0x3F,Read,ACK
5.731931115,3224,0x45,0xFF,Read,ACK
5.732000185,3224,0x45,0xFF,Read,ACK
5.733768335,3227,0x38,0x00,Write,ACK
5.733872815,3227,0x38,0x07,Write,ACK
5.734179835,3228,0x39,0x0C,Read,ACK
5.734301365,3228,0x39,0x57,Read,ACK
5.734407160,3228,0x39,0xF6,Read,NAK
5.736811205,3230,0x38,0x00,Write,ACK
5.736915690,3230,0x38,0x22,Write,ACK
5.737135645,3231,0x39,0x0C,Read,ACK
5.737260240,3231,0x39,0x00,Read,ACK
5.737365095,3231,0x39,0x00,Read,NAK
5.740303610,3233,0x38,0x00,Write,ACK
5.740408090,3233,0x38,0x07,Write,ACK
5.740628050,3234,0x39,0x0C,Read,ACK
5.740733655,3234,0x39,0x61,Read,ACK
5.740925700,3234,0x39,0x19,Read,NAK
5.743715075,3236,0x38,0x00,Write,ACK
5.743819555,3236,0x38,0x22,Write,ACK
5.744039515,3237,0x39,0x0C,Read,ACK
5.744145120,3237,0x39,0x00,Read,ACK
5.744352650,3237,0x39,0x00,Read,NAK
5.746513255,3239,0x38,0x00,Write,ACK
5.746617740,3239,0x38,0x07,Write,ACK
5.746924570,3240,0x39,0x0C,Read,ACK
5.747030175,3240,0x39,0x42,Read,ACK
5.747135410,3240,0x39,0x39,Read,NAK
5.749841785,3242,0x38,0x00,Write,ACK
5.749946270,3242,0x38,0x22,Write,ACK
5.750269210,3243,0x39,0x0C,Read,ACK
5.750374815,3243,0x39,0x00,Read,ACK
5.750479675,3243,0x39,0x00,Read,NAK
5.752566150,3245,0x38,0x00,Write,ACK
5.752757005,3245,0x38,0x07,Write,ACK
5.752976960,3246,0x39,0x0C,Read,ACK
5.753082570,3246,0x39,0x40,Read,ACK
5.753187615,3246,0x39,0x7D,Read,NAK
5.756100210,3248,0x38,0x00,Write,ACK
5.756204690,3248,0x38,0x22,Write,ACK
5.756440575,3249,0x39,0x0C,Read,ACK
5.756546180,3249,0x39,0x00,Read,ACK
5.756651040,3249,0x39,0x00,Read,NAK
5.758774110,3251,0x38,0x00,Write,ACK
5.758878595,3251,0x38,0x07,Write,ACK
5.759098550,3252,0x39,0x0C,Read,ACK
5.759204160,3252,0x39,0x3F,Read,ACK
5.759328125,3252,0x39,0xEE,Read,NAK
5.761757650,3254,0x38,0x00,Write,ACK
5.761949005,3254,0x38,0x22,Write,ACK
5.762168965,3255,0x39,0x0C,Read,ACK
5.762290435,3255,0x39,0x00,Read,ACK
5.762395290,3255,0x39,0x00,Read,NAK
5.764915810,3257,0x38,0x00,Write,ACK
5.765020295,3257,0x38,0x07,Write,ACK
5.765346295,3258,0x39,0x0C,Read,ACK
5.765451900,3258,0x39,0x47,Read,ACK
5.765557510,3258,0x39,0xFC,Read,NAK
5.767663405,3260,0x38,0x00,Write,ACK
5.767854825,3260,0x38,0x22,Write,ACK
5.768074780,3261,0x39,0x0C,Read,ACK
5.768180390,3261,0x39,0x00,Read,ACK
5.768301110,3261,0x39,0x00,Read,NAK
5.770559515,3263,0x38,0x00,Write,ACK
5.770663995,3263,0x38,0x07,Write,ACK
5.770883955,3264,0x39,0x0C,Read,ACK
5.770989560,3264,0x39,0x43,Read,ACK
5.771094980,3264,0x39,0x86,Read,NAK
5.774235715,3266,0x38,0x00,Write,ACK
5.774340200,3266,0x38,0x22,Write,ACK
5.774647090,3267,0x39,0x0C,Read,ACK
5.774752695,3267,0x39,0x00,Read,ACK
5.774857555,3267,0x39,0x00,Read,NAK
5.777590600,3269,0x38,0x00,Write,ACK
5.777695080,3269,0x38,0x07,Write,ACK
5.778001660,3270,0x39,0x0C,Read,ACK
5.778107270,3270,0x39,0x33,Read,ACK
5.778228740,3270,0x39,0x7B,Read,NAK
5.780542105,3272,0x38,0x00,Write,ACK
5.780646585,3272,0x38,0x22,Write,ACK
5.780866545,3273,0x39,0x0C,Read,ACK
5.780972150,3273,0x39,0x00,Read,ACK
5.781077010,3273,0x39,0x00,Read,NAK
5.783922465,3275,0x38,0x00,Write,ACK
5.784026950,3275,0x38,0x07,Write,ACK
5.784262835,3276,0x39,0x0C,Read,ACK
5.784368440,3276,0x39,0x43,Read,ACK
5.784473860,3276,0x39,0x57,Read,NAK
5.786610170,3278,0x38,0x00,Write,ACK
5.786714655,3278,0x38,0x22,Write,ACK
5.786934610,3279,0x39,0x0C,Read,ACK
5.787040220,3279,0x39,0x00,Read,ACK
5.787249870,3279,0x39,0x00,Read,NAK
5.789986975,3281,0x38,0x00,Write,ACK
5.790091460,3281,0x38,0x07,Write,ACK
5.790327340,3282,0x39,0x0C,Read,ACK
5.790432950,3282,0x39,0x3A,Read,ACK
5.790625550,3282,0x39,0x2B,Read,NAK
5.792784220,3284,0x38,0x00,Write,ACK
5.792888705,3284,0x38,0x22,Write,ACK
5.793214645,3285,0x39,0x0C,Read,ACK
5.793320250,3285,0x39,0x00,Read,ACK
5.793425110,3285,0x39,0x00,Read,NAK
5.795513770,3287,0x38,0x00,Write,ACK
5.795704875,3287,0x38,0x07,Write,ACK
5.795924830,3288,0x39,0x0C,Read,ACK
5.796030435,3288,0x39,0x4D,Read,ACK
5.796136045,3288,0x39,0xAF,Read,NAK
5.798855100,3290,0x38,0x00,Write,ACK
5.799046580,3290,0x38,0x22,Write,ACK
5.799284585,3291,0x39,0x0C,Read,ACK
5.799390190,3291,0x39,0x00,Read,ACK
5.799495050,3291,0x39,0x00,Read,NAK
5.801793240,3293,0x38,0x00,Write,ACK
5.801897720,3293,0x38,0x07,Write,ACK
5.802117680,3294,0x39,0x0C,Read,ACK
5.802239210,3294,0x39,0x68,Read,ACK
5.802431565,3294,0x39,0xC2,Read,NAK
5.804438910,3296,0x38,0x00,Write,ACK
5.804543395,3296,0x38,0x22,Write,ACK
5.804763350,3297,0x39,0x0C,Read,ACK
5.804955705,3297,0x39,0x00,Read,ACK
5.805060565,3297,0x39,0x00,Read,NAK
5.807805225,3299,0x38,0x00,Write,ACK
5.807909705,3299,0x38,0x07,Write,ACK
5.808129665,3300,0x39,0x0C,Read,ACK
5.808336380,3300,0x39,0x62,Read,ACK
5.808441800,3300,0x39,0x31,Read,NAK
5.810809125,3302,0x38,0x00,Write,ACK
5.810913610,3302,0x38,0x22,Write,ACK
5.811133565,3303,0x39,0x0C,Read,ACK
5.811257220,3303,0x39,0x00,Read,ACK
5.811362080,3303,0x39,0x00,Read,NAK
5.814585625,3305,0x38,0x00,Write,ACK
5.814690110,3305,0x38,0x07,Write,ACK
5.814910065,3306,0x39,0x0C,Read,ACK
5.815102730,3306,0x39,0x5C,Read,ACK
5.815226325,3306,0x39,0x5F,Read,NAK
5.817979230,3308,0x38,0x00,Write,ACK
5.818083710,3308,0x38,0x22,Write,ACK
5.818406340,3309,0x39,0x0C,Read,ACK
5.818511950,3309,0x39,0x00,Read,ACK
5.818616805,3309,0x39,0x00,Read,NAK
5.820565635,3311,0x38,0x00,Write,ACK
5.820670120,3311,0x38,0x07,Write,ACK
5.820976700,3312,0x39,0x0C,Read,ACK
5.821082305,3312,0x39,0x8E,Read,ACK
5.821206835,3312,0x39,0xEB,Read,NAK
5.824296110,3314,0x38,0x00,Write,ACK
5.824400590,3314,0x38,0x22,Write,ACK
5.824620550,3315,0x39,0x0C,Read,ACK
5.824726155,3315,0x39,0x00,Read,ACK
5.824831015,3315,0x39,0x00,Read,NAK
5.827645995,3317,0x38,0x00,Write,ACK
5.827750480,3317,0x38,0x07,Write,ACK
5.827970435,3318,0x39,0x0C,Read,ACK
5.828076045,3318,0x39,0x70,Read,ACK
5.828197450,3318,0x39,0x21,Read,NAK
5.830429625,3320,0x38,0x00,Write,ACK
5.830534110,3320,0x38,0x22,Write,ACK
5.830754065,3321,0x39,0x0C,Read,ACK
5.830859675,3321,0x39,0x00,Read,ACK
5.831051465,3321,0x39,0x00,Read,NAK
5.833838220,3323,0x38,0x00,Write,ACK
5.833942700,3323,0x38,0x07,Write,ACK
5.834178585,3324,0x39,0x0C,Read,ACK
5.834284195,3324,0x39,0x5B,Read,ACK
5.834476735,3324,0x39,0x6E,Read,NAK
5.836488950,3326,0x38,0x00,Write,ACK
5.836593435,3326,0x38,0x22,Write,ACK
5.836813390,3327,0x39,0x0C,Read,ACK
5.837005620,3327,0x39,0x00,Read,ACK
5.837110480,3327,0x39,0x00,Read,NAK
5.839901665,3329,0x38,0x00,Write,ACK
5.840006150,3329,0x38,0x07,Write,ACK
5.840328405,3330,0x39,0x0C,Read,ACK
5.840434010,3330,0x39,0x34,Read,ACK
5.840539430,3330,0x39,0x09,Read,NAK
5.842702720,3332,0x38,0x00,Write,ACK
5.842894075,3332,0x38,0x22,Write,ACK
5.843114035,3333,0x39,0x0C,Read,ACK
5.843237565,3333,0x39,0x00,Read,ACK
5.843342420,3333,0x39,0x00,Read,NAK
5.845625435,3335,0x38,0x00,Write,ACK
5.845729915,3335,0x38,0x07,Write,ACK
5.845949875,3336,0x39,0x0C,Read,ACK
5.846055480,3336,0x39,0x60,Read,ACK
5.846263075,3336,0x39,0x25,Read,NAK
5.849005610,3338,0x38,0x00,Write,ACK
5.849110095,3338,0x38,0x22,Write,ACK
5.849349035,3339,0x39,0x0C,Read,ACK
5.849454645,3339,0x39,0x00,Read,ACK
5.849645935,3339,0x39,0x00,Read,NAK
5.852607370,3341,0x38,0x00,Write,ACK
5.852711850,3341,0x38,0x07,Write,ACK
5.853018745,3342,0x39,0x0C,Read,ACK
5.853124350,3342,0x39,0x51,Read,ACK
5.853248755,3342,0x39,0xB6,Read,NAK
5.855644495,3344,0x38,0x00,Write,ACK
5.855748980,3344,0x38,0x22,Write,ACK
5.855968935,3345,0x39,0x0C,Read,ACK
5.856074545,3345,0x39,0x00,Read,ACK
5.856195265,3345,0x39,0x00,Read,NAK
5.858882280,3347,0x38,0x00,Write,ACK
5.858986765,3347,0x38,0x07,Write,ACK
5.859224770,3348,0x39,0x0C,Read,ACK
5.859330375,3348,0x39,0x4A,Read,ACK
5.859435795,3348,0x39,0xF5,Read,NAK
5.861752785,3350,0x38,0x00,Write,ACK
5.861857265,3350,0x38,0x22,Write,ACK
5.862077225,3351,0x39,0x0C,Read,ACK
5.862285440,3351,0x39,0x00,Read,ACK
5.862390295,3351,0x39,0x00,Read,NAK
5.865058515,3353,0x38,0x00,Write,ACK
5.865181920,3353,0x38,0x07,Write,ACK
5.865401880,3354,0x39,0x0C,Read,ACK
5.865594420,3354,0x39,0x57,Read,ACK
5.865700215,3354,0x39,0x59,Read,NAK
5.867805240,3356,0x38,0x00,Write,ACK
5.867909720,3356,0x38,0x22,Write,ACK
5.868232165,3357,0x39,0x0C,Read,ACK
5.868337770,3357,0x39,0x00,Read,ACK
5.868442630,3357,0x39,0x00,Read,NAK
5.870506055,3359,0x38,0x00,Write,ACK
5.870697350,3359,0x38,0x07,Write,ACK
5.870917305,3360,0x39,0x0C,Read,ACK
5.871022915,3360,0x39,0x61,Read,ACK
5.871128335,3360,0x39,0x43,Read,NAK
5.873520760,3362,0x38,0x00,Write,ACK
5.873625245,3362,0x38,0x22,Write,ACK
5.873845205,3363,0x39,0x0C,Read,ACK
5.874037430,3363,0x39,0x00,Read,ACK
5.874158215,3363,0x39,0x00,Read,NAK
5.876703215,3365,0x38,0x00,Write,ACK
5.876807695,3365,0x38,0x07,Write,ACK
5.877027655,3366,0x39,0x0C,Read,ACK
5.877152250,3366,0x39,0x4E,Read,ACK
5.877344540,3366,0x39,0xFC,Read,NAK
5.879486845,3368,0x38,0x00,Write,ACK
5.879591330,3368,0x38,0x22,Write,ACK
5.879897910,3369,0x39,0x0C,Read,ACK
5.880003515,3369,0x39,0x00,Read,ACK
5.880108370,3369,0x39,0x00,Read,NAK
5.882463580,3371,0x38,0x00,Write,ACK
5.882568060,3371,0x38,0x07,Write,ACK
5.882788020,3372,0x39,0x0C,Read,ACK
5.882893625,3372,0x39,0x52,Read,ACK
5.882999045,3372,0x39,0x74,Read,NAK
5.886022185,3374,0x38,0x00,Write,ACK
5.886142530,3374,0x38,0x22,Write,ACK
5.886362485,3375,0x39,0x0C,Read,ACK
5.886468095,3375,0x39,0x00,Read,ACK
5.886659385,3375,0x39,0x00,Read,NAK
5.889360580,3377,0x38,0x00,Write,ACK
5.889465060,3377,0x38,0x07,Write,ACK
5.889685020,3378,0x39,0x0C,Read,ACK
5.889790625,3378,0x39,0x59,Read,ACK
5.889896235,3378,0x39,0x74,Read,NAK
5.892875780,3380,0x38,0x00,Write,ACK
5.892980260,3380,0x38,0x22,Write,ACK
5.893219140,3381,0x39,0x0C,Read,ACK
5.893324750,3381,0x39,0x00,Read,ACK
5.893516105,3381,0x39,0x00,Read,NAK
5.895605265,3383,0x38,0x00,Write,ACK
5.895709745,3383,0x38,0x07,Write,ACK
5.896016200,3384,0x39,0x0C,Read,ACK
5.896137735,3384,0x39,0x51,Read,ACK
5.896243155,3384,0x39,0xF5,Read,NAK
5.898373030,3386,0x38,0x00,Write,ACK
5.898564010,3386,0x38,0x22,Write,ACK
5.898783970,3387,0x39,0x0C,Read,ACK
5.898889575,3387,0x39,0x00,Read,ACK
5.898994435,3387,0x39,0x00,Read,NAK
5.902020880,3389,0x38,0x00,Write,ACK
5.902141225,3389,0x38,0x07,Write,ACK
5.902361185,3390,0x39,0x0C,Read,ACK
5.902466790,3390,0x39,0x5D,Read,ACK
5.902572585,3390,0x39,0xDE,Read,NAK
5.904627770,3392,0x38,0x00,Write,ACK
5.904732255,3392,0x38,0x22,Write,ACK
5.904952210,3393,0x39,0x0C,Read,ACK
5.905057820,3393,0x39,0x00,Read,ACK
5.905268285,3393,0x39,0x00,Read,NAK
5.907424080,3395,0x38,0x00,Write,ACK
5.907528560,3395,0x38,0x07,Write,ACK
5.907835330,3396,0x39,0x0C,Read,ACK
5.907940935,3396,0x39,0x60,Read,ACK
5.908046170,3396,0x39,0x65,Read,NAK
5.910691155,3398,0x38,0x00,Write,ACK
5.910795635,3398,0x38,0x22,Write,ACK
5.911015595,3399,0x39,0x0C,Read,ACK
5.911225685,3399,0x39,0x00,Read,ACK
5.911330545,3399,0x39,0x00,Read,NAK
5.913544295,3401,0x38,0x00,Write,ACK
5.913735400,3401,0x38,0x07,Write,ACK
5.913955355,3402,0x39,0x0C,Read,ACK
5.914060965,3402,0x39,0x62,Read,ACK
5.914182310,3402,0x39,0xAF,Read,NAK
5.916836725,3404,0x38,0x00,Write,ACK
5.916941210,3404,0x38,0x22,Write,ACK
5.917266525,3405,0x39,0x0C,Read,ACK
5.917372130,3405,0x39,0x00,Read,ACK
5.917476990,3405,0x39,0x00,Read,NAK
5.919640280,3407,0x38,0x00,Write,ACK
5.919744765,3407,0x38,0x07,Write,ACK
5.919964720,3408,0x39,0x0C,Read,ACK
5.920070325,3408,0x39,0x62,Read,ACK
5.920191610,3408,0x39,0x21,Read,NAK
5.924184260,3410,0x38,0x00,Write,ACK
5.924288740,3410,0x38,0x22,Write,ACK
5.924508700,3411,0x39,0x0C,Read,ACK
5.924700930,3411,0x39,0x00,Read,ACK
5.924805785,3411,0x39,0x00,Read,NAK
5.928311180,3413,0x38,0x00,Write,ACK
5.928415660,3413,0x38,0x07,Write,ACK
5.928635620,3414,0x39,0x0C,Read,ACK
5.928741225,3414,0x39,0x7E,Read,ACK
5.928933580,3414,0x39,0x11,Read,NAK
5.931828940,3416,0x38,0x00,Write,ACK
5.931933420,3416,0x38,0x22,Write,ACK
5.932256240,3417,0x39,0x0C,Read,ACK
5.932361845,3417,0x39,0x00,Read,ACK
5.932466705,3417,0x39,0x00,Read,NAK
5.934533755,3419,0x38,0x00,Write,ACK
5.934724795,3419,0x38,0x07,Write,ACK
5.934944755,3420,0x39,0x0C,Read,ACK
5.935050360,3420,0x39,0x60,Read,ACK
5.935173645,3420,0x39,0x73,Read,NAK
5.937890575,3422,0x38,0x00,Write,ACK
5.937995060,3422,0x38,0x22,Write,ACK
5.938317435,3423,0x39,0x0C,Read,ACK
5.938423045,3423,0x39,0x00,Read,ACK
5.938527900,3423,0x39,0x00,Read,NAK
5.940497465,3425,0x38,0x00,Write,ACK
5.940689130,3425,0x38,0x07,Write,ACK
5.940909090,3426,0x39,0x0C,Read,ACK
5.941014695,3426,0x39,0x67,Read,ACK
5.941139415,3426,0x39,0x75,Read,NAK
5.943470515,3428,0x38,0x00,Write,ACK
5.943575000,3428,0x38,0x22,Write,ACK
5.943794955,3429,0x39,0x0C,Read,ACK
5.943900560,3429,0x39,0x00,Read,ACK
5.944107840,3429,0x39,0x00,Read,NAK
5.946820275,3431,0x38,0x00,Write,ACK
5.946924760,3431,0x38,0x07,Write,ACK
5.947162765,3432,0x39,0x0C,Read,ACK
5.947268375,3432,0x39,0x79,Read,ACK
5.947460915,3432,0x39,0xCD,Read,NAK
5.949586170,3434,0x38,0x00,Write,ACK
5.949690655,3434,0x38,0x22,Write,ACK
5.949997545,3435,0x39,0x0C,Read,ACK
5.950119015,3435,0x39,0x00,Read,ACK
5.950223875,3435,0x39,0x00,Read,NAK
5.952411270,3437,0x38,0x00,Write,ACK
5.952515755,3437,0x38,0x07,Write,ACK
5.952735710,3438,0x39,0x0C,Read,ACK
5.952841320,3438,0x39,0x56,Read,ACK
5.952946925,3438,0x39,0xBB,Read,NAK
5.955837790,3440,0x38,0x00,Write,ACK
5.955942270,3440,0x38,0x22,Write,ACK
5.956178155,3441,0x39,0x0C,Read,ACK
5.956283760,3441,0x39,0x00,Read,ACK
5.956388620,3441,0x39,0x00,Read,NAK
5.958516935,3443,0x38,0x00,Write,ACK
5.958621420,3443,0x38,0x07,Write,ACK
5.958841375,3444,0x39,0x0C,Read,ACK
5.958946985,3444,0x39,0x69,Read,ACK
5.959156950,3444,0x39,0xFF,Read,NAK
5.962278385,3446,0x38,0x00,Write,ACK
5.962469425,3446,0x38,0x22,Write,ACK
5.962689385,3447,0x39,0x0C,Read,ACK
5.962794990,3447,0x39,0x00,Read,ACK
5.962899850,3447,0x39,0x00,Read,NAK
5.966443465,3449,0x38,0x00,Write,ACK
5.966670665,3449,0x38,0x07,Write,ACK
5.966890625,3450,0x39,0x0C,Read,ACK
5.966996230,3450,0x39,0x61,Read,ACK
5.967119640,3450,0x39,0xF1,Read,NAK
5.969872915,3452,0x38,0x00,Write,ACK
5.970080195,3452,0x38,0x22,Write,ACK
5.970300155,3453,0x39,0x0C,Read,ACK
5.970405760,3453,0x39,0x00,Read,ACK
5.970510620,3453,0x39,0x00,Read,NAK
5.972670350,3455,0x38,0x00,Write,ACK
5.972774835,3455,0x38,0x07,Write,ACK
5.972994790,3456,0x39,0x0C,Read,ACK
5.973119385,3456,0x39,0x68,Read,ACK
5.973224805,3456,0x39,0x29,Read,NAK
5.975422315,3458,0x38,0x00,Write,ACK
5.975526800,3458,0x38,0x22,Write,ACK
5.975746760,3459,0x39,0x0C,Read,ACK
5.975938610,3459,0x39,0x00,Read,ACK
5.976043470,3459,0x39,0x00,Read,NAK
5.978740040,3461,0x38,0x00,Write,ACK
5.978844525,3461,0x38,0x07,Write,ACK
5.979082530,3462,0x39,0x0C,Read,ACK
5.979274700,3462,0x39,0x61,Read,ACK
5.979380115,3462,0x39,0xE0,Read,NAK
5.981645330,3464,0x38,0x00,Write,ACK
5.981836620,3464,0x38,0x22,Write,ACK
5.982072505,3465,0x39,0x0C,Read,ACK
5.982178110,3465,0x39,0x00,Read,ACK
5.982282970,3465,0x39,0x00,Read,NAK
5.984388990,3467,0x38,0x00,Write,ACK
5.984493475,3467,0x38,0x07,Write,ACK
5.984713435,3468,0x39,0x0C,Read,ACK
5.984819040,3468,0x39,0x64,Read,ACK
5.984924460,3468,0x39,0x0C,Read,NAK
5.987720645,3470,0x38,0x00,Write,ACK
5.987825125,3470,0x38,0x22,Write,ACK
5.988061010,3471,0x39,0x0C,Read,ACK
5.988166615,3471,0x39,0x00,Read,ACK
5.988271475,3471,0x39,0x00,Read,NAK
5.990565540,3473,0x38,0x00,Write,ACK
5.990670025,3473,0x38,0x07,Write,ACK
5.990889980,3474,0x39,0x0C,Read,ACK
5.991100445,3474,0x39,0x69,Read,ACK
5.991206055,3474,0x39,0xEF,Read,NAK
5.993437480,3476,0x38,0x00,Write,ACK
5.993629020,3476,0x38,0x22,Write,ACK
5.993848980,3477,0x39,0x0C,Read,ACK
5.993954585,3477,0x39,0x00,Read,ACK
5.994075245,3477,0x39,0x00,Read,NAK
5.996712550,3479,0x38,0x00,Write,ACK
5.996817030,3479,0x38,0x07,Write,ACK
5.997142785,3480,0x39,0x0C,Read,ACK
5.997248390,3480,0x39,0x4B,Read,ACK
5.997354000,3480,0x39,0x74,Read,NAK
5.999763600,3482,0x38,0x00,Write,ACK
5.999868085,3482,0x38,0x22,Write,ACK
6.000103965,3483,0x39,0x0C,Read,ACK
6.000209575,3483,0x39,0x00,Read,ACK
6.000401115,3483,0x39,0x00,Read,NAK
6.003313150,3485,0x38,0x00,Write,ACK
6.003417630,3485,0x38,0x07,Write,ACK
6.003724025,3486,0x39,0x0C,Read,ACK
6.003829630,3486,0x39,0x4E,Read,ACK
6.003935240,3486,0x39,0x0E,Read,NAK
6.006704070,3488,0x38,0x00,Write,ACK
6.006808550,3488,0x38,0x22,Write,ACK
6.007133365,3489,0x39,0x0C,Read,ACK
6.007238975,3489,0x39,0x00,Read,ACK
6.007343830,3489,0x39,0x00,Read,NAK
6.009432865,3491,0x38,0x00,Write,ACK
6.009624280,3491,0x38,0x07,Write,ACK
6.009844240,3492,0x39,0x0C,Read,ACK
6.009949845,3492,0x39,0x58,Read,ACK
6.010071190,3492,0x39,0x0D,Read,NAK
6.014300350,3494,0x38,0x00,Write,ACK
6.014404830,3494,0x38,0x22,Write,ACK
6.014711100,3495,0x39,0x0C,Read,ACK
6.014816705,3495,0x39,0x00,Read,ACK
6.014921565,3495,0x39,0x00,Read,NAK
6.016572375,3497,0x38,0x21,Write,ACK
6.016647445,3497,0x38,0x02,Write,ACK
6.016722510,3497,0x38,0x00,Write,ACK
6.016797580,3497,0x38,0x00,Write,ACK
6.016969445,3499,0x38,0x21,Write,ACK
6.017175605,3499,0x38,0x03,Write,ACK
6.017250670,3499,0x38,0x00,Write,ACK
6.017325740,3499,0x38,0x00,Write,ACK
6.019054605,3502,0x38,0x00,Write,ACK
6.019159085,3502,0x38,0x07,Write,ACK
6.019379045,3503,0x39,0x0C,Read,ACK
6.019484650,3503,0x39,0x5A,Read,ACK
6.019590260,3503,0x39,0xB2,Read,NAK
6.021120975,3505,0x38,0x00,Write,ACK
6.021195855,3505,0x38,0x00,Write,ACK
6.021270735,3505,0x38,0x00,Write,ACK
6.021432550,3505,0x38,0x06,Write,ACK
6.021507430,3505,0x38,0x00,Write,ACK
6.021682295,3507,0x38,0x00,Write,ACK
6.021757180,3507,0x38,0x00,Write,ACK
6.021832060,3507,0x38,0x00,Write,ACK
6.021906940,3507,0x38,0x00,Write,ACK
6.021981825,3507,0x38,0xC0,Write,ACK
6.022259295,3509,0x38,0x08,Write,ACK
6.022334175,3509,0x38,0x3B,Write,ACK
6.022409055,3509,0x38,0x06,Write,ACK
6.022483940,3509,0x38,0x98,Write,ACK
6.022658805,3511,0x38,0x08,Write,ACK
6.022733685,3511,0x38,0x3C,Write,ACK
6.022808565,3511,0x38,0x00,Write,ACK
6.022883445,3511,0x38,0x00,Write,ACK
6.023162920,3513,0x38,0x08,Write,ACK
6.023237800,3513,0x38,0x3D,Write,ACK
6.023312680,3513,0x38,0x01,Write,ACK
6.023387560,3513,0x38,0x75,Write,ACK
6.023562430,3515,0x38,0x08,Write,ACK
6.023637310,3515,0x38,0x7B,Write,ACK
6.023712190,3515,0x38,0x07,Write,ACK
6.023787075,3515,0x38,0xFF,Write,ACK
6.024773630,3517,0x38,0x08,Write,ACK
6.024848700,3517,0x38,0x7F,Write,ACK
6.024923765,3517,0x38,0x03,Write,ACK
6.024998840,3517,0x38,0xF8,Write,ACK
6.025194125,3519,0x38,0x08,Write,ACK
6.025269195,3519,0x38,0x80,Write,ACK
6.025344260,3519,0x38,0x02,Write,ACK
6.025419325,3519,0x38,0x08,Write,ACK
6.025956420,3521,0x38,0x08,Write,ACK
6.026047350,3521,0x38,0x21,Write,ACK
6.026122415,3521,0x38,0x0D,Write,ACK
6.026197490,3521,0x38,0x9D,Write,ACK
6.026460720,3523,0x38,0x08,Write,ACK
6.026535790,3523,0x38,0x45,Write,ACK
6.026610860,3523,0x38,0x07,Write,ACK
6.026685925,3523,0x38,0x30,Write,ACK
6.029602455,3525,0x38,0x08,Write,ACK
6.029677525,3525,0x38,0x54,Write,ACK
6.029839465,3525,0x38,0x03,Write,ACK
6.029914535,3525,0x38,0xAD,Write,ACK
6.030106695,3527,0x38,0x08,Write,ACK
6.030181765,3527,0x38,0x55,Write,ACK
6.030256835,3527,0x38,0x01,Write,ACK
6.030331900,3527,0x38,0x72,Write,ACK
6.030508205,3529,0x38,0x08,Write,ACK
6.030670395,3529,0x38,0x56,Write,ACK
6.030745460,3529,0x38,0x02,Write,ACK
6.030820530,3529,0x38,0xD6,Write,ACK
6.030996830,3531,0x38,0x08,Write,ACK
6.031089950,3531,0x38,0x52,Write,ACK
6.031165015,3531,0x38,0x00,Write,ACK
6.031240085,3531,0x38,0x1D,Write,ACK
6.032238630,3534,0x38,0x00,Write,ACK
6.032467080,3534,0x38,0x22,Write,ACK
6.032687040,3535,0x39,0x0C,Read,ACK
6.032792645,3535,0x39,0x05,Read,ACK
6.032897880,3535,0x39,0x21,Read,NAK
6.033457270,3537,0x38,0x08,Write,ACK
6.033532340,3537,0x38,0x53,Write,ACK
6.033607405,3537,0x38,0x00,Write,ACK
6.033682475,3537,0x38,0x1D,Write,ACK
6.033858780,3539,0x38,0x08,Write,ACK
6.034037080,3539,0x38,0x59,Write,ACK
6.034112145,3539,0x38,0x0F,Write,ACK
6.034187220,3539,0x38,0xFF,Write,ACK
6.035825965,3542,0x38,0x00,Write,ACK
6.035930445,3542,0x38,0x07,Write,ACK
6.036166330,3543,0x39,0x0C,Read,ACK
6.036271935,3543,0x39,0x35,Read,ACK
6.036377545,3543,0x39,0xC5,Read,NAK
6.039176545,3545,0x38,0x08,Write,ACK
6.039251610,3545,0x38,0x6C,Write,ACK
6.039326680,3545,0x38,0x00,Write,ACK
6.039401745,3545,0x38,0x04,Write,ACK
6.039578050,3547,0x38,0x08,Write,ACK
6.039653115,3547,0x38,0x6D,Write,ACK
6.039728185,3547,0x38,0x0F,Write,ACK
6.039803255,3547,0x38,0xF0,Write,ACK
6.040082290,3549,0x38,0x08,Write,ACK
6.040157360,3549,0x38,0x74,Write,ACK
6.040232425,3549,0x38,0x02,Write,ACK
6.040307495,3549,0x38,0x07,Write,ACK
6.040483800,3551,0x38,0x08,Write,ACK
6.040558865,3551,0x38,0x75,Write,ACK
6.040633935,3551,0x38,0x0F,Write,ACK
6.040795750,3551,0x38,0x98,Write,ACK
6.041165150,3554,0x38,0x00,Write,ACK
6.041269630,3554,0x38,0x22,Write,ACK
6.041489590,3555,0x39,0x0C,Read,ACK
6.041682130,3555,0x39,0x06,Read,ACK
6.041787360,3555,0x39,0x36,Read,NAK
6.042540295,3557,0x38,0x08,Write,ACK
6.042615365,3557,0x38,0x76,Write,ACK
6.042690430,3557,0x38,0x00,Write,ACK
6.042765500,3557,0x38,0x0E,Write,ACK
6.042941800,3559,0x38,0x08,Write,ACK
6.043035480,3559,0x38,0x78,Write,ACK
6.043110550,3559,0x38,0x0F,Write,ACK
6.043185620,3559,0x38,0xFB,Write,ACK
6.043448355,3561,0x38,0x08,Write,ACK
6.043523420,3561,0x38,0x47,Write,ACK
6.043598490,3561,0x38,0x0C,Write,ACK
6.043673560,3561,0x38,0xD5,Write,ACK
6.043849860,3563,0x38,0x08,Write,ACK
6.043924930,3563,0x38,0x48,Write,ACK
6.044127400,3563,0x38,0x00,Write,ACK
6.044202470,3563,0x38,0xD0,Write,ACK
6.044583360,3566,0x38,0x00,Write,ACK
6.044687840,3566,0x38,0x07,Write,ACK
6.044994360,3567,0x39,0x0C,Read,ACK
6.045118265,3567,0x39,0x53,Read,ACK
6.045223870,3567,0x39,0xE1,Read,NAK
6.047052985,3569,0x38,0x08,Write,ACK
6.047128055,3569,0x38,0x49,Write,ACK
6.047203120,3569,0x38,0x06,Write,ACK
6.047278190,3569,0x38,0x5A,Write,ACK
6.047540925,3571,0x38,0x08,Write,ACK
6.047615995,3571,0x38,0x63,Write,ACK
6.047691060,3571,0x38,0x0A,Write,ACK
6.047766130,3571,0x38,0x8B,Write,ACK
6.047942430,3573,0x38,0x08,Write,ACK
6.048033490,3573,0x38,0x64,Write,ACK
6.048108555,3573,0x38,0x01,Write,ACK
6.048183625,3573,0x38,0x4C,Write,ACK
6.048446550,3575,0x38,0x08,Write,ACK
6.048521615,3575,0x38,0x65,Write,ACK
6.048596685,3575,0x38,0x00,Write,ACK
6.048671755,3575,0x38,0x1D,Write,ACK
6.048848055,3577,0x38,0x08,Write,ACK
6.048923125,3577,0x38,0x67,Write,ACK
6.049017240,3577,0x38,0x0F,Write,ACK
6.049178935,3577,0x38,0xFB,Write,ACK
6.049529530,3580,0x38,0x00,Write,ACK
6.049634015,3580,0x38,0x22,Write,ACK
6.049853970,3581,0x39,0x0C,Read,ACK
6.050062125,3581,0x39,0x0E,Read,ACK
6.050167545,3581,0x39,0x35,Read,NAK
6.050690840,3583,0x38,0x08,Write,ACK
6.050765910,3583,0x38,0x5A,Write,ACK
6.050927725,3583,0x38,0x0D,Write,ACK
6.051021400,3583,0x38,0x70,Write,ACK
6.051197705,3585,0x38,0x08,Write,ACK
6.051272770,3585,0x38,0x5B,Write,ACK
6.051347840,3585,0x38,0x01,Write,ACK
6.051422910,3585,0x38,0x55,Write,ACK
6.051599210,3587,0x38,0x08,Write,ACK
6.051761025,3587,0x38,0x5C,Write,ACK
6.051836095,3587,0x38,0x00,Write,ACK
6.051911160,3587,0x38,0x05,Write,ACK
6.052128120,3589,0x38,0x08,Write,ACK
6.052203190,3589,0x38,0x5E,Write,ACK
6.052278260,3589,0x38,0x0F,Write,ACK
6.052353330,3589,0x38,0xFB,Write,ACK
6.052790235,3592,0x38,0x00,Write,ACK
6.052894720,3592,0x38,0x07,Write,ACK
6.053132975,3593,0x39,0x0C,Read,ACK
6.053238585,3593,0x39,0x5F,Read,ACK
6.053431125,3593,0x39,0x08,Read,NAK
6.056494230,3595,0x38,0x00,Write,ACK
6.056598715,3595,0x38,0x22,Write,ACK
6.056904980,3596,0x39,0x0C,Read,ACK
6.057029570,3596,0x39,0x05,Read,ACK
6.057134805,3596,0x39,0xF0,Read,NAK
6.057674835,3598,0x38,0x08,Write,ACK
6.057749905,3598,0x38,0x6E,Write,ACK
6.057824975,3598,0x38,0x07,Write,ACK
6.057900045,3598,0x38,0xFF,Write,ACK
6.058092770,3600,0x38,0x08,Write,ACK
6.058167835,3600,0x38,0x6F,Write,ACK
6.058242905,3600,0x38,0x00,Write,ACK
6.058317970,3600,0x38,0x00,Write,ACK
6.058580645,3602,0x38,0x08,Write,ACK
6.058655715,3602,0x38,0x70,Write,ACK
6.058730785,3602,0x38,0x07,Write,ACK
6.058805855,3602,0x38,0xFF,Write,ACK
6.058982155,3604,0x38,0x08,Write,ACK
6.059100750,3604,0x38,0x79,Write,ACK
6.059175820,3604,0x38,0x00,Write,ACK
6.059337320,3604,0x38,0x00,Write,ACK
6.060437855,3607,0x38,0x00,Write,ACK
6.060542335,3607,0x38,0x07,Write,ACK
6.060762295,3608,0x39,0x0C,Read,ACK
6.060867900,3608,0x39,0x34,Read,ACK
6.061078555,3608,0x39,0x9E,Read,NAK
6.062907355,3610,0x38,0x08,Write,ACK
6.062982420,3610,0x38,0x35,Write,ACK
6.063100955,3610,0x38,0x04,Write,ACK
6.063176030,3610,0x38,0xC9,Write,ACK
6.063352325,3612,0x38,0x08,Write,ACK
6.063514015,3612,0x38,0x1D,Write,ACK
6.063589085,3612,0x38,0x02,Write,ACK
6.063664155,3612,0x38,0x76,Write,ACK
6.063739220,3612,0x38,0x0F,Write,ACK
6.063814290,3612,0x38,0x62,Write,ACK
6.064006520,3614,0x38,0x08,Write,ACK
6.064081585,3614,0x38,0x68,Write,ACK
6.064156655,3614,0x38,0x03,Write,ACK
6.064231720,3614,0x38,0x51,Write,ACK
6.064393475,3614,0x38,0x0E,Write,ACK
6.064468545,3614,0x38,0xD6,Write,ACK
6.064849555,3617,0x38,0x00,Write,ACK
6.064954040,3617,0x38,0x22,Write,ACK
6.065279540,3618,0x39,0x0C,Read,ACK
6.065385150,3618,0x39,0x06,Read,ACK
6.065490380,3618,0x39,0xE2,Read,NAK
6.066246750,3620,0x38,0x08,Write,ACK
6.066321815,3620,0x38,0x7A,Write,ACK
6.066396885,3620,0x38,0x07,Write,ACK
6.066471955,3620,0x38,0xFF,Write,ACK
6.066648255,3622,0x38,0x1F,Write,ACK
6.066723325,3622,0x38,0xF8,Write,ACK
6.066884825,3622,0x38,0x6F,Write,ACK
6.066959895,3622,0x38,0x02,Write,ACK
6.067078370,3622,0x38,0xB1,Write,ACK
6.067255295,3624,0x38,0x08,Write,ACK
6.067330365,3624,0x38,0x84,Write,ACK
6.067405430,3624,0x38,0x05,Write,ACK
6.067480500,3624,0x38,0x9E,Write,ACK
6.067738925,3626,0x38,0x08,Write,ACK
6.067813995,3626,0x38,0x82,Write,ACK
6.067889060,3626,0x38,0x02,Write,ACK
6.067964130,3626,0x38,0x60,Write,ACK
6.068325100,3629,0x38,0x00,Write,ACK
6.068429580,3629,0x38,0x07,Write,ACK
6.068736160,3630,0x39,0x0C,Read,ACK
6.068841770,3630,0x39,0x3D,Read,ACK
6.068947565,3630,0x39,0xC3,Read,NAK
6.071613910,3632,0x38,0x00,Write,ACK
6.071718390,3632,0x38,0x22,Write,ACK
6.072040835,3633,0x39,0x0C,Read,ACK
6.072146440,3633,0x39,0x06,Read,ACK
6.072251675,3633,0x39,0xD7,Read,NAK
6.072791205,3635,0x38,0x11,Write,ACK
6.072866275,3635,0x38,0xE9,Write,ACK
6.072941340,3635,0x38,0x00,Write,ACK
6.073035955,3635,0x38,0x00,Write,ACK
6.073111025,3635,0x38,0x48,Write,ACK
6.073287325,3637,0x38,0x11,Write,ACK
6.073362395,3637,0x38,0x3E,Write,ACK
6.073437465,3637,0x38,0x00,Write,ACK
6.073512530,3637,0x38,0x08,Write,ACK
6.073674845,3637,0x38,0x7D,Write,ACK
6.073851150,3639,0x38,0x11,Write,ACK
6.073926215,3639,0x38,0x3E,Write,ACK
6.074042625,3639,0x38,0x00,Write,ACK
6.074117695,3639,0x38,0x08,Write,ACK
6.074192765,3639,0x38,0x1C,Write,ACK
6.074629860,3642,0x38,0x00,Write,ACK
6.074734345,3642,0x38,0x07,Write,ACK
6.074954305,3643,0x39,0x0C,Read,ACK
6.075077960,3643,0x39,0x3A,Read,ACK
6.075183565,3643,0x39,0x1C,Read,NAK
6.075807035,3645,0x38,0x11,Write,ACK
6.075882100,3645,0x38,0x38,Write,ACK
6.075957175,3645,0x38,0xDF,Write,ACK
6.076176755,3645,0x38,0xFF,Write,ACK
6.076251825,3645,0x38,0xFF,Write,ACK
6.076428125,3647,0x38,0x11,Write,ACK
6.076503190,3647,0x38,0x39,Write,ACK
6.076578260,3647,0x38,0x20,Write,ACK
6.076653330,3647,0x38,0x00,Write,ACK
6.076728395,3647,0x38,0x00,Write,ACK
6.077035225,3649,0x38,0x11,Write,ACK
6.077110295,3649,0x38,0x3A,Write,ACK
6.077185360,3649,0x38,0x7F,Write,ACK
6.077260430,3649,0x38,0xCF,Write,ACK
6.077335500,3649,0x38,0xFF,Write,ACK
6.077511800,3651,0x38,0x11,Write,ACK
6.077586865,3651,0x38,0x3B,Write,ACK
6.077661935,3651,0x38,0x00,Write,ACK
6.077823875,3651,0x38,0x10,Write,ACK
6.077898945,3651,0x38,0x00,Write,ACK
6.078336230,3654,0x38,0x00,Write,ACK
6.078440710,3654,0x38,0x22,Write,ACK
6.078747540,3655,0x39,0x0C,Read,ACK
6.078853150,3655,0x39,0x08,Read,ACK
6.078958195,3655,0x39,0xEC,Read,NAK
6.080878300,3657,0x38,0x11,Write,ACK
6.080953365,3657,0x38,0x3C,Write,ACK
6.081072780,3657,0x38,0xFF,Write,ACK
6.081234780,3657,0x38,0xFF,Write,ACK
6.081309850,3657,0x38,0xFF,Write,ACK
6.081486150,3659,0x38,0x11,Write,ACK
6.081561215,3659,0x38,0x3D,Write,ACK
6.081636285,3659,0x38,0x00,Write,ACK
6.081711350,3659,0x38,0x00,Write,ACK
6.081786420,3659,0x38,0x00,Write,ACK
6.081962725,3661,0x38,0x11,Write,ACK
6.082140650,3661,0x38,0x3E,Write,ACK
6.082215720,3661,0x38,0x00,Write,ACK
6.082290785,3661,0x38,0x08,Write,ACK
6.082365860,3661,0x38,0xF3,Write,ACK
6.082746685,3664,0x38,0x00,Write,ACK
6.082851165,3664,0x38,0x07,Write,ACK
6.083176105,3665,0x39,0x0C,Read,ACK
6.083281715,3665,0x39,0x28,Read,ACK
6.083386945,3665,0x39,0xD3,Read,NAK
6.084027215,3667,0x38,0x11,Write,ACK
6.084102285,3667,0x38,0x3E,Write,ACK
6.084177350,3667,0x38,0x00,Write,ACK
6.084252420,3667,0x38,0x09,Write,ACK
6.084327485,3667,0x38,0x05,Write,ACK
6.084503790,3669,0x38,0x11,Write,ACK
6.084665605,3669,0x38,0x3E,Write,ACK
6.084740670,3669,0x38,0x00,Write,ACK
6.084815740,3669,0x38,0x09,Write,ACK
6.084890810,3669,0x38,0x0E,Write,ACK
6.085285690,3672,0x38,0x00,Write,ACK
6.085390170,3672,0x38,0x22,Write,ACK
6.085696940,3673,0x39,0x0C,Read,ACK
6.085802545,3673,0x39,0x08,Read,ACK
6.085907590,3673,0x39,0xD5,Read,NAK
6.088559570,3675,0x38,0x00,Write,ACK
6.088664055,3675,0x38,0x07,Write,ACK
6.088989805,3676,0x39,0x0C,Read,ACK
6.089095415,3676,0x39,0x39,Read,ACK
6.089201020,3676,0x39,0xEC,Read,NAK
6.089882135,3678,0x38,0x11,Write,ACK
6.089957205,3678,0x38,0xFB,Write,ACK
6.090048695,3678,0x38,0x20,Write,ACK
6.090123760,3678,0x38,0x00,Write,ACK
6.090198830,3678,0x38,0xE3,Write,ACK
6.090375135,3680,0x38,0x11,Write,ACK
6.090450205,3680,0x38,0xFD,Write,ACK
6.090611890,3680,0x38,0x20,Write,ACK
6.090686955,3680,0x38,0x01,Write,ACK
6.090762025,3680,0x38,0x34,Write,ACK
6.090938330,3682,0x38,0x11,Write,ACK
6.091056805,3682,0x38,0xFF,Write,ACK
6.091131870,3682,0x38,0x20,Write,ACK
6.091206935,3682,0x38,0x01,Write,ACK
6.091282005,3682,0x38,0x4E,Write,ACK
6.091545865,3684,0x38,0x21,Write,ACK
6.091620935,3684,0x38,0x01,Write,ACK
6.091696000,3684,0x38,0x01,Write,ACK
6.091771070,3684,0x38,0x43,Write,ACK
6.092132790,3687,0x38,0x00,Write,ACK
6.092324395,3687,0x38,0x22,Write,ACK
6.092544350,3688,0x39,0x0C,Read,ACK
6.092649960,3688,0x39,0x08,Read,ACK
6.092755005,3688,0x39,0xFD,Read,NAK
6.094516230,3690,0x38,0x11,Write,ACK
6.094591300,3690,0x38,0xF5,Write,ACK
6.094666365,3690,0x38,0x20,Write,ACK
6.094828055,3690,0x38,0x01,Write,ACK
6.094903125,3690,0x38,0x17,Write,ACK
6.095118520,3692,0x38,0x11,Write,ACK
6.095193595,3692,0x38,0xF6,Write,ACK
6.095268660,3692,0x38,0x20,Write,ACK
6.095343725,3692,0x38,0x01,Write,ACK
6.095418795,3692,0x38,0x19,Write,ACK
6.095681345,3694,0x38,0x20,Write,ACK
6.095756415,3694,0x38,0xB0,Write,ACK
6.095831480,3694,0x38,0x07,Write,ACK
6.095906550,3694,0x38,0xCC,Write,ACK
6.096099150,3696,0x38,0x20,Write,ACK
6.096174220,3696,0x38,0xB1,Write,ACK
6.096249285,3696,0x38,0x03,Write,ACK
6.096324355,3696,0x38,0x6E,Write,ACK
6.096587655,3698,0x38,0x20,Write,ACK
6.096662725,3698,0x38,0xB2,Write,ACK
6.096737790,3698,0x38,0x0C,Write,ACK
6.096812855,3698,0x38,0x32,Write,ACK
6.097008395,3700,0x38,0x20,Write,ACK
6.097083465,3700,0x38,0xB3,Write,ACK
6.097158530,3700,0x38,0x02,Write,ACK
6.097320160,3700,0x38,0x6F,Write,ACK
6.097496775,3702,0x38,0x20,Write,ACK
6.097571845,3702,0x38,0xB4,Write,ACK
6.097646910,3702,0x38,0x01,Write,ACK
6.097721980,3702,0x38,0xF3,Write,ACK
6.097898595,3704,0x38,0x20,Write,ACK
6.097989525,3704,0x38,0xB5,Write,ACK
6.098187250,3704,0x38,0x02,Write,ACK
6.098262315,3704,0x38,0x1F,Write,ACK
6.098438930,3706,0x38,0x20,Write,ACK
6.098514005,3706,0x38,0xB6,Write,ACK
6.098589070,3706,0x38,0x0C,Write,ACK
6.098664135,3706,0x38,0x19,Write,ACK
6.098840750,3708,0x38,0x20,Write,ACK
6.099020430,3708,0x38,0xB7,Write,ACK
6.099095495,3708,0x38,0x03,Write,ACK
6.099170565,3708,0x38,0xC0,Write,ACK
6.099347180,3710,0x38,0x20,Write,ACK
6.099422250,3710,0x38,0xB8,Write,ACK
6.099497315,3710,0x38,0x01,Write,ACK
6.099572385,3710,0x38,0xF3,Write,ACK
6.099835680,3712,0x38,0x20,Write,ACK
6.099910750,3712,0x38,0xB9,Write,ACK
6.100001120,3712,0x38,0x02,Write,ACK
6.100076185,3712,0x38,0x1F,Write,ACK
6.100252800,3714,0x38,0x20,Write,ACK
6.100327870,3714,0x38,0xBA,Write,ACK
6.100402935,3714,0x38,0x00,Write,ACK
6.100478005,3714,0x38,0x00,Write,ACK
6.100741680,3716,0x38,0x20,Write,ACK
6.100816750,3716,0x38,0xBB,Write,ACK
6.100891815,3716,0x38,0x00,Write,ACK
6.100985120,3716,0x38,0x00,Write,ACK
6.101161735,3718,0x38,0x20,Write,ACK
6.101236805,3718,0x38,0xBC,Write,ACK
6.101311870,3718,0x38,0x07,Write,ACK
6.101386940,3718,0x38,0xFF,Write,ACK
6.101650425,3720,0x38,0x20,Write,ACK
6.101725495,3720,0x38,0xBD,Write,ACK
6.101800560,3720,0x38,0x07,Write,ACK
6.101875630,3720,0x38,0xFF,Write,ACK
6.102067480,3722,0x38,0x20,Write,ACK
6.102142555,3722,0x38,0xBE,Write,ACK
6.102217620,3722,0x38,0x00,Write,ACK
6.102379060,3722,0x38,0x00,Write,ACK
6.102555675,3724,0x38,0x20,Write,ACK
6.102630745,3724,0x38,0xBF,Write,ACK
6.102705810,3724,0x38,0x00,Write,ACK
6.102780875,3724,0x38,0x00,Write,ACK
6.103233090,3727,0x38,0x00,Write,ACK
6.103337570,3727,0x38,0x07,Write,ACK
6.103557530,3728,0x39,0x0C,Read,ACK
6.103663135,3728,0x39,0x2D,Read,ACK
6.103768745,3728,0x39,0xD7,Read,NAK
6.105076440,3730,0x38,0x20,Write,ACK
6.105151515,3730,0x38,0xC0,Write,ACK
6.105226575,3730,0x38,0x07,Write,ACK
6.105301650,3730,0x38,0xDD,Write,ACK
6.105478260,3732,0x38,0x20,Write,ACK
6.105553330,3732,0x38,0xC1,Write,ACK
6.105628395,3732,0x38,0x07,Write,ACK
6.105790465,3732,0x38,0xAC,Write,ACK
6.106008420,3734,0x38,0x20,Write,ACK
6.106083490,3734,0x38,0xC2,Write,ACK
6.106158555,3734,0x38,0x0C,Write,ACK
6.106233625,3734,0x38,0x21,Write,ACK
6.106410240,3736,0x38,0x20,Write,ACK
6.106572245,3736,0x38,0xC3,Write,ACK
6.106647310,3736,0x38,0x03,Write,ACK
6.106722380,3736,0x38,0xE0,Write,ACK
6.106898990,3738,0x38,0x20,Write,ACK
6.106992115,3738,0x38,0xC4,Write,ACK
6.107067175,3738,0x38,0x01,Write,ACK
6.107142250,3738,0x38,0xF7,Write,ACK
6.107405855,3740,0x38,0x20,Write,ACK
6.107480930,3740,0x38,0xC5,Write,ACK
6.107555990,3740,0x38,0x04,Write,ACK
6.107631060,3740,0x38,0x79,Write,ACK
6.107807675,3742,0x38,0x20,Write,ACK
6.107882745,3742,0x38,0xC6,Write,ACK
6.107973735,3742,0x38,0x0C,Write,ACK
6.108048805,3742,0x38,0x10,Write,ACK
6.108312355,3744,0x38,0x20,Write,ACK
6.108387425,3744,0x38,0xC7,Write,ACK
6.108462490,3744,0x38,0x07,Write,ACK
6.108537560,3744,0x38,0x0D,Write,ACK
6.108714175,3746,0x38,0x20,Write,ACK
6.108789245,3746,0x38,0xC8,Write,ACK
6.108864310,3746,0x38,0x01,Write,ACK
6.108939380,3746,0x38,0xF7,Write,ACK
6.109221660,3748,0x38,0x20,Write,ACK
6.109296730,3748,0x38,0xC9,Write,ACK
6.109371800,3748,0x38,0x04,Write,ACK
6.109446865,3748,0x38,0x79,Write,ACK
6.109623480,3750,0x38,0x20,Write,ACK
6.109698550,3750,0x38,0xCA,Write,ACK
6.109773615,3750,0x38,0x00,Write,ACK
6.109935245,3750,0x38,0x00,Write,ACK
6.110127160,3752,0x38,0x20,Write,ACK
6.110202230,3752,0x38,0xCB,Write,ACK
6.110277295,3752,0x38,0x00,Write,ACK
6.110352365,3752,0x38,0x00,Write,ACK
6.110528980,3754,0x38,0x20,Write,ACK
6.110604050,3754,0x38,0xCC,Write,ACK
6.110679115,3754,0x38,0x07,Write,ACK
6.110841120,3754,0x38,0xFF,Write,ACK
6.111034970,3756,0x38,0x20,Write,ACK
6.111110040,3756,0x38,0xCD,Write,ACK
6.111185105,3756,0x38,0x07,Write,ACK
6.111260175,3756,0x38,0xFF,Write,ACK
6.111436790,3758,0x38,0x20,Write,ACK
6.111511860,3758,0x38,0xCE,Write,ACK
6.111673980,3758,0x38,0x00,Write,ACK
6.111749050,3758,0x38,0x00,Write,ACK
6.111925665,3760,0x38,0x20,Write,ACK
6.112015975,3760,0x38,0xCF,Write,ACK
6.112091040,3760,0x38,0x00,Write,ACK
6.112166105,3760,0x38,0x00,Write,ACK
6.112860575,3763,0x38,0x00,Write,ACK
6.112983290,3763,0x38,0x22,Write,ACK
6.113203250,3764,0x39,0x0C,Read,ACK
6.113395290,3764,0x39,0x06,Read,ACK
6.113500525,3764,0x39,0xA2,Read,NAK
6.117019160,3766,0x38,0x00,Write,ACK
6.117123640,3766,0x38,0x07,Write,ACK
6.117343600,3767,0x39,0x0C,Read,ACK
6.117536325,3767,0x39,0x23,Read,ACK
6.117641745,3767,0x39,0xEA,Read,NAK
6.120736890,3769,0x38,0x00,Write,ACK
6.120927995,3769,0x38,0x22,Write,ACK
6.121166940,3770,0x39,0x0C,Read,ACK
6.121272545,3770,0x39,0x05,Read,ACK
6.121377780,3770,0x39,0x70,Read,NAK
6.124572220,3772,0x38,0x00,Write,ACK
6.124676705,3772,0x38,0x07,Write,ACK
6.124896660,3773,0x39,0x0C,Read,ACK
6.125108190,3773,0x39,0x1D,Read,ACK
6.125213795,3773,0x39,0x3D,Read,NAK
6.127370465,3775,0x38,0x00,Write,ACK
6.127474950,3775,0x38,0x22,Write,ACK
6.127781590,3776,0x39,0x0C,Read,ACK
6.127887200,3776,0x39,0x06,Read,ACK
6.128008420,3776,0x39,0x0A,Read,NAK
6.131926250,3778,0x38,0x00,Write,ACK
6.132046595,3778,0x38,0x07,Write,ACK
6.132266550,3779,0x39,0x0C,Read,ACK
6.132372160,3779,0x39,0x3A,Read,ACK
6.132477765,3779,0x39,0x6B,Read,NAK
6.134586410,3781,0x38,0x00,Write,ACK
6.134690895,3781,0x38,0x22,Write,ACK
6.134910850,3782,0x39,0x0C,Read,ACK
6.135034505,3782,0x39,0x04,Read,ACK
6.135226235,3782,0x39,0xAC,Read,NAK
6.137333570,3784,0x38,0x00,Write,ACK
6.137438050,3784,0x38,0x07,Write,ACK
6.137745130,3785,0x39,0x0C,Read,ACK
6.137850740,3785,0x39,0x26,Read,ACK
6.137972085,3785,0x39,0x39,Read,NAK
6.140594835,3787,0x38,0x00,Write,ACK
6.140699320,3787,0x38,0x22,Write,ACK
6.140919280,3788,0x39,0x0C,Read,ACK
6.141130680,3788,0x39,0x05,Read,ACK
6.141235910,3788,0x39,0xF3,Read,NAK
6.144282840,3790,0x38,0x00,Write,ACK
6.144473820,3790,0x38,0x07,Write,ACK
6.144693780,3791,0x39,0x0C,Read,ACK
6.144799385,3791,0x39,0x21,Read,ACK
6.144904620,3791,0x39,0x83,Read,NAK
6.147702365,3793,0x38,0x00,Write,ACK
6.147893405,3793,0x38,0x22,Write,ACK
6.148129290,3794,0x39,0x0C,Read,ACK
6.148234895,3794,0x39,0x04,Read,ACK
6.148339940,3794,0x39,0x5F,Read,NAK
6.150468260,3796,0x38,0x00,Write,ACK
6.150572740,3796,0x38,0x07,Write,ACK
6.150792700,3797,0x39,0x0C,Read,ACK
6.150898305,3797,0x39,0x29,Read,ACK
6.151021775,3797,0x39,0xE0,Read,NAK
6.153572145,3799,0x38,0x00,Write,ACK
6.153763500,3799,0x38,0x22,Write,ACK
6.153999385,3800,0x39,0x0C,Read,ACK
6.154104990,3800,0x39,0x05,Read,ACK
6.154210225,3800,0x39,0x03,Read,NAK
6.156904045,3802,0x38,0x00,Write,ACK
6.157113825,3802,0x38,0x07,Write,ACK
6.157333785,3803,0x39,0x0C,Read,ACK
6.157439390,3803,0x39,0x17,Read,ACK
6.157544995,3803,0x39,0x8A,Read,NAK
6.160318075,3805,0x38,0x00,Write,ACK
6.160509240,3805,0x38,0x22,Write,ACK
6.160729200,3806,0x39,0x0C,Read,ACK
6.160834805,3806,0x39,0x03,Read,ACK
6.160959025,3806,0x39,0x7B,Read,NAK
6.163340650,3808,0x38,0x00,Write,ACK
6.163445130,3808,0x38,0x07,Write,ACK
6.163665090,3809,0x39,0x0C,Read,ACK
6.163898975,3809,0x39,0x3D,Read,ACK
6.164020695,3809,0x39,0x64,Read,NAK
6.166814440,3811,0x38,0x00,Write,ACK
6.166936975,3811,0x38,0x22,Write,ACK
6.167243740,3812,0x39,0x0C,Read,ACK
6.167349345,3812,0x39,0x05,Read,ACK
6.167454580,3812,0x39,0x3D,Read,NAK
6.169605565,3814,0x38,0x00,Write,ACK
6.169796360,3814,0x38,0x07,Write,ACK
6.170032240,3815,0x39,0x0C,Read,ACK
6.170137850,3815,0x39,0x4F,Read,ACK
6.170243645,3815,0x39,0xBB,Read,NAK
6.172158250,3817,0x38,0x00,Write,ACK
6.172349230,3817,0x38,0x22,Write,ACK
6.172569185,3818,0x39,0x0C,Read,ACK
6.172674795,3818,0x39,0x05,Read,ACK
6.172780025,3818,0x39,0x13,Read,NAK
6.175471915,3820,0x38,0x00,Write,ACK
6.175663020,3820,0x38,0x07,Write,ACK
6.175882975,3821,0x39,0x0C,Read,ACK
6.176004385,3821,0x39,0x51,Read,ACK
6.176109805,3821,0x39,0x08,Read,NAK
6.178273970,3823,0x38,0x00,Write,ACK
6.178378450,3823,0x38,0x22,Write,ACK
6.178598410,3824,0x39,0x0C,Read,ACK
6.178704015,3824,0x39,0x05,Read,ACK
6.178809250,3824,0x39,0x8D,Read,NAK
6.181790790,3826,0x38,0x00,Write,ACK
6.181911200,3826,0x38,0x07,Write,ACK
6.182131155,3827,0x39,0x0C,Read,ACK
6.182236765,3827,0x39,0x47,Read,ACK
6.182428995,3827,0x39,0xCD,Read,NAK
6.184408110,3829,0x38,0x00,Write,ACK
6.184512595,3829,0x38,0x22,Write,ACK
6.184732550,3830,0x39,0x0C,Read,ACK
6.184944265,3830,0x39,0x04,Read,ACK
6.185049310,3830,0x39,0x75,Read,NAK
6.187208980,3832,0x38,0x00,Write,ACK
6.187313460,3832,0x38,0x07,Write,ACK
6.187619980,3833,0x39,0x0C,Read,ACK
6.187725585,3833,0x39,0x2C,Read,ACK
6.187831005,3833,0x39,0x0C,Read,NAK
6.190839905,3835,0x38,0x00,Write,ACK
6.190962435,3835,0x38,0x22,Write,ACK
6.191182395,3836,0x39,0x0C,Read,ACK
6.191288000,3836,0x39,0x05,Read,ACK
6.191393230,3836,0x39,0xE4,Read,NAK
6.194475200,3838,0x38,0x00,Write,ACK
6.194579680,3838,0x38,0x07,Write,ACK
6.194799640,3839,0x39,0x0C,Read,ACK
6.195009665,3839,0x39,0x40,Read,ACK
6.195114710,3839,0x39,0xDC,Read,NAK
6.197281435,3841,0x38,0x00,Write,ACK
6.197385920,3841,0x38,0x22,Write,ACK
6.197692560,3842,0x39,0x0C,Read,ACK
6.197798170,3842,0x39,0x04,Read,ACK
6.197919075,3842,0x39,0x69,Read,NAK
6.200472260,3844,0x38,0x00,Write,ACK
6.200576740,3844,0x38,0x07,Write,ACK
6.200796700,3845,0x39,0x0C,Read,ACK
6.201007790,3845,0x39,0x43,Read,ACK
6.201113210,3845,0x39,0x04,Read,NAK
6.203438000,3847,0x38,0x00,Write,ACK
6.203542485,3847,0x38,0x22,Write,ACK
6.203762440,3848,0x39,0x0C,Read,ACK
6.203868050,3848,0x39,0x05,Read,ACK
6.203989205,3848,0x39,0xF4,Read,NAK
6.206214760,3850,0x38,0x00,Write,ACK
6.206319245,3850,0x38,0x07,Write,ACK
6.206539205,3851,0x39,0x0C,Read,ACK
6.206731620,3851,0x39,0x1C,Read,ACK
6.206837040,3851,0x39,0x9F,Read,NAK
6.209603495,3853,0x38,0x00,Write,ACK
6.209707980,3853,0x38,0x22,Write,ACK
6.209943860,3854,0x39,0x0C,Read,ACK
6.210136340,3854,0x39,0x05,Read,ACK
6.210241570,3854,0x39,0x48,Read,NAK
6.212330605,3856,0x38,0x00,Write,ACK
6.212435090,3856,0x38,0x07,Write,ACK
6.212741730,3857,0x39,0x0C,Read,ACK
6.212847340,3857,0x39,0x2B,Read,ACK
6.212971870,3857,0x39,0xB1,Read,NAK
6.215277925,3859,0x38,0x00,Write,ACK
6.215382410,3859,0x38,0x22,Write,ACK
6.215602365,3860,0x39,0x0C,Read,ACK
6.215707975,3860,0x39,0x04,Read,ACK
6.215813020,3860,0x39,0xE2,Read,NAK
6.218495100,3862,0x38,0x00,Write,ACK
6.218599585,3862,0x38,0x07,Write,ACK
6.218819545,3863,0x39,0x0C,Read,ACK
6.218943200,3863,0x39,0x1B,Read,ACK
6.219048805,3863,0x39,0x32,Read,NAK
6.221470900,3865,0x38,0x00,Write,ACK
6.221575380,3865,0x38,0x22,Write,ACK
6.221898510,3866,0x39,0x0C,Read,ACK
6.222004120,3866,0x39,0x03,Read,ACK
6.222109350,3866,0x39,0x81,Read,NAK
6.224642550,3868,0x38,0x00,Write,ACK
6.224747030,3868,0x38,0x07,Write,ACK
6.224985975,3869,0x39,0x0C,Read,ACK
6.225091580,3869,0x39,0x27,Read,ACK
6.225283995,3869,0x39,0x07,Read,NAK
6.227625525,3871,0x38,0x00,Write,ACK
6.227816820,3871,0x38,0x22,Write,ACK
6.228052700,3872,0x39,0x0C,Read,ACK
6.228158310,3872,0x39,0x05,Read,ACK
6.228263540,3872,0x39,0xD4,Read,NAK
6.231180510,3874,0x38,0x00,Write,ACK
6.231284990,3874,0x38,0x07,Write,ACK
6.231504950,3875,0x39,0x0C,Read,ACK
6.231610555,3875,0x39,0x37,Read,ACK
6.231716350,3875,0x39,0x32,Read,NAK
6.234115210,3877,0x38,0x00,Write,ACK
6.234219695,3877,0x38,0x22,Write,ACK
6.234526210,3878,0x39,0x0C,Read,ACK
6.234631820,3878,0x39,0x03,Read,ACK
6.234737050,3878,0x39,0x7F,Read,NAK
6.237431815,3880,0x38,0x00,Write,ACK
6.237536295,3880,0x38,0x07,Write,ACK
6.237756255,3881,0x39,0x0C,Read,ACK
6.237964280,3881,0x39,0x2C,Read,ACK
6.238069700,3881,0x39,0xCA,Read,NAK
6.240143875,3883,0x38,0x00,Write,ACK
6.240248355,3883,0x38,0x22,Write,ACK
6.240555000,3884,0x39,0x0C,Read,ACK
6.240660605,3884,0x39,0x04,Read,ACK
6.240765650,3884,0x39,0xC6,Read,NAK
6.243658950,3886,0x38,0x00,Write,ACK
6.243865915,3886,0x38,0x07,Write,ACK
6.244085875,3887,0x39,0x0C,Read,ACK
6.244191480,3887,0x39,0x44,Read,ACK
6.244296710,3887,0x39,0x15,Read,NAK
6.246414290,3889,0x38,0x00,Write,ACK
6.246518770,3889,0x38,0x22,Write,ACK
6.246738730,3890,0x39,0x0C,Read,ACK
6.246844335,3890,0x39,0x04,Read,ACK
6.246967365,3890,0x39,0x60,Read,NAK
6.249243010,3892,0x38,0x00,Write,ACK
6.249347495,3892,0x38,0x07,Write,ACK
6.249654135,3893,0x39,0x0C,Read,ACK
6.249759740,3893,0x39,0x3D,Read,ACK
6.249881400,3893,0x39,0x74,Read,NAK
6.252457440,3895,0x38,0x00,Write,ACK
6.252561920,3895,0x38,0x22,Write,ACK
6.252781880,3896,0x39,0x0C,Read,ACK
6.252906470,3896,0x39,0x04,Read,ACK
6.253098700,3896,0x39,0x84,Read,NAK
6.256041960,3898,0x38,0x00,Write,ACK
6.256146440,3898,0x38,0x07,Write,ACK
6.256452960,3899,0x39,0x0C,Read,ACK
6.256558565,3899,0x39,0x34,Read,ACK
6.256663985,3899,0x39,0x39,Read,NAK
6.260140715,3901,0x38,0x00,Write,ACK
6.260245195,3901,0x38,0x22,Write,ACK
6.260465155,3902,0x39,0x0C,Read,ACK
6.260657195,3902,0x39,0x04,Read,ACK
6.260762240,3902,0x39,0x54,Read,NAK
6.264269260,3904,0x38,0x00,Write,ACK
6.264373740,3904,0x38,0x07,Write,ACK
6.264593700,3905,0x39,0x0C,Read,ACK
6.264699305,3905,0x39,0x19,Read,ACK
6.264910460,3905,0x39,0xD5,Read,NAK
6.268375135,3907,0x38,0x00,Write,ACK
6.268479615,3907,0x38,0x22,Write,ACK
6.268699575,3908,0x39,0x0C,Read,ACK
6.268805180,3908,0x39,0x05,Read,ACK
6.268929335,3908,0x39,0x4A,Read,NAK
6.272480445,3910,0x38,0x00,Write,ACK
6.272584930,3910,0x38,0x07,Write,ACK
6.272804885,3911,0x39,0x0C,Read,ACK
6.272929480,3911,0x39,0x22,Read,ACK
6.273034710,3911,0x39,0x61,Read,NAK
6.277109360,3913,0x38,0x00,Write,ACK
6.277213845,3913,0x38,0x22,Write,ACK
6.277520050,3914,0x39,0x0C,Read,ACK
6.277625655,3914,0x39,0x05,Read,ACK
6.277730890,3914,0x39,0x09,Read,NAK
6.278293905,3916,0x38,0x21,Write,ACK
6.278368785,3916,0x38,0x77,Write,ACK
6.278443665,3916,0x38,0x00,Write,ACK
6.278518545,3916,0x38,0x35,Write,ACK
6.278697905,3918,0x38,0x21,Write,ACK
6.278772790,3918,0x38,0x2A,Write,ACK
6.278866280,3918,0x38,0x0F,Write,ACK
6.278941165,3918,0x38,0x80,Write,ACK
6.279201210,3920,0x38,0x21,Write,ACK
6.279276090,3920,0x38,0x2B,Write,ACK
6.279350975,3920,0x38,0x0D,Write,ACK
6.279425855,3920,0x38,0xD6,Write,ACK
6.279600035,3922,0x38,0x21,Write,ACK
6.279674915,3922,0x38,0x2C,Write,ACK
6.279749795,3922,0x38,0x0F,Write,ACK
6.279866020,3922,0x38,0x33,Write,ACK
6.280489850,3925,0x38,0x00,Write,ACK
6.280594335,3925,0x38,0x07,Write,ACK
6.280920270,3926,0x39,0x0C,Read,ACK
6.281025880,3926,0x39,0x36,Read,ACK
6.281131485,3926,0x39,0x74,Read,NAK
6.283246250,3928,0x38,0x00,Write,ACK
6.283437605,3928,0x38,0x22,Write,ACK
6.283657565,3929,0x39,0x0C,Read,ACK
6.283763170,3929,0x39,0x04,Read,ACK
6.283884140,3929,0x39,0x70,Read,NAK
6.286568410,3931,0x38,0x00,Write,ACK
6.286759825,3931,0x38,0x07,Write,ACK
6.286997770,3932,0x39,0x0C,Read,ACK
6.287103380,3932,0x39,0x28,Read,ACK
6.287208610,3932,0x39,0x05,Read,NAK
6.289397505,3934,0x38,0x00,Write,ACK
6.289501990,3934,0x38,0x22,Write,ACK
6.289721950,3935,0x39,0x0C,Read,ACK
6.289843480,3935,0x39,0x04,Read,ACK
6.289948525,3935,0x39,0xA7,Read,NAK
6.292156030,3937,0x38,0x00,Write,ACK
6.292260515,3937,0x38,0x07,Write,ACK
6.292480475,3938,0x39,0x0C,Read,ACK
6.292673200,3938,0x39,0x45,Read,ACK
6.292778620,3938,0x39,0xE1,Read,NAK
6.295603095,3940,0x38,0x00,Write,ACK
6.295707580,3940,0x38,0x22,Write,ACK
6.296030020,3941,0x39,0x0C,Read,ACK
6.296135630,3941,0x39,0x04,Read,ACK
6.296240675,3941,0x39,0x6C,Read,NAK
6.298282930,3943,0x38,0x00,Write,ACK
6.298387415,3943,0x38,0x07,Write,ACK
6.298694120,3944,0x39,0x0C,Read,ACK
6.298799725,3944,0x39,0x34,Read,ACK
6.298923255,3944,0x39,0xC8,Read,NAK
6.301918100,3946,0x38,0x00,Write,ACK
6.302022585,3946,0x38,0x22,Write,ACK
6.302242540,3947,0x39,0x0C,Read,ACK
6.302348150,3947,0x39,0x03,Read,ACK
6.302453380,3947,0x39,0x9A,Read,NAK
6.305305460,3949,0x38,0x00,Write,ACK
6.305409945,3949,0x38,0x07,Write,ACK
6.305629900,3950,0x39,0x0C,Read,ACK
6.305735510,3950,0x39,0x31,Read,ACK
6.305856855,3950,0x39,0xAF,Read,NAK
6.308852635,3952,0x38,0x00,Write,ACK
6.308957120,3952,0x38,0x22,Write,ACK
6.309177075,3953,0x39,0x0C,Read,ACK
6.309282685,3953,0x39,0x04,Read,ACK
6.309474660,3953,0x39,0x23,Read,NAK
6.313394555,3955,0x38,0x00,Write,ACK
6.313499035,3955,0x38,0x07,Write,ACK
6.313821915,3956,0x39,0x0C,Read,ACK
6.313927525,3956,0x39,0x28,Read,ACK
6.314032755,3956,0x39,0xA3,Read,NAK
6.316521235,3958,0x38,0x00,Write,ACK
6.316625720,3958,0x38,0x22,Write,ACK
6.316864660,3959,0x39,0x0C,Read,ACK
6.317092990,3959,0x39,0x05,Read,ACK
6.317198220,3959,0x39,0x94,Read,NAK
6.319424715,3961,0x38,0x00,Write,ACK
6.319615695,3961,0x38,0x07,Write,ACK
6.319851515,3962,0x39,0x0C,Read,ACK
6.319957120,3962,0x39,0x28,Read,ACK
6.320062355,3962,0x39,0xC3,Read,NAK
6.324067805,3964,0x38,0x00,Write,ACK
6.324172285,3964,0x38,0x22,Write,ACK
6.324392245,3965,0x39,0x0C,Read,ACK
6.324497850,3965,0x39,0x03,Read,ACK
6.324689895,3965,0x39,0x6E,Read,NAK
6.328182545,3967,0x38,0x00,Write,ACK
6.328287030,3967,0x38,0x07,Write,ACK
6.328506990,3968,0x39,0x0C,Read,ACK
6.328612595,3968,0x39,0x30,Read,ACK
6.328717825,3968,0x39,0x32,Read,NAK
6.331721105,3970,0x38,0x00,Write,ACK
6.331841510,3970,0x38,0x22,Write,ACK
6.332061470,3971,0x39,0x0C,Read,ACK
6.332167075,3971,0x39,0x05,Read,ACK
6.332358930,3971,0x39,0x6A,Read,NAK
6.334394195,3973,0x38,0x00,Write,ACK
6.334498675,3973,0x38,0x07,Write,ACK
6.334718635,3974,0x39,0x0C,Read,ACK
6.334928910,3974,0x39,0x46,Read,ACK
6.335034330,3974,0x39,0xEE,Read,NAK
6.337173140,3976,0x38,0x00,Write,ACK
6.337364185,3976,0x38,0x22,Write,ACK
6.337584140,3977,0x39,0x0C,Read,ACK
6.337689750,3977,0x39,0x04,Read,ACK
6.337810655,3977,0x39,0x7A,Read,NAK
6.340550385,3979,0x38,0x00,Write,ACK
6.340742050,3979,0x38,0x07,Write,ACK
6.340980930,3980,0x39,0x0C,Read,ACK
6.341086535,3980,0x39,0x30,Read,ACK
6.341191770,3980,0x39,0x12,Read,NAK
6.343538420,3982,0x38,0x00,Write,ACK
6.343642905,3982,0x38,0x22,Write,ACK
6.343878725,3983,0x39,0x0C,Read,ACK
6.343984330,3983,0x39,0x04,Read,ACK
6.344176375,3983,0x39,0xAF,Read,NAK
6.346220005,3985,0x38,0x00,Write,ACK
6.346324490,3985,0x38,0x07,Write,ACK
6.346630940,3986,0x39,0x0C,Read,ACK
6.346736550,3986,0x39,0x3C,Read,ACK
6.346860205,3986,0x39,0x76,Read,NAK
6.349866790,3988,0x38,0x00,Write,ACK
6.350058085,3988,0x38,0x22,Write,ACK
6.350278040,3989,0x39,0x0C,Read,ACK
6.350383650,3989,0x39,0x07,Read,ACK
6.350489070,3989,0x39,0xFD,Read,NAK
6.354218355,3991,0x38,0x00,Write,ACK
6.354322835,3991,0x38,0x07,Write,ACK
6.354542795,3992,0x39,0x0C,Read,ACK
6.354648400,3992,0x39,0x42,Read,ACK
6.354753635,3992,0x39,0x39,Read,NAK
6.357619205,3994,0x38,0x00,Write,ACK
6.357723685,3994,0x38,0x22,Write,ACK
6.357959570,3995,0x39,0x0C,Read,ACK
6.358065175,3995,0x39,0x05,Read,ACK
6.358170410,3995,0x39,0x42,Read,NAK
6.360247390,3997,0x38,0x00,Write,ACK
6.360351875,3997,0x38,0x07,Write,ACK
6.360571830,3998,0x39,0x0C,Read,ACK
6.360677440,3998,0x39,0x28,Read,ACK
6.360801655,3998,0x39,0xF3,Read,NAK
6.363155675,4000,0x38,0x00,Write,ACK
6.363260160,4000,0x38,0x22,Write,ACK
6.363567175,4001,0x39,0x0C,Read,ACK
6.363672785,4001,0x39,0x04,Read,ACK
6.363793755,4001,0x39,0x6F,Read,NAK
6.366483580,4003,0x38,0x00,Write,ACK
6.366588065,4003,0x38,0x07,Write,ACK
6.366912505,4004,0x39,0x0C,Read,ACK
6.367018110,4004,0x39,0x23,Read,ACK
6.367123530,4004,0x39,0x9F,Read,NAK
6.369238485,4006,0x38,0x00,Write,ACK
6.369429840,4006,0x38,0x22,Write,ACK
6.369649795,4007,0x39,0x0C,Read,ACK
6.369771330,4007,0x39,0x04,Read,ACK
6.369876375,4007,0x39,0x62,Read,NAK
6.372091685,4009,0x38,0x00,Write,ACK
6.372196170,4009,0x38,0x07,Write,ACK
6.372416125,4010,0x39,0x0C,Read,ACK
6.372521735,4010,0x39,0x2C,Read,ACK
6.372627155,4010,0x39,0xBA,Read,NAK
6.375532630,4012,0x38,0x00,Write,ACK
6.375637115,4012,0x38,0x22,Write,ACK
6.375872995,4013,0x39,0x0C,Read,ACK
6.375978605,4013,0x39,0x04,Read,ACK
6.376170520,4013,0x39,0x9F,Read,NAK
6.378205845,4015,0x38,0x00,Write,ACK
6.378310330,4015,0x38,0x07,Write,ACK
6.378530285,4016,0x39,0x0C,Read,ACK
6.378723015,4016,0x39,0x3A,Read,ACK
6.378846670,4016,0x39,0x6B,Read,NAK
6.381733035,4018,0x38,0x00,Write,ACK
6.381853380,4018,0x38,0x22,Write,ACK
6.382159710,4019,0x39,0x0C,Read,ACK
6.382265320,4019,0x39,0x04,Read,ACK
6.382370365,4019,0x39,0x9E,Read,NAK
6.384371215,4021,0x38,0x00,Write,ACK
6.384562505,4021,0x38,0x07,Write,ACK
6.384801450,4022,0x39,0x0C,Read,ACK
6.384907055,4022,0x39,0x52,Read,ACK
6.385012475,4022,0x39,0x35,Read,NAK
6.387445875,4024,0x38,0x00,Write,ACK
6.387550355,4024,0x38,0x22,Write,ACK
6.387786240,4025,0x39,0x0C,Read,ACK
6.387978405,4025,0x39,0x05,Read,ACK
6.388083640,4025,0x39,0xD6,Read,NAK
6.390897995,4027,0x38,0x00,Write,ACK
6.391002480,4027,0x38,0x07,Write,ACK
6.391309310,4028,0x39,0x0C,Read,ACK
6.391414915,4028,0x39,0x60,Read,ACK
6.391520150,4028,0x39,0x35,Read,NAK
6.394423125,4030,0x38,0x00,Write,ACK
6.394527610,4030,0x38,0x22,Write,ACK
6.394852175,4031,0x39,0x0C,Read,ACK
6.394957780,4031,0x39,0x06,Read,ACK
6.395063015,4031,0x39,0x08,Read,NAK
6.397246915,4033,0x38,0x00,Write,ACK
6.397351395,4033,0x38,0x07,Write,ACK
6.397571355,4034,0x39,0x0C,Read,ACK
6.397676960,4034,0x39,0x5D,Read,ACK
6.397798680,4034,0x39,0xFA,Read,NAK
6.399982270,4036,0x38,0x00,Write,ACK
6.400086750,4036,0x38,0x22,Write,ACK
6.400306710,4037,0x39,0x0C,Read,ACK
6.400412315,4037,0x39,0x06,Read,ACK
6.400604545,4037,0x39,0x85,Read,NAK
6.403373625,4039,0x38,0x00,Write,ACK
6.403478110,4039,0x38,0x07,Write,ACK
6.403698065,4040,0x39,0x0C,Read,ACK
6.403906160,4040,0x39,0x60,Read,ACK
6.404011390,4040,0x39,0xB4,Read,NAK
6.406124720,4042,0x38,0x00,Write,ACK
6.406229200,4042,0x38,0x22,Write,ACK
6.406536030,4043,0x39,0x0C,Read,ACK
6.406641640,4043,0x39,0x03,Read,ACK
6.406764920,4043,0x39,0xB6,Read,NAK
6.409510890,4045,0x38,0x00,Write,ACK
6.409615375,4045,0x38,0x07,Write,ACK
6.409937755,4046,0x39,0x0C,Read,ACK
6.410043360,4046,0x39,0x5C,Read,ACK
6.410148970,4046,0x39,0xDD,Read,NAK
6.412353915,4048,0x38,0x00,Write,ACK
6.412458400,4048,0x38,0x22,Write,ACK
6.412678355,4049,0x39,0x0C,Read,ACK
6.412802885,4049,0x39,0x05,Read,ACK
6.412908120,4049,0x39,0x44,Read,NAK
6.415447560,4051,0x38,0x00,Write,ACK
6.415552045,4051,0x38,0x07,Write,ACK
6.415874425,4052,0x39,0x0C,Read,ACK
6.415980030,4052,0x39,0x4A,Read,ACK
6.416085450,4052,0x39,0xB6,Read,NAK
6.418474570,4054,0x38,0x00,Write,ACK
6.418579050,4054,0x38,0x22,Write,ACK
6.418817060,4055,0x39,0x0C,Read,ACK
6.418922665,4055,0x39,0x03,Read,ACK
6.419114520,4055,0x39,0x83,Read,NAK
6.421010520,4057,0x38,0x11,Write,ACK
6.421085400,4057,0x38,0x4D,Write,ACK
6.421160280,4057,0x38,0x00,Write,ACK
6.421235160,4057,0x38,0x00,Write,ACK
6.421310040,4057,0x38,0x00,Write,ACK
6.421481100,4059,0x38,0x11,Write,ACK
6.421642975,4059,0x38,0x4A,Write,ACK
6.421733780,4059,0x38,0x7F,Write,ACK
6.421808665,4059,0x38,0xFF,Write,ACK
6.421883545,4059,0x38,0xFF,Write,ACK
6.422056475,4061,0x38,0x11,Write,ACK
6.422131355,4061,0x38,0x4D,Write,ACK
6.422206235,4061,0x38,0x05,Write,ACK
6.422281120,4061,0x38,0xCE,Write,ACK
6.422442930,4061,0x38,0x14,Write,ACK
6.422996940,4064,0x38,0x00,Write,ACK
6.423101420,4064,0x38,0x07,Write,ACK
6.423408375,4065,0x39,0x0C,Read,ACK
6.423513985,4065,0x39,0x53,Read,ACK
6.423619590,4065,0x39,0x52,Read,NAK
6.426199760,4067,0x38,0x21,Write,ACK
6.426274825,4067,0x38,0x02,Write,ACK
6.426349895,4067,0x38,0x00,Write,ACK
6.426424960,4067,0x38,0x00,Write,ACK
6.426742280,4069,0x38,0x21,Write,ACK
6.426817350,4069,0x38,0x03,Write,ACK
6.426892415,4069,0x38,0x00,Write,ACK
6.426967485,4069,0x38,0x00,Write,ACK
6.428064205,4072,0x38,0x00,Write,ACK
6.428168690,4072,0x38,0x22,Write,ACK
6.428475455,4073,0x39,0x0C,Read,ACK
6.428581065,4073,0x39,0x06,Read,ACK
6.428686295,4073,0x39,0x68,Read,NAK
6.431981100,4075,0x38,0x00,Write,ACK
6.432085585,4075,0x38,0x07,Write,ACK
6.432305540,4076,0x39,0x0C,Read,ACK
6.432411150,4076,0x39,0x56,Read,ACK
6.432603375,4076,0x39,0x7E,Read,NAK
6.435265790,4078,0x38,0x00,Write,ACK
6.435370270,4078,0x38,0x22,Write,ACK
6.435590230,4079,0x39,0x0C,Read,ACK
6.435695835,4079,0x39,0x05,Read,ACK
6.435816995,4079,0x39,0xEE,Read,NAK
6.437962860,4081,0x38,0x00,Write,ACK
6.438067345,4081,0x38,0x07,Write,ACK
6.438287300,4082,0x39,0x0C,Read,ACK
6.438479905,4082,0x39,0x4D,Read,ACK
6.438585510,4082,0x39,0xAF,Read,NAK
6.441494110,4084,0x38,0x00,Write,ACK
6.441598590,4084,0x38,0x22,Write,ACK
6.441921410,4085,0x39,0x0C,Read,ACK
6.442027015,4085,0x39,0x04,Read,ACK
6.442132060,4085,0x39,0xDC,Read,NAK
6.444095565,4087,0x38,0x00,Write,ACK
6.444200050,4087,0x38,0x07,Write,ACK
6.444506880,4088,0x39,0x0C,Read,ACK
6.444612485,4088,0x39,0x51,Read,ACK
6.444736955,4088,0x39,0xC1,Read,NAK
6.447496355,4090,0x38,0x00,Write,ACK
6.447600835,4090,0x38,0x22,Write,ACK
6.447923280,4091,0x39,0x0C,Read,ACK
6.448028885,4091,0x39,0x05,Read,ACK
6.448134120,4091,0x39,0x8F,Read,NAK
6.450300470,4093,0x38,0x00,Write,ACK
6.450404950,4093,0x38,0x07,Write,ACK
6.450624910,4094,0x39,0x0C,Read,ACK
6.450748565,4094,0x39,0x4C,Read,ACK
6.450853985,4094,0x39,0xD1,Read,NAK
6.453179900,4096,0x38,0x00,Write,ACK
6.453284385,4096,0x38,0x22,Write,ACK
6.453504340,4097,0x39,0x0C,Read,ACK
6.453712245,4097,0x39,0x04,Read,ACK
6.453817290,4097,0x39,0xAF,Read,NAK
6.456455845,4099,0x38,0x00,Write,ACK
6.456560330,4099,0x38,0x07,Write,ACK
6.456799210,4100,0x39,0x0C,Read,ACK
6.456991690,4100,0x39,0x4D,Read,ACK
6.457097295,4100,0x39,0x20,Read,NAK
6.459210500,4102,0x38,0x00,Write,ACK
6.459314980,4102,0x38,0x22,Write,ACK
6.459621750,4103,0x39,0x0C,Read,ACK
6.459743345,4103,0x39,0x05,Read,ACK
6.459848575,4103,0x39,0x1E,Read,NAK
6.462105235,4105,0x38,0x00,Write,ACK
6.462209715,4105,0x38,0x07,Write,ACK
6.462429675,4106,0x39,0x0C,Read,ACK
6.462535280,4106,0x39,0x59,Read,ACK
6.462640890,4106,0x39,0x05,Read,NAK
6.465751585,4108,0x38,0x00,Write,ACK
6.465856065,4108,0x38,0x22,Write,ACK
6.466076025,4109,0x39,0x0C,Read,ACK
6.466268750,4109,0x39,0x04,Read,ACK
6.466373795,4109,0x39,0x5F,Read,NAK
6.469915665,4111,0x38,0x00,Write,ACK
6.470020145,4111,0x38,0x07,Write,ACK
6.470240105,4112,0x39,0x0C,Read,ACK
6.470345710,4112,0x39,0x58,Read,ACK
6.470575100,4112,0x39,0x4E,Read,NAK
6.474215515,4114,0x38,0x00,Write,ACK
6.474320000,4114,0x38,0x22,Write,ACK
6.474539955,4115,0x39,0x0C,Read,ACK
6.474750170,4115,0x39,0x04,Read,ACK
6.474855215,4115,0x39,0x5B,Read,NAK
6.477068095,4117,0x38,0x00,Write,ACK
6.477259700,4117,0x38,0x07,Write,ACK
6.477479655,4118,0x39,0x0C,Read,ACK
6.477585265,4118,0x39,0x53,Read,ACK
6.477706735,4118,0x39,0x33,Read,NAK
6.480257605,4120,0x38,0x00,Write,ACK
6.480362085,4120,0x38,0x22,Write,ACK
6.480687525,4121,0x39,0x0C,Read,ACK
6.480793135,4121,0x39,0x04,Read,ACK
6.480898180,4121,0x39,0x63,Read,NAK
6.483225780,4123,0x38,0x00,Write,ACK
6.483330265,4123,0x38,0x07,Write,ACK
6.483550220,4124,0x39,0x0C,Read,ACK
6.483655830,4124,0x39,0x4D,Read,ACK
6.483777360,4124,0x39,0xBF,Read,NAK
6.485921355,4126,0x38,0x00,Write,ACK
6.486025840,4126,0x38,0x22,Write,ACK
6.486245795,4127,0x39,0x0C,Read,ACK
6.486351405,4127,0x39,0x04,Read,ACK
6.486543255,4127,0x39,0x9B,Read,NAK
6.489337815,4129,0x38,0x00,Write,ACK
6.489442300,4129,0x38,0x07,Write,ACK
6.489678185,4130,0x39,0x0C,Read,ACK
6.489870660,4130,0x39,0x54,Read,ACK
6.489976080,4130,0x39,0x21,Read,NAK
6.492077605,4132,0x38,0x00,Write,ACK
6.492182090,4132,0x38,0x22,Write,ACK
6.492524580,4133,0x39,0x0C,Read,ACK
6.492630185,4133,0x39,0x04,Read,ACK
6.492754215,4133,0x39,0x61,Read,NAK
6.495498815,4135,0x38,0x00,Write,ACK
6.495603300,4135,0x38,0x07,Write,ACK
6.495926050,4136,0x39,0x0C,Read,ACK
6.496031660,4136,0x39,0x5A,Read,ACK
6.496137265,4136,0x39,0x82,Read,NAK
6.498271080,4138,0x38,0x00,Write,ACK
6.498375565,4138,0x38,0x22,Write,ACK
6.498595520,4139,0x39,0x0C,Read,ACK
6.498719175,4139,0x39,0x05,Read,ACK
6.498824410,4139,0x39,0x1A,Read,NAK
6.501261490,4141,0x38,0x00,Write,ACK
6.501365975,4141,0x38,0x07,Write,ACK
6.501688290,4142,0x39,0x0C,Read,ACK
6.501793900,4142,0x39,0x54,Read,ACK
6.501899320,4142,0x39,0x90,Read,NAK
6.504681885,4144,0x38,0x00,Write,ACK
6.504786370,4144,0x38,0x22,Write,ACK
6.505092950,4145,0x39,0x0C,Read,ACK
6.505198555,4145,0x39,0x03,Read,ACK
6.505303790,4145,0x39,0x74,Read,NAK
6.508151185,4147,0x38,0x00,Write,ACK
6.508255665,4147,0x38,0x07,Write,ACK
6.508562120,4148,0x39,0x0C,Read,ACK
6.508686715,4148,0x39,0x2F,Read,ACK
6.508792510,4148,0x39,0xD3,Read,NAK
6.511171760,4150,0x38,0x00,Write,ACK
6.511276245,4150,0x38,0x22,Write,ACK
6.511496200,4151,0x39,0x0C,Read,ACK
6.511601810,4151,0x39,0x04,Read,ACK
6.511809460,4151,0x39,0x5E,Read,NAK
6.513901495,4153,0x38,0x00,Write,ACK
6.514005980,4153,0x38,0x07,Write,ACK
6.514353965,4154,0x39,0x0C,Read,ACK
6.514459570,4154,0x39,0x46,Read,ACK
6.514564990,4154,0x39,0xAF,Read,NAK
6.517367980,4156,0x38,0x00,Write,ACK
6.517472465,4156,0x38,0x22,Write,ACK
6.517795030,4157,0x39,0x0C,Read,ACK
6.517900640,4157,0x39,0x04,Read,ACK
6.518005685,4157,0x39,0x57,Read,NAK
6.520001725,4159,0x38,0x00,Write,ACK
6.520193020,4159,0x38,0x07,Write,ACK
6.520412975,4160,0x39,0x0C,Read,ACK
6.520518585,4160,0x39,0x2E,Read,ACK
6.520624190,4160,0x39,0xD5,Read,NAK
6.522985770,4162,0x38,0x00,Write,ACK
6.523090250,4162,0x38,0x22,Write,ACK
6.523310210,4163,0x39,0x0C,Read,ACK
6.523415815,4163,0x39,0x04,Read,ACK
6.523607670,4163,0x39,0x6E,Read,NAK
6.526285130,4165,0x38,0x00,Write,ACK
6.526389615,4165,0x38,0x07,Write,ACK
6.526609570,4166,0x39,0x0C,Read,ACK
6.526733165,4166,0x39,0x3B,Read,ACK
6.526925455,4166,0x39,0x59,Read,NAK
6.529044470,4168,0x38,0x00,Write,ACK
6.529148950,4168,0x38,0x22,Write,ACK
6.529455720,4169,0x39,0x0C,Read,ACK
6.529561325,4169,0x39,0x05,Read,ACK
6.529682485,4169,0x39,0x4B,Read,NAK
6.531977675,4171,0x38,0x00,Write,ACK
6.532082155,4171,0x38,0x07,Write,ACK
6.532302115,4172,0x39,0x0C,Read,ACK
6.532407720,4172,0x39,0x1D,Read,ACK
6.532513330,4172,0x39,0x7D,Read,NAK
6.535208590,4174,0x38,0x00,Write,ACK
6.535399820,4174,0x38,0x22,Write,ACK
6.535619775,4175,0x39,0x0C,Read,ACK
6.535741310,4175,0x39,0x05,Read,ACK
6.535846540,4175,0x39,0xF2,Read,NAK
6.538002150,4177,0x38,0x00,Write,ACK
6.538106635,4177,0x38,0x07,Write,ACK
6.538326590,4178,0x39,0x0C,Read,ACK
6.538432200,4178,0x39,0x21,Read,ACK
6.538537430,4178,0x39,0xF2,Read,NAK
6.541778650,4180,0x38,0x00,Write,ACK
6.541883135,4180,0x38,0x22,Write,ACK
6.542189525,4181,0x39,0x0C,Read,ACK
6.542295135,4181,0x39,0x05,Read,ACK
6.542400365,4181,0x39,0xEC,Read,NAK
6.545917250,4183,0x38,0x00,Write,ACK
6.546021735,4183,0x38,0x07,Write,ACK
6.546328500,4184,0x39,0x0C,Read,ACK
6.546434105,4184,0x39,0x2B,Read,ACK
6.546539715,4184,0x39,0xCC,Read,NAK
6.549317725,4186,0x38,0x00,Write,ACK
6.549422210,4186,0x38,0x22,Write,ACK
6.549744585,4187,0x39,0x0C,Read,ACK
6.549850195,4187,0x39,0x03,Read,ACK
6.549955425,4187,0x39,0xAB,Read,NAK
6.552159435,4189,0x38,0x00,Write,ACK
6.552263920,4189,0x38,0x07,Write,ACK
6.552483875,4190,0x39,0x0C,Read,ACK
6.552589485,4190,0x39,0x24,Read,ACK
6.552713640,4190,0x39,0x9C,Read,NAK
6.554992905,4192,0x38,0x00,Write,ACK
6.555097390,4192,0x38,0x22,Write,ACK
6.555317345,4193,0x39,0x0C,Read,ACK
6.555422955,4193,0x39,0x04,Read,ACK
6.555630730,4193,0x39,0x67,Read,NAK
6.558278590,4195,0x38,0x00,Write,ACK
6.558383075,4195,0x38,0x07,Write,ACK
6.558603030,4196,0x39,0x0C,Read,ACK
6.558726625,4196,0x39,0x28,Read,ACK
6.558918790,4196,0x39,0x44,Read,NAK
6.561145160,4198,0x38,0x00,Write,ACK
6.561249645,4198,0x38,0x22,Write,ACK
6.561556160,4199,0x39,0x0C,Read,ACK
6.561677630,4199,0x39,0x05,Read,ACK
6.561782860,4199,0x39,0x59,Read,NAK
6.563955020,4201,0x38,0x00,Write,ACK
6.564059505,4201,0x38,0x07,Write,ACK
6.564279460,4202,0x39,0x0C,Read,ACK
6.564385070,4202,0x39,0x2A,Read,ACK
6.564490490,4202,0x39,0x9F,Read,NAK
6.567179815,4204,0x38,0x00,Write,ACK
6.567371045,4204,0x38,0x22,Write,ACK
6.567591005,4205,0x39,0x0C,Read,ACK
6.567712535,4205,0x39,0x05,Read,ACK
6.567817770,4205,0x39,0x04,Read,NAK
6.569946525,4207,0x38,0x00,Write,ACK
6.570051005,4207,0x38,0x07,Write,ACK
6.570270965,4208,0x39,0x0C,Read,ACK
6.570376570,4208,0x39,0x52,Read,ACK
6.570481990,4208,0x39,0x25,Read,NAK
6.578966035,4210,0x38,0x00,Write,ACK
6.579143210,4210,0x38,0x22,Write,ACK
6.579363170,4211,0x39,0x0C,Read,ACK
6.579468775,4211,0x39,0x04,Read,ACK
6.579573820,4211,0x39,0x54,Read,NAK
6.582341715,4216,0x38,0x00,Write,ACK
6.582519015,4216,0x38,0x07,Write,ACK
6.582757020,4217,0x39,0x0C,Read,ACK
6.582862630,4217,0x39,0x33,Read,ACK
6.582968235,4217,0x39,0x3B,Read,NAK
6.585966515,4219,0x38,0x00,Write,ACK
6.586071000,4219,0x38,0x22,Write,ACK
6.586290955,4220,0x39,0x0C,Read,ACK
6.586396565,4220,0x39,0x04,Read,ACK
6.586501610,4220,0x39,0x7F,Read,NAK
6.589308910,4222,0x38,0x00,Write,ACK
6.589413395,4222,0x38,0x07,Write,ACK
6.589649215,4223,0x39,0x0C,Read,ACK
6.589754820,4223,0x39,0x2F,Read,ACK
6.589860615,4223,0x39,0x75,Read,NAK
6.592001425,4225,0x38,0x00,Write,ACK
6.592105905,4225,0x38,0x22,Write,ACK
6.592325865,4226,0x39,0x0C,Read,ACK
6.592431470,4226,0x39,0x06,Read,ACK
6.592628695,4226,0x39,0xB2,Read,NAK
6.595313840,4228,0x38,0x00,Write,ACK
6.595418320,4228,0x38,0x07,Write,ACK
6.595654205,4229,0x39,0x0C,Read,ACK
6.595759815,4229,0x39,0x26,Read,ACK
6.595865230,4229,0x39,0x58,Read,NAK
6.597952395,4231,0x38,0x00,Write,ACK
6.598056875,4231,0x38,0x22,Write,ACK
6.598276835,4232,0x39,0x0C,Read,ACK
6.598382440,4232,0x39,0x04,Read,ACK
6.598560430,4232,0x39,0x6E,Read,NAK
6.601460225,4234,0x38,0x00,Write,ACK
6.601564705,4234,0x38,0x07,Write,ACK
6.601912255,4235,0x39,0x0C,Read,ACK
6.602017860,4235,0x39,0x3F,Read,ACK
6.602123845,4235,0x39,0x30,Read,NAK
6.604113330,4237,0x38,0x00,Write,ACK
6.604217810,4237,0x38,0x22,Write,ACK
6.604529385,4238,0x39,0x0C,Read,ACK
6.604653980,4238,0x39,0x05,Read,ACK
6.604759210,4238,0x39,0xC6,Read,NAK
6.606964910,4240,0x38,0x00,Write,ACK
6.607069390,4240,0x38,0x07,Write,ACK
6.607289350,4241,0x39,0x0C,Read,ACK
6.607394955,4241,0x39,0x50,Read,ACK
6.607500190,4241,0x39,0x0A,Read,NAK
6.610341025,4243,0x38,0x00,Write,ACK
6.610445510,4243,0x38,0x22,Write,ACK
6.610683455,4244,0x39,0x0C,Read,ACK
6.610789060,4244,0x39,0x05,Read,ACK
6.610894295,4244,0x39,0x09,Read,NAK
6.613470645,4246,0x38,0x00,Write,ACK
6.613682735,4246,0x38,0x07,Write,ACK
6.613902690,4247,0x39,0x0C,Read,ACK
6.614008295,4247,0x39,0x59,Read,ACK
6.614113905,4247,0x39,0x55,Read,NAK
6.616860190,4249,0x38,0x00,Write,ACK
6.617056415,4249,0x38,0x22,Write,ACK
6.617276370,4250,0x39,0x0C,Read,ACK
6.617381980,4250,0x39,0x04,Read,ACK
6.617487025,4250,0x39,0xE5,Read,NAK
6.619837050,4252,0x38,0x00,Write,ACK
6.619941530,4252,0x38,0x07,Write,ACK
6.620161490,4253,0x39,0x0C,Read,ACK
6.620267095,4253,0x39,0x91,Read,ACK
6.620464195,4253,0x39,0xB5,Read,NAK
6.624328065,4255,0x38,0x00,Write,ACK
6.624432550,4255,0x38,0x22,Write,ACK
6.624758115,4256,0x39,0x0C,Read,ACK
6.624863720,4256,0x39,0x04,Read,ACK
6.624968765,4256,0x39,0x59,Read,NAK
6.627313730,4258,0x38,0x00,Write,ACK
6.627418215,4258,0x38,0x07,Write,ACK
6.627654100,4259,0x39,0x0C,Read,ACK
6.627759705,4259,0x39,0x5E,Read,ACK
6.627865500,4259,0x39,0xD8,Read,NAK
6.629904760,4261,0x38,0x00,Write,ACK
6.630009245,4261,0x38,0x22,Write,ACK
6.630229200,4262,0x39,0x0C,Read,ACK
6.630334810,4262,0x39,0x03,Read,ACK
6.630526850,4262,0x39,0x8F,Read,NAK
6.633402160,4264,0x38,0x00,Write,ACK
6.633506645,4264,0x38,0x07,Write,ACK
6.633742525,4265,0x39,0x0C,Read,ACK
6.633934945,4265,0x39,0x80,Read,ACK
6.634039990,4265,0x39,0xBB,Read,NAK
6.636026540,4267,0x38,0x00,Write,ACK
6.636131020,4267,0x38,0x22,Write,ACK
6.636437415,4268,0x39,0x0C,Read,ACK
6.636543020,4268,0x39,0x03,Read,ACK
6.636667240,4268,0x39,0x7F,Read,NAK
6.638936075,4270,0x38,0x00,Write,ACK
6.639040555,4270,0x38,0x07,Write,ACK
6.639260515,4271,0x39,0x0C,Read,ACK
6.639366120,4271,0x39,0x44,Read,ACK
6.639471355,4271,0x39,0x15,Read,NAK
6.641790525,4273,0x38,0x00,Write,ACK
6.641895010,4273,0x38,0x22,Write,ACK
6.642114965,4274,0x39,0x0C,Read,ACK
6.642307505,4274,0x39,0x03,Read,ACK
6.642412740,4274,0x39,0xAA,Read,NAK
6.645095760,4276,0x38,0x00,Write,ACK
6.645200245,4276,0x38,0x07,Write,ACK
6.645420200,4277,0x39,0x0C,Read,ACK
6.645525810,4277,0x39,0x33,Read,ACK
6.645776990,4277,0x39,0xCA,Read,NAK
6.647792580,4279,0x38,0x00,Write,ACK
6.647897065,4279,0x38,0x22,Write,ACK
6.648204020,4280,0x39,0x0C,Read,ACK
6.648309625,4280,0x39,0x04,Read,ACK
6.648414670,4280,0x39,0x7E,Read,NAK
6.651656265,4282,0x38,0x00,Write,ACK
6.651760750,4282,0x38,0x07,Write,ACK
6.651980705,4283,0x39,0x0C,Read,ACK
6.652086315,4283,0x39,0x1D,Read,ACK
6.652191920,4283,0x39,0x6D,Read,NAK
6.655803795,4285,0x38,0x00,Write,ACK
6.655908280,4285,0x38,0x22,Write,ACK
6.656128235,4286,0x39,0x0C,Read,ACK
6.656233845,4286,0x39,0x03,Read,ACK
6.656339075,4286,0x39,0x73,Read,NAK
6.659181665,4288,0x38,0x00,Write,ACK
6.659286145,4288,0x38,0x07,Write,ACK
6.659506105,4289,0x39,0x0C,Read,ACK
6.659627635,4289,0x39,0x21,Read,ACK
6.659732870,4289,0x39,0x24,Read,NAK
6.661996460,4291,0x38,0x00,Write,ACK
6.662100940,4291,0x38,0x22,Write,ACK
6.662320900,4292,0x39,0x0C,Read,ACK
6.662513005,4292,0x39,0x03,Read,ACK
6.662636220,4292,0x39,0x78,Read,NAK
6.665374010,4294,0x38,0x00,Write,ACK
6.665478495,4294,0x38,0x07,Write,ACK
6.665714380,4295,0x39,0x0C,Read,ACK
6.665906920,4295,0x39,0x22,Read,ACK
6.666012150,4295,0x39,0x81,Read,NAK
6.668033175,4297,0x38,0x00,Write,ACK
6.668137660,4297,0x38,0x22,Write,ACK
6.668444175,4298,0x39,0x0C,Read,ACK
6.668568770,4298,0x39,0x03,Read,ACK
6.668674000,4298,0x39,0x6E,Read,NAK
6.671039200,4300,0x38,0x00,Write,ACK
6.671143685,4300,0x38,0x07,Write,ACK
6.671363640,4301,0x39,0x0C,Read,ACK
6.671469250,4301,0x39,0x0F,Read,ACK
6.671590780,4301,0x39,0x4D,Read,NAK
6.673765065,4303,0x38,0x00,Write,ACK
6.673869545,4303,0x38,0x22,Write,ACK
6.674089505,4304,0x39,0x0C,Read,ACK
6.674195110,4304,0x39,0x03,Read,ACK
6.674387025,4304,0x39,0x57,Read,NAK
6.677160540,4306,0x38,0x00,Write,ACK
6.677265025,4306,0x38,0x07,Write,ACK
6.677484980,4307,0x39,0x0C,Read,ACK
6.677693510,4307,0x39,0x2E,Read,ACK
6.677799120,4307,0x39,0xFF,Read,NAK
6.681539210,4309,0x38,0x00,Write,ACK
6.681643690,4309,0x38,0x22,Write,ACK
6.681950395,4310,0x39,0x0C,Read,ACK
6.682056000,4310,0x39,0x02,Read,ACK
6.682161050,4310,0x39,0xEF,Read,NAK
6.685623285,4312,0x38,0x00,Write,ACK
6.685727770,4312,0x38,0x07,Write,ACK
6.685947730,4313,0x39,0x0C,Read,ACK
6.686140020,4313,0x39,0x1A,Read,ACK
6.686245440,4313,0x39,0xE2,Read,NAK
6.689020390,4315,0x38,0x00,Write,ACK
6.689124870,4315,0x38,0x22,Write,ACK
6.689344830,4316,0x39,0x0C,Read,ACK
6.689594140,4316,0x39,0x03,Read,ACK
6.689699370,4316,0x39,0x6E,Read,NAK
6.692356160,4318,0x38,0x00,Write,ACK
6.692460645,4318,0x38,0x07,Write,ACK
6.692699590,4319,0x39,0x0C,Read,ACK
6.692892005,4319,0x39,0x4C,Read,ACK
6.692997425,4319,0x39,0x13,Read,NAK
6.695828020,4321,0x38,0x00,Write,ACK
6.695932505,4321,0x38,0x22,Write,ACK
6.696239270,4322,0x39,0x0C,Read,ACK
6.696344875,4322,0x39,0x05,Read,ACK
6.696450110,4322,0x39,0x03,Read,NAK
6.699219375,4324,0x38,0x00,Write,ACK
6.699323860,4324,0x38,0x07,Write,ACK
6.699646615,4325,0x39,0x0C,Read,ACK
6.699752220,4325,0x39,0x8D,Read,ACK
6.699857830,4325,0x39,0xB1,Read,NAK
6.702140965,4327,0x38,0x00,Write,ACK
6.702245450,4327,0x38,0x22,Write,ACK
6.702465405,4328,0x39,0x0C,Read,ACK
6.702589060,4328,0x39,0x05,Read,ACK
6.702694295,4328,0x39,0x7B,Read,NAK
6.704977305,4330,0x38,0x00,Write,ACK
6.705081790,4330,0x38,0x07,Write,ACK
6.705301745,4331,0x39,0x0C,Read,ACK
6.705494285,4331,0x39,0x70,Read,ACK
6.705615630,4331,0x39,0x21,Read,NAK
6.708171375,4333,0x38,0x00,Write,ACK
6.708275855,4333,0x38,0x22,Write,ACK
6.708514800,4334,0x39,0x0C,Read,ACK
6.708620410,4334,0x39,0x04,Read,ACK
6.708725455,4334,0x39,0xB1,Read,NAK
6.711047435,4336,0x38,0x00,Write,ACK
6.711151920,4336,0x38,0x07,Write,ACK
6.711510335,4337,0x39,0x0C,Read,ACK
6.711615940,4337,0x39,0x7F,Read,ACK
6.711722110,4337,0x39,0x6E,Read,NAK
6.713786665,4339,0x38,0x00,Write,ACK
6.713978205,4339,0x38,0x22,Write,ACK
6.714198160,4340,0x39,0x0C,Read,ACK
6.714303770,4340,0x39,0x04,Read,ACK
6.714408815,4340,0x39,0x22,Read,NAK
6.717298425,4342,0x38,0x00,Write,ACK
6.717402910,4342,0x38,0x07,Write,ACK
6.717638795,4343,0x39,0x0C,Read,ACK
6.717744400,4343,0x39,0x62,Read,ACK
6.717849820,4343,0x39,0xBF,Read,NAK
6.719907690,4345,0x38,0x00,Write,ACK
6.720012175,4345,0x38,0x22,Write,ACK
6.720232130,4346,0x39,0x0C,Read,ACK
6.720337740,4346,0x39,0x03,Read,ACK
6.720442970,4346,0x39,0x8B,Read,NAK
6.723498645,4348,0x38,0x00,Write,ACK
6.723603130,4348,0x38,0x07,Write,ACK
6.723823085,4349,0x39,0x0C,Read,ACK
6.724015625,4349,0x39,0x6C,Read,ACK
6.724121235,4349,0x39,0x89,Read,NAK
6.728870180,4351,0x38,0x00,Write,ACK
6.729061850,4351,0x38,0x22,Write,ACK
6.729281805,4352,0x39,0x0C,Read,ACK
6.729387415,4352,0x39,0x03,Read,ACK
6.729508570,4352,0x39,0x6E,Read,NAK
6.732045205,4354,0x38,0x00,Write,ACK
6.732149685,4354,0x38,0x07,Write,ACK
6.732456140,4355,0x39,0x0C,Read,ACK
6.732580735,4355,0x39,0x4A,Read,ACK
6.732686155,4355,0x39,0x86,Read,NAK
6.735616860,4357,0x38,0x00,Write,ACK
6.735808150,4357,0x38,0x22,Write,ACK
6.736028110,4358,0x39,0x0C,Read,ACK
6.736133715,4358,0x39,0x04,Read,ACK
6.736238760,4358,0x39,0x5A,Read,NAK
6.739002530,4360,0x38,0x00,Write,ACK
6.739193950,4360,0x38,0x07,Write,ACK
6.739413905,4361,0x39,0x0C,Read,ACK
6.739535440,4361,0x39,0x51,Read,ACK
6.739640860,4361,0x39,0x96,Read,NAK
6.741915440,4363,0x38,0x00,Write,ACK
6.742019925,4363,0x38,0x22,Write,ACK
6.742239880,4364,0x39,0x0C,Read,ACK
6.742345490,4364,0x39,0x03,Read,ACK
6.742555080,4364,0x39,0x78,Read,NAK
6.745312290,4366,0x38,0x00,Write,ACK
6.745416775,4366,0x38,0x07,Write,ACK
6.745652660,4367,0x39,0x0C,Read,ACK
6.745758265,4367,0x39,0x54,Read,ACK
6.745950495,4367,0x39,0xAF,Read,NAK
6.747945225,4369,0x38,0x00,Write,ACK
6.748049710,4369,0x38,0x22,Write,ACK
6.748269665,4370,0x39,0x0C,Read,ACK
6.748461645,4370,0x39,0x03,Read,ACK
6.748585865,4370,0x39,0x82,Read,NAK
6.751024195,4372,0x38,0x00,Write,ACK
6.751128675,4372,0x38,0x07,Write,ACK
6.751348635,4373,0x39,0x0C,Read,ACK
6.751454240,4373,0x39,0x3F,Read,ACK
6.751576210,4373,0x39,0xDF,Read,NAK
6.752117435,4375,0x45,0x3F,Read,ACK
6.752186505,4375,0x45,0xFF,Read,ACK
6.752255575,4375,0x45,0xFF,Read,ACK
6.753967580,4378,0x38,0x00,Write,ACK
6.754072060,4378,0x38,0x22,Write,ACK
6.754378765,4379,0x39,0x0C,Read,ACK
6.754502420,4379,0x39,0x04,Read,ACK
6.754607465,4379,0x39,0x56,Read,NAK
6.756936945,4381,0x38,0x00,Write,ACK
6.757041425,4381,0x38,0x07,Write,ACK
6.757261385,4382,0x39,0x0C,Read,ACK
6.757366990,4382,0x39,0x48,Read,ACK
6.757488150,4382,0x39,0x1C,Read,NAK
6.759996615,4384,0x38,0x00,Write,ACK
6.760101100,4384,0x38,0x22,Write,ACK
6.760407865,4385,0x39,0x0C,Read,ACK
6.760532455,4385,0x39,0x04,Read,ACK
6.760637500,4385,0x39,0x5D,Read,NAK
6.762949615,4387,0x38,0x00,Write,ACK
6.763054100,4387,0x38,0x07,Write,ACK
6.763274060,4388,0x39,0x0C,Read,ACK
6.763379665,4388,0x39,0x47,Read,ACK
6.763587820,4388,0x39,0x2E,Read,NAK
6.765723570,4390,0x38,0x00,Write,ACK
6.765828050,4390,0x38,0x22,Write,ACK
6.766134630,4391,0x39,0x0C,Read,ACK
6.766240240,4391,0x39,0x03,Read,ACK
6.766345470,4391,0x39,0x71,Read,NAK
6.769267685,4393,0x38,0x00,Write,ACK
6.769372165,4393,0x38,0x07,Write,ACK
6.769695110,4394,0x39,0x0C,Read,ACK
6.769800715,4394,0x39,0x30,Read,ACK
6.769905950,4394,0x39,0xD1,Read,NAK
6.772852020,4396,0x38,0x00,Write,ACK
6.772956500,4396,0x38,0x22,Write,ACK
6.773176460,4397,0x39,0x0C,Read,ACK
6.773282065,4397,0x39,0x06,Read,ACK
6.773387300,4397,0x39,0x41,Read,NAK
6.775690045,4399,0x38,0x00,Write,ACK
6.775794530,4399,0x38,0x07,Write,ACK
6.776014485,4400,0x39,0x0C,Read,ACK
6.776120095,4400,0x39,0x49,Read,ACK
6.776312510,4400,0x39,0x29,Read,NAK
6.781770540,4402,0x38,0x00,Write,ACK
6.781875025,4402,0x38,0x22,Write,ACK
6.782182105,4403,0x39,0x0C,Read,ACK
6.782287710,4403,0x39,0x04,Read,ACK
6.782392755,4403,0x39,0x55,Read,NAK
6.786641965,4405,0x38,0x11,Write,ACK
6.786716845,4405,0x38,0x4D,Write,ACK
6.786791725,4405,0x38,0x00,Write,ACK
6.786866605,4405,0x38,0x00,Write,ACK
6.786941490,4405,0x38,0x00,Write,ACK
6.787198915,4407,0x38,0x11,Write,ACK
6.787273795,4407,0x38,0x4A,Write,ACK
6.787348675,4407,0x38,0x00,Write,ACK
6.787423560,4407,0x38,0x00,Write,ACK
6.787514365,4407,0x38,0x00,Write,ACK
6.787687230,4409,0x38,0x11,Write,ACK
6.787762115,4409,0x38,0x4D,Write,ACK
6.787836995,4409,0x38,0x05,Write,ACK
6.787911875,4409,0x38,0xCE,Write,ACK
6.788073190,4409,0x38,0x14,Write,ACK
6.788455205,4412,0x38,0x00,Write,ACK
6.788559685,4412,0x38,0x07,Write,ACK
6.788866330,4413,0x39,0x0C,Read,ACK
6.788971935,4413,0x39,0x6A,Read,ACK
6.789077545,4413,0x39,0x1F,Read,NAK
6.791547040,4415,0x38,0x00,Write,ACK
6.791651520,4415,0x38,0x22,Write,ACK
6.791871480,4416,0x39,0x0C,Read,ACK
6.791977085,4416,0x39,0x04,Read,ACK
6.792082130,4416,0x39,0x97,Read,NAK
6.794937270,4418,0x38,0x00,Write,ACK
6.795041755,4418,0x38,0x07,Write,ACK
6.795261710,4419,0x39,0x0C,Read,ACK
6.795367320,4419,0x39,0x46,Read,ACK
6.795488600,4419,0x39,0x63,Read,NAK
6.797679370,4421,0x38,0x00,Write,ACK
6.797783855,4421,0x38,0x22,Write,ACK
6.798003810,4422,0x39,0x0C,Read,ACK
6.798196350,4422,0x39,0x04,Read,ACK
6.798301395,4422,0x39,0xC0,Read,NAK
6.801164970,4424,0x38,0x00,Write,ACK
6.801269450,4424,0x38,0x07,Write,ACK
6.801592330,4425,0x39,0x0C,Read,ACK
6.801697935,4425,0x39,0x70,Read,ACK
6.801803355,4425,0x39,0x51,Read,NAK
6.803800025,4427,0x38,0x00,Write,ACK
6.803904505,4427,0x38,0x22,Write,ACK
6.804210835,4428,0x39,0x0C,Read,ACK
6.804316445,4428,0x39,0x03,Read,ACK
6.804440660,4428,0x39,0xBD,Read,NAK
6.807177330,4430,0x38,0x00,Write,ACK
6.807281810,4430,0x38,0x07,Write,ACK
6.807604565,4431,0x39,0x0C,Read,ACK
6.807710175,4431,0x39,0x69,Read,ACK
6.807815780,4431,0x39,0xCF,Read,NAK
6.809939100,4433,0x38,0x00,Write,ACK
6.810043585,4433,0x38,0x22,Write,ACK
6.810263540,4434,0x39,0x0C,Read,ACK
6.810369150,4434,0x39,0x05,Read,ACK
6.810492430,4434,0x39,0x24,Read,NAK
6.813045300,4436,0x38,0x00,Write,ACK
6.813149785,4436,0x38,0x07,Write,ACK
6.813472350,4437,0x39,0x0C,Read,ACK
6.813577955,4437,0x39,0x5F,Read,ACK
6.813683940,4437,0x39,0xD6,Read,NAK
6.816392000,4439,0x38,0x00,Write,ACK
6.816515470,4439,0x38,0x22,Write,ACK
6.816822425,4440,0x39,0x0C,Read,ACK
6.816928030,4440,0x39,0x04,Read,ACK
6.817033075,4440,0x39,0x5E,Read,NAK
6.819177135,4442,0x38,0x00,Write,ACK
6.819281615,4442,0x38,0x07,Write,ACK
6.819517500,4443,0x39,0x0C,Read,ACK
6.819623105,4443,0x39,0x64,Read,ACK
6.819728525,4443,0x39,0x8B,Read,NAK
6.823035760,4445,0x38,0x00,Write,ACK
6.823140240,4445,0x38,0x22,Write,ACK
6.823463120,4446,0x39,0x0C,Read,ACK
6.823568730,4446,0x39,0x04,Read,ACK
6.823673775,4446,0x39,0x56,Read,NAK
6.826961335,4448,0x38,0x00,Write,ACK
6.827065815,4448,0x38,0x07,Write,ACK
6.827285775,4449,0x39,0x0C,Read,ACK
6.827391380,4449,0x39,0x53,Read,ACK
6.827599910,4449,0x39,0xC1,Read,NAK
6.829656845,4451,0x38,0x00,Write,ACK
6.829761325,4451,0x38,0x22,Write,ACK
6.829981285,4452,0x39,0x0C,Read,ACK
6.830173640,4452,0x39,0x04,Read,ACK
6.830278685,4452,0x39,0x59,Read,NAK
6.833170045,4454,0x38,0x00,Write,ACK
6.833274530,4454,0x38,0x07,Write,ACK
6.833597345,4455,0x39,0x0C,Read,ACK
6.833702950,4455,0x39,0x49,Read,ACK
6.833808370,4455,0x39,0xA8,Read,NAK
6.835825335,4457,0x38,0x00,Write,ACK
6.836016505,4457,0x38,0x22,Write,ACK
6.836236460,4458,0x39,0x0C,Read,ACK
6.836342070,4458,0x39,0x04,Read,ACK
6.836466100,4458,0x39,0x67,Read,NAK
6.839201765,4460,0x38,0x00,Write,ACK
6.839392745,4460,0x38,0x07,Write,ACK
6.839628565,4461,0x39,0x0C,Read,ACK
6.839734175,4461,0x39,0x42,Read,ACK
6.839839405,4461,0x39,0xC8,Read,NAK
6.842102310,4463,0x38,0x00,Write,ACK
6.842206790,4463,0x38,0x22,Write,ACK
6.842444800,4464,0x39,0x0C,Read,ACK
6.842550405,4464,0x39,0x04,Read,ACK
6.842655450,4464,0x39,0xAD,Read,NAK
6.844857460,4466,0x38,0x00,Write,ACK
6.844961945,4466,0x38,0x07,Write,ACK
6.845181900,4467,0x39,0x0C,Read,ACK
6.845374070,4467,0x39,0x3C,Read,ACK
6.845495665,4467,0x39,0xB6,Read,NAK
6.848102490,4469,0x38,0x00,Write,ACK
6.848206975,4469,0x38,0x22,Write,ACK
6.848445920,4470,0x39,0x0C,Read,ACK
6.848551525,4470,0x39,0x04,Read,ACK
6.848742880,4470,0x39,0x56,Read,NAK
6.851292065,4472,0x38,0x00,Write,ACK
6.851412470,4472,0x38,0x07,Write,ACK
6.851632430,4473,0x39,0x0C,Read,ACK
6.851738035,4473,0x39,0x33,Read,ACK
6.851843645,4473,0x39,0xAA,Read,NAK
6.854751870,4475,0x38,0x00,Write,ACK
6.854856350,4475,0x38,0x22,Write,ACK
6.855076310,4476,0x39,0x0C,Read,ACK
6.855181915,4476,0x39,0x04,Read,ACK
6.855286960,4476,0x39,0x57,Read,NAK
6.858148655,4478,0x38,0x00,Write,ACK
6.858253140,4478,0x38,0x07,Write,ACK
6.858491145,4479,0x39,0x0C,Read,ACK
6.858596755,4479,0x39,0x25,Read,ACK
6.858788920,4479,0x39,0xAA,Read,NAK
6.861031090,4481,0x38,0x00,Write,ACK
6.861135570,4481,0x38,0x22,Write,ACK
6.861458200,4482,0x39,0x0C,Read,ACK
6.861563810,4482,0x39,0x05,Read,ACK
6.861669040,4482,0x39,0x8A,Read,NAK
6.863647285,4484,0x38,0x00,Write,ACK
6.863838575,4484,0x38,0x07,Write,ACK
6.864058535,4485,0x39,0x0C,Read,ACK
6.864164140,4485,0x39,0x29,Read,ACK
6.864269560,4485,0x39,0x42,Read,NAK
6.867504660,4487,0x38,0x00,Write,ACK
6.867609145,4487,0x38,0x22,Write,ACK
6.867829100,4488,0x39,0x0C,Read,ACK
6.867934710,4488,0x39,0x03,Read,ACK
6.868127060,4488,0x39,0x96,Read,NAK
6.871153010,4490,0x38,0x00,Write,ACK
6.871257490,4490,0x38,0x07,Write,ACK
6.871579745,4491,0x39,0x0C,Read,ACK
6.871685355,4491,0x39,0x1F,Read,ACK
6.871791150,4491,0x39,0x78,Read,NAK
6.875198305,4493,0x38,0x00,Write,ACK
6.875302790,4493,0x38,0x22,Write,ACK
6.875625545,4494,0x39,0x0C,Read,ACK
6.875731150,4494,0x39,0x03,Read,ACK
6.875836380,4494,0x39,0x6E,Read,NAK
6.877982060,4496,0x38,0x00,Write,ACK
6.878173605,4496,0x38,0x07,Write,ACK
6.878411610,4497,0x39,0x0C,Read,ACK
6.878517215,4497,0x39,0x62,Read,ACK
6.878622635,4497,0x39,0x60,Read,NAK
6.880978095,4499,0x38,0x00,Write,ACK
6.881082575,4499,0x38,0x22,Write,ACK
6.881302535,4500,0x39,0x0C,Read,ACK
6.881510815,4500,0x39,0x04,Read,ACK
6.881615860,4500,0x39,0x74,Read,NAK
6.883765095,4502,0x38,0x00,Write,ACK
6.883869580,4502,0x38,0x07,Write,ACK
6.884176410,4503,0x39,0x0C,Read,ACK
6.884282015,4503,0x39,0x39,Read,ACK
6.884406610,4503,0x39,0xB9,Read,NAK
6.886793730,4505,0x38,0x00,Write,ACK
6.886898210,4505,0x38,0x22,Write,ACK
6.887118170,4506,0x39,0x0C,Read,ACK
6.887223775,4506,0x39,0x04,Read,ACK
6.887431245,4506,0x39,0x2C,Read,NAK
6.890027895,4508,0x38,0x00,Write,ACK
6.890132375,4508,0x38,0x07,Write,ACK
6.890352335,4509,0x39,0x0C,Read,ACK
6.890475990,4509,0x39,0x31,Read,ACK
6.890581410,4509,0x39,0xFE,Read,NAK
6.893681235,4511,0x38,0x00,Write,ACK
6.893785720,4511,0x38,0x22,Write,ACK
6.894005680,4512,0x39,0x0C,Read,ACK
6.894198155,4512,0x39,0x04,Read,ACK
6.894303200,4512,0x39,0x6A,Read,NAK
6.897083335,4514,0x38,0x00,Write,ACK
6.897187820,4514,0x38,0x07,Write,ACK
6.897510135,4515,0x39,0x0C,Read,ACK
6.897615745,4515,0x39,0x63,Read,ACK
6.897721350,4515,0x39,0x4E,Read,NAK
6.899731130,4517,0x38,0x00,Write,ACK
6.899835615,4517,0x38,0x22,Write,ACK
6.900142130,4518,0x39,0x0C,Read,ACK
6.900247740,4518,0x39,0x04,Read,ACK
6.900371830,4518,0x39,0x8E,Read,NAK
6.902733910,4520,0x38,0x00,Write,ACK
6.902838390,4520,0x38,0x07,Write,ACK
6.903058350,4521,0x39,0x0C,Read,ACK
6.903163955,4521,0x39,0x31,Read,ACK
6.903269375,4521,0x39,0xDE,Read,NAK
6.906021405,4523,0x38,0x00,Write,ACK
6.906125890,4523,0x38,0x22,Write,ACK
6.906363895,4524,0x39,0x0C,Read,ACK
6.906469505,4524,0x39,0x07,Read,ACK
6.906574925,4524,0x39,0x2C,Read,NAK
6.908849065,4526,0x38,0x00,Write,ACK
6.908953550,4526,0x38,0x07,Write,ACK
6.909173510,4527,0x39,0x0C,Read,ACK
6.909381975,4527,0x39,0x27,Read,ACK
6.909487580,4527,0x39,0x46,Read,NAK
6.911593665,4529,0x38,0x00,Write,ACK
6.911698150,4529,0x38,0x22,Write,ACK
6.912004730,4530,0x39,0x0C,Read,ACK
6.912110335,4530,0x39,0x05,Read,ACK
6.912215570,4530,0x39,0x1F,Read,NAK
6.914937370,4532,0x38,0x00,Write,ACK
6.915041855,4532,0x38,0x07,Write,ACK
6.915364735,4533,0x39,0x0C,Read,ACK
6.915470340,4533,0x39,0x26,Read,ACK
6.915575760,4533,0x39,0xE7,Read,NAK
6.917741110,4535,0x38,0x00,Write,ACK
6.917845595,4535,0x38,0x22,Write,ACK
6.918065550,4536,0x39,0x0C,Read,ACK
6.918171160,4536,0x39,0x04,Read,ACK
6.918276205,4536,0x39,0xDF,Read,NAK
6.921453725,4538,0x38,0x00,Write,ACK
6.921558205,4538,0x38,0x07,Write,ACK
6.921778165,4539,0x39,0x0C,Read,ACK
6.921970890,4539,0x39,0x34,Read,ACK
6.922076310,4539,0x39,0x49,Read,NAK
6.924946500,4541,0x38,0x00,Write,ACK
6.925050985,4541,0x38,0x22,Write,ACK
6.925373490,4542,0x39,0x0C,Read,ACK
6.925479095,4542,0x39,0x04,Read,ACK
6.925584140,4542,0x39,0x52,Read,NAK
6.929113770,4544,0x38,0x00,Write,ACK
6.929218250,4544,0x38,0x07,Write,ACK
6.929540945,4545,0x39,0x0C,Read,ACK
6.929646550,4545,0x39,0x37,Read,ACK
6.929752345,4545,0x39,0xB1,Read,NAK
6.932354615,4547,0x38,0x00,Write,ACK
6.932459095,4547,0x38,0x22,Write,ACK
6.932679055,4548,0x39,0x0C,Read,ACK
6.932784660,4548,0x39,0x04,Read,ACK
6.932976140,4548,0x39,0x01,Read,NAK
6.934976370,4550,0x38,0x00,Write,ACK
6.935080850,4550,0x38,0x07,Write,ACK
6.935300810,4551,0x39,0x0C,Read,ACK
6.935507650,4551,0x39,0x3F,Read,ACK
6.935613635,4551,0x39,0x20,Read,NAK
6.938996560,4553,0x38,0x00,Write,ACK
6.939101040,4553,0x38,0x22,Write,ACK
6.939336925,4554,0x39,0x0C,Read,ACK
6.939442530,4554,0x39,0x03,Read,ACK
6.939634510,4554,0x39,0x9B,Read,NAK
6.941866810,4556,0x38,0x00,Write,ACK
6.941971295,4556,0x38,0x07,Write,ACK
6.942277685,4557,0x39,0x0C,Read,ACK
6.942401280,4557,0x39,0x1C,Read,ACK
6.942506700,4557,0x39,0xCE,Read,NAK
6.944783715,4559,0x38,0x00,Write,ACK
6.944888200,4559,0x38,0x22,Write,ACK
6.945108155,4560,0x39,0x0C,Read,ACK
6.945213765,4560,0x39,0x05,Read,ACK
6.945334920,4560,0x39,0x16,Read,NAK
6.947856940,4562,0x38,0x00,Write,ACK
6.948048230,4562,0x38,0x07,Write,ACK
6.948268190,4563,0x39,0x0C,Read,ACK
6.948392780,4563,0x39,0x3F,Read,ACK
6.948498765,4563,0x39,0x7F,Read,NAK
6.950840855,4565,0x38,0x00,Write,ACK
6.950945340,4565,0x38,0x22,Write,ACK
6.951165295,4566,0x39,0x0C,Read,ACK
6.951270905,4566,0x39,0x03,Read,ACK
6.951478745,4566,0x39,0xD2,Read,NAK
6.953643910,4568,0x38,0x00,Write,ACK
6.953748395,4568,0x38,0x07,Write,ACK
6.954055220,4569,0x39,0x0C,Read,ACK
6.954160830,4569,0x39,0x25,Read,ACK
6.954266250,4569,0x39,0x9A,Read,NAK
6.957060560,4571,0x38,0x00,Write,ACK
6.957165040,4571,0x38,0x22,Write,ACK
6.957487735,4572,0x39,0x0C,Read,ACK
6.957593340,4572,0x39,0x04,Read,ACK
6.957698385,4572,0x39,0x2B,Read,NAK
6.959676195,4574,0x38,0x00,Write,ACK
6.959867175,4574,0x38,0x07,Write,ACK
6.960087130,4575,0x39,0x0C,Read,ACK
6.960192740,4575,0x39,0x48,Read,ACK
6.960297970,4575,0x39,0x03,Read,NAK
6.962701205,4577,0x38,0x00,Write,ACK
6.962805685,4577,0x38,0x22,Write,ACK
6.963025645,4578,0x39,0x0C,Read,ACK
6.963217935,4578,0x39,0x04,Read,ACK
6.963338970,4578,0x39,0xE7,Read,NAK
6.966241195,4580,0x38,0x00,Write,ACK
6.966363730,4580,0x38,0x07,Write,ACK
6.966670370,4581,0x39,0x0C,Read,ACK
6.966775975,4581,0x39,0x23,Read,ACK
6.966881395,4581,0x39,0x7F,Read,NAK
6.969731725,4583,0x38,0x00,Write,ACK
6.969836210,4583,0x38,0x22,Write,ACK
6.970142850,4584,0x39,0x0C,Read,ACK
6.970248460,4584,0x39,0x04,Read,ACK
6.970371555,4584,0x39,0x8A,Read,NAK
6.972765420,4586,0x38,0x00,Write,ACK
6.972869900,4586,0x38,0x07,Write,ACK
6.973089860,4587,0x39,0x0C,Read,ACK
6.973195465,4587,0x39,0x2B,Read,ACK
6.973404055,4587,0x39,0x1E,Read,NAK
6.976037115,4589,0x38,0x00,Write,ACK
6.976141600,4589,0x38,0x22,Write,ACK
6.976380480,4590,0x39,0x0C,Read,ACK
6.976486085,4590,0x39,0x05,Read,ACK
6.976591320,4590,0x39,0x0E,Read,NAK
6.978802885,4592,0x38,0x00,Write,ACK
6.978907370,4592,0x38,0x07,Write,ACK
6.979213700,4593,0x39,0x0C,Read,ACK
6.979335170,4593,0x39,0x2B,Read,ACK
6.979440775,4593,0x39,0x5D,Read,NAK
6.981635480,4595,0x38,0x00,Write,ACK
6.981826895,4595,0x38,0x22,Write,ACK
6.982046855,4596,0x39,0x0C,Read,ACK
6.982152460,4596,0x39,0x04,Read,ACK
6.982257505,4596,0x39,0x58,Read,NAK
6.985116145,4598,0x38,0x00,Write,ACK
6.985220625,4598,0x38,0x07,Write,ACK
6.985456510,4599,0x39,0x0C,Read,ACK
6.985562115,4599,0x39,0x2D,Read,ACK
6.985667725,4599,0x39,0x68,Read,NAK
6.987746955,4601,0x38,0x00,Write,ACK
6.987851435,4601,0x38,0x22,Write,ACK
6.988071395,4602,0x39,0x0C,Read,ACK
6.988177000,4602,0x39,0x04,Read,ACK
6.988301030,4602,0x39,0xC2,Read,NAK
6.990739550,4604,0x38,0x00,Write,ACK
6.990844035,4604,0x38,0x07,Write,ACK
6.991150550,4605,0x39,0x0C,Read,ACK
6.991256155,4605,0x39,0x49,Read,ACK
6.991377500,4605,0x39,0x29,Read,NAK
6.994033730,4607,0x38,0x00,Write,ACK
6.994138215,4607,0x38,0x22,Write,ACK
6.994463340,4608,0x39,0x0C,Read,ACK
6.994568950,4608,0x39,0x04,Read,ACK
6.994673995,4608,0x39,0xC5,Read,NAK
6.996787820,4610,0x38,0x00,Write,ACK
6.996978925,4610,0x38,0x07,Write,ACK
6.997198885,4611,0x39,0x0C,Read,ACK
6.997320415,4611,0x39,0x58,Read,ACK
6.997425835,4611,0x39,0x47,Read,NAK
6.999606365,4613,0x38,0x00,Write,ACK
6.999710845,4613,0x38,0x22,Write,ACK
6.999930805,4614,0x39,0x0C,Read,ACK
7.000036410,4614,0x39,0x04,Read,ACK
7.000141455,4614,0x39,0x72,Read,NAK
7.003230730,4616,0x38,0x00,Write,ACK
7.003351140,4616,0x38,0x07,Write,ACK
7.003657720,4617,0x39,0x0C,Read,ACK
7.003763325,4617,0x39,0x48,Read,ACK
7.003868555,4617,0x39,0x8B,Read,NAK
7.006673420,4619,0x38,0x00,Write,ACK
7.006777905,4619,0x38,0x22,Write,ACK
7.007084670,4620,0x39,0x0C,Read,ACK
7.007190280,4620,0x39,0x05,Read,ACK
7.007311435,4620,0x39,0x85,Read,NAK
7.009629235,4622,0x38,0x00,Write,ACK
7.009733720,4622,0x38,0x07,Write,ACK
7.009953675,4623,0x39,0x0C,Read,ACK
7.010059285,4623,0x39,0x44,Read,ACK
7.010164515,4623,0x39,0x25,Read,NAK
7.013037515,4625,0x38,0x00,Write,ACK
7.013142000,4625,0x38,0x22,Write,ACK
7.013377880,4626,0x39,0x0C,Read,ACK
7.013483490,4626,0x39,0x05,Read,ACK
7.013588720,4626,0x39,0x55,Read,NAK
7.015760945,4628,0x38,0x00,Write,ACK
7.015865425,4628,0x38,0x07,Write,ACK
7.016085385,4629,0x39,0x0C,Read,ACK
7.016296535,4629,0x39,0x31,Read,ACK
7.016401955,4629,0x39,0x5F,Read,NAK
7.020543365,4631,0x38,0x00,Write,ACK
7.020647850,4631,0x38,0x22,Write,ACK
7.020867805,4632,0x39,0x0C,Read,ACK
7.020973415,4632,0x39,0x05,Read,ACK
7.021078645,4632,0x39,0x50,Read,NAK
7.024762465,4634,0x38,0x00,Write,ACK
7.024866950,4634,0x38,0x07,Write,ACK
7.025086905,4635,0x39,0x0C,Read,ACK
7.025192515,4635,0x39,0x8F,Read,ACK
7.025314235,4635,0x39,0x1B,Read,NAK
7.028645015,4637,0x38,0x21,Write,ACK
7.028720085,4637,0x38,0x02,Write,ACK
7.028795155,4637,0x38,0x04,Write,ACK
7.028957220,4637,0x38,0xCF,Write,ACK
7.029128710,4639,0x38,0x21,Write,ACK
7.029203780,4639,0x38,0x03,Write,ACK
7.029294835,4639,0x38,0x04,Write,ACK
7.029369905,4639,0x38,0xCF,Write,ACK
7.029777085,4642,0x38,0x00,Write,ACK
7.029881570,4642,0x38,0x22,Write,ACK
7.030101530,4643,0x39,0x0C,Read,ACK
7.030207135,4643,0x39,0x05,Read,ACK
7.030330415,4643,0x39,0xB9,Read,NAK
7.032762005,4645,0x38,0x00,Write,ACK
7.032866485,4645,0x38,0x07,Write,ACK
7.033172815,4646,0x39,0x0C,Read,ACK
7.033294350,4646,0x39,0x4A,Read,ACK
7.033399770,4646,0x39,0x96,Read,NAK
7.036781380,4648,0x38,0x00,Write,ACK
7.036885865,4648,0x38,0x22,Write,ACK
7.037105820,4649,0x39,0x0C,Read,ACK
7.037211430,4649,0x39,0x04,Read,ACK
7.037418895,4649,0x39,0x80,Read,NAK
7.039489260,4651,0x38,0x00,Write,ACK
7.039593740,4651,0x38,0x07,Write,ACK
7.039941975,4652,0x39,0x0C,Read,ACK
7.040047585,4652,0x39,0x5B,Read,ACK
7.040153375,4652,0x39,0xDF,Read,NAK
7.043065285,4654,0x38,0x00,Write,ACK
7.043272380,4654,0x38,0x22,Write,ACK
7.043492335,4655,0x39,0x0C,Read,ACK
7.043597945,4655,0x39,0x05,Read,ACK
7.043703175,4655,0x39,0x44,Read,NAK
7.046079305,4657,0x38,0x00,Write,ACK
7.046183785,4657,0x38,0x07,Write,ACK
7.046421795,4658,0x39,0x0C,Read,ACK
7.046613775,4658,0x39,0x59,Read,ACK
7.046719380,4658,0x39,0x45,Read,NAK
7.049571520,4660,0x38,0x00,Write,ACK
7.049676005,4660,0x38,0x22,Write,ACK
7.049982585,4661,0x39,0x0C,Read,ACK
7.050088190,4661,0x39,0x03,Read,ACK
7.050193425,4661,0x39,0x89,Read,NAK
7.053073730,4663,0x38,0x00,Write,ACK
7.053178215,4663,0x38,0x07,Write,ACK
7.053500780,4664,0x39,0x0C,Read,ACK
7.053606390,4664,0x39,0x4B,Read,ACK
7.053711995,4664,0x39,0x74,Read,NAK
7.055675500,4666,0x38,0x00,Write,ACK
7.055867040,4666,0x38,0x22,Write,ACK
7.056087000,4667,0x39,0x0C,Read,ACK
7.056192605,4667,0x39,0x03,Read,ACK
7.056316825,4667,0x39,0xA7,Read,NAK
7.059051870,4669,0x38,0x00,Write,ACK
7.059259335,4669,0x38,0x07,Write,ACK
7.059479295,4670,0x39,0x0C,Read,ACK
7.059584900,4670,0x39,0x4E,Read,ACK
7.059690505,4670,0x39,0x2E,Read,NAK
7.062017675,4672,0x38,0x00,Write,ACK
7.062122155,4672,0x38,0x22,Write,ACK
7.062360165,4673,0x39,0x0C,Read,ACK
7.062465770,4673,0x39,0x03,Read,ACK
7.062657560,4673,0x39,0xF3,Read,NAK
7.064766770,4675,0x38,0x00,Write,ACK
7.064871250,4675,0x38,0x07,Write,ACK
7.065178020,4676,0x39,0x0C,Read,ACK
7.065299550,4676,0x39,0x6C,Read,ACK
7.065405155,4676,0x39,0x3A,Read,NAK
7.067471960,4678,0x38,0x00,Write,ACK
7.067662815,4678,0x38,0x22,Write,ACK
7.067882770,4679,0x39,0x0C,Read,ACK
7.067988380,4679,0x39,0x05,Read,ACK
7.068093610,4679,0x39,0x39,Read,NAK
7.070915215,4681,0x38,0x00,Write,ACK
7.071106505,4681,0x38,0x07,Write,ACK
7.071342450,4682,0x39,0x0C,Read,ACK
7.071448060,4682,0x39,0x57,Read,ACK
7.071553855,4682,0x39,0x89,Read,NAK
7.073714085,4684,0x38,0x00,Write,ACK
7.073818565,4684,0x38,0x22,Write,ACK
7.074038525,4685,0x39,0x0C,Read,ACK
7.074144130,4685,0x39,0x04,Read,ACK
7.074267285,4685,0x39,0x44,Read,NAK
7.076620810,4687,0x38,0x00,Write,ACK
7.076725290,4687,0x38,0x07,Write,ACK
7.077032185,4688,0x39,0x0C,Read,ACK
7.077137790,4688,0x39,0x6D,Read,ACK
7.077259510,4688,0x39,0x8C,Read,NAK
7.079802385,4690,0x38,0x00,Write,ACK
7.079906870,4690,0x38,0x22,Write,ACK
7.080126825,4691,0x39,0x0C,Read,ACK
7.080338415,4691,0x39,0x04,Read,ACK
7.080443460,4691,0x39,0x35,Read,NAK
7.082963545,4693,0x38,0x00,Write,ACK
7.083068025,4693,0x38,0x07,Write,ACK
7.083303845,4694,0x39,0x0C,Read,ACK
7.083409455,4694,0x39,0x5A,Read,ACK
7.083515060,4694,0x39,0x62,Read,NAK
7.086441335,4696,0x38,0x00,Write,ACK
7.086545815,4696,0x38,0x22,Write,ACK
7.086765775,4697,0x39,0x0C,Read,ACK
7.086871380,4697,0x39,0x04,Read,ACK
7.087063110,4697,0x39,0x01,Read,NAK
7.089817825,4699,0x38,0x00,Write,ACK
7.089922310,4699,0x38,0x07,Write,ACK
7.090142265,4700,0x39,0x0C,Read,ACK
7.090265800,4700,0x39,0x53,Read,ACK
7.090458400,4700,0x39,0xF1,Read,NAK
7.092715620,4702,0x38,0x00,Write,ACK
7.092820105,4702,0x38,0x22,Write,ACK
7.093126870,4703,0x39,0x0C,Read,ACK
7.093248340,4703,0x39,0x04,Read,ACK
7.093353385,4703,0x39,0x81,Read,NAK
7.095978385,4705,0x38,0x00,Write,ACK
7.096082870,4705,0x38,0x07,Write,ACK
7.096406875,4706,0x39,0x0C,Read,ACK
7.096512480,4706,0x39,0x51,Read,ACK
7.096617900,4706,0x39,0xE6,Read,NAK
7.098731480,4708,0x38,0x00,Write,ACK
7.098922895,4708,0x38,0x22,Write,ACK
7.099142855,4709,0x39,0x0C,Read,ACK
7.099264385,4709,0x39,0x05,Read,ACK
7.099369620,4709,0x39,0xAB,Read,NAK
7.101638830,4711,0x38,0x00,Write,ACK
7.101743310,4711,0x38,0x07,Write,ACK
7.101963270,4712,0x39,0x0C,Read,ACK
7.102068875,4712,0x39,0x4C,Read,ACK
7.102279155,4712,0x39,0xA2,Read,NAK
7.105051545,4714,0x38,0x00,Write,ACK
7.105156025,4714,0x38,0x22,Write,ACK
7.105391910,4715,0x39,0x0C,Read,ACK
7.105620175,4715,0x39,0x05,Read,ACK
7.105725405,4715,0x39,0x6C,Read,NAK
7.107734815,4717,0x38,0x00,Write,ACK
7.107839295,4717,0x38,0x07,Write,ACK
7.108145750,4718,0x39,0x0C,Read,ACK
7.108270345,4718,0x39,0x79,Read,ACK
7.108376140,4718,0x39,0x5C,Read,NAK
7.110708050,4720,0x38,0x00,Write,ACK
7.110812535,4720,0x38,0x22,Write,ACK
7.111032490,4721,0x39,0x0C,Read,ACK
7.111138100,4721,0x39,0x04,Read,ACK
7.111259005,4721,0x39,0xB6,Read,NAK
7.113437785,4723,0x38,0x00,Write,ACK
7.113542270,4723,0x38,0x07,Write,ACK
7.113762225,4724,0x39,0x0C,Read,ACK
7.113867835,4724,0x39,0x81,Read,ACK
7.114060000,4724,0x39,0x99,Read,NAK
7.116745395,4726,0x38,0x00,Write,ACK
7.116849875,4726,0x38,0x22,Write,ACK
7.117069835,4727,0x39,0x0C,Read,ACK
7.117175440,4727,0x39,0x04,Read,ACK
7.117383035,4727,0x39,0x8E,Read,NAK
7.119656740,4729,0x38,0x00,Write,ACK
7.119761225,4729,0x38,0x07,Write,ACK
7.120068115,4730,0x39,0x0C,Read,ACK
7.120173720,4730,0x39,0xA3,Read,ACK
7.120298315,4730,0x39,0x8C,Read,NAK
7.123942290,4732,0x38,0x00,Write,ACK
7.124133520,4732,0x38,0x22,Write,ACK
7.124372465,4733,0x39,0x0C,Read,ACK
7.124478070,4733,0x39,0x05,Read,ACK
7.124583305,4733,0x39,0x83,Read,NAK
7.128326080,4735,0x38,0x00,Write,ACK
7.128430560,4735,0x38,0x07,Write,ACK
7.128650520,4736,0x39,0x0C,Read,ACK
7.128756125,4736,0x39,0x7D,Read,ACK
7.128862110,4736,0x39,0xC1,Read,NAK
7.137260905,4738,0x38,0x00,Write,ACK
7.137365385,4738,0x38,0x22,Write,ACK
7.137657975,4739,0x39,0x0C,Read,ACK
7.137763585,4739,0x39,0x04,Read,ACK
7.137868630,4739,0x39,0x7E,Read,NAK
7.140635150,4741,0x38,0x00,Write,ACK
7.140739630,4741,0x38,0x07,Write,ACK
7.141032285,4742,0x39,0x0C,Read,ACK
7.141137890,4742,0x39,0x87,Read,ACK
7.141259425,4742,0x39,0x9C,Read,NAK
7.143893730,4744,0x38,0x00,Write,ACK
7.143998215,4744,0x38,0x22,Write,ACK
7.144309975,4745,0x39,0x0C,Read,ACK
7.144415585,4745,0x39,0x05,Read,ACK
7.144520815,4745,0x39,0x1B,Read,NAK
7.146609475,4747,0x38,0x00,Write,ACK
7.146713960,4747,0x38,0x07,Write,ACK
7.147006735,4748,0x39,0x0C,Read,ACK
7.147112345,4748,0x39,0x70,Read,ACK
7.147233690,4748,0x39,0x51,Read,NAK
7.149808355,4750,0x38,0x00,Write,ACK
7.149912835,4750,0x38,0x22,Write,ACK
7.150223540,4751,0x39,0x0C,Read,ACK
7.150329145,4751,0x39,0x04,Read,ACK
7.150434190,4751,0x39,0x09,Read,NAK
7.152606100,4753,0x38,0x00,Write,ACK
7.152783275,4753,0x38,0x07,Write,ACK
7.153003235,4754,0x39,0x0C,Read,ACK
7.153108840,4754,0x39,0x91,Read,ACK
7.153230185,4754,0x39,0x46,Read,NAK
7.155873485,4756,0x38,0x00,Write,ACK
7.155977970,4756,0x38,0x22,Write,ACK
7.156289545,4757,0x39,0x0C,Read,ACK
7.156395155,4757,0x39,0x04,Read,ACK
7.156500200,4757,0x39,0xCB,Read,NAK
7.158659490,4759,0x38,0x00,Write,ACK
7.158763975,4759,0x38,0x07,Write,ACK
7.158983930,4760,0x39,0x0C,Read,ACK
7.159089540,4760,0x39,0x6A,Read,ACK
7.159210945,4760,0x39,0x2E,Read,NAK
7.161861555,4762,0x38,0x00,Write,ACK
7.162057345,4762,0x38,0x22,Write,ACK
7.162295350,4763,0x39,0x0C,Read,ACK
7.162400955,4763,0x39,0x05,Read,ACK
7.162506190,4763,0x39,0x04,Read,NAK
7.165569855,4765,0x38,0x00,Write,ACK
7.165674340,4765,0x38,0x07,Write,ACK
7.165894300,4766,0x39,0x0C,Read,ACK
7.165999905,4766,0x39,0x53,Read,ACK
7.166105510,4766,0x39,0x62,Read,NAK
7.168980135,4768,0x38,0x00,Write,ACK
7.169084620,4768,0x38,0x22,Write,ACK
7.169320440,4769,0x39,0x0C,Read,ACK
7.169426045,4769,0x39,0x04,Read,ACK
7.169622650,4769,0x39,0x64,Read,NAK
7.171904410,4771,0x38,0x00,Write,ACK
7.172008895,4771,0x38,0x07,Write,ACK
7.172339390,4772,0x39,0x0C,Read,ACK
7.172445000,4772,0x39,0x2A,Read,ACK
7.172550420,4772,0x39,0xBE,Read,NAK
7.175641130,4774,0x38,0x00,Write,ACK
7.175745610,4774,0x38,0x22,Write,ACK
7.175965570,4775,0x39,0x0C,Read,ACK
7.176071175,4775,0x39,0x04,Read,ACK
7.176195210,4775,0x39,0x75,Read,NAK
7.178541920,4777,0x38,0x00,Write,ACK
7.178646405,4777,0x38,0x07,Write,ACK
7.178958040,4778,0x39,0x0C,Read,ACK
7.179063650,4778,0x39,0x2A,Read,ACK
7.179184930,4778,0x39,0x4F,Read,NAK
7.182725050,4780,0x38,0x00,Write,ACK
7.182829535,4780,0x38,0x22,Write,ACK
7.183157345,4781,0x39,0x0C,Read,ACK
7.183262955,4781,0x39,0x04,Read,ACK
7.183368000,4781,0x39,0xD1,Read,NAK
7.185372035,4783,0x38,0x00,Write,ACK
7.185476520,4783,0x38,0x07,Write,ACK
7.185788345,4784,0x39,0x0C,Read,ACK
7.185893950,4784,0x39,0x25,Read,ACK
7.185999370,4784,0x39,0x8A,Read,NAK
7.188696130,4786,0x38,0x00,Write,ACK
7.188800615,4786,0x38,0x22,Write,ACK
7.189112315,4787,0x39,0x0C,Read,ACK
7.189233785,4787,0x39,0x04,Read,ACK
7.189338830,4787,0x39,0x5C,Read,NAK
7.191363725,4789,0x38,0x00,Write,ACK
7.191560015,4789,0x38,0x07,Write,ACK
7.191779970,4790,0x39,0x0C,Read,ACK
7.191885580,4790,0x39,0x47,Read,ACK
7.191991185,4790,0x39,0x2E,Read,NAK
7.194531315,4792,0x38,0x00,Write,ACK
7.194635795,4792,0x38,0x22,Write,ACK
7.194942875,4793,0x39,0x0C,Read,ACK
7.195048485,4793,0x39,0x04,Read,ACK
7.195169455,4793,0x39,0x74,Read,NAK
7.197664305,4795,0x38,0x00,Write,ACK
7.197768785,4795,0x38,0x07,Write,ACK
7.197988745,4796,0x39,0x0C,Read,ACK
7.198094350,4796,0x39,0x33,Read,ACK
7.198303630,4796,0x39,0xAA,Read,NAK
7.200359815,4798,0x38,0x00,Write,ACK
7.200464300,4798,0x38,0x22,Write,ACK
7.200771190,4799,0x39,0x0C,Read,ACK
7.200876795,4799,0x39,0x03,Read,ACK
7.200982030,4799,0x39,0x98,Read,NAK
7.203867835,4801,0x38,0x00,Write,ACK
7.203972315,4801,0x38,0x07,Write,ACK
7.204297945,4802,0x39,0x0C,Read,ACK
7.204403550,4802,0x39,0x3D,Read,ACK
7.204509345,4802,0x39,0x44,Read,NAK
7.206697555,4804,0x38,0x00,Write,ACK
7.206802035,4804,0x38,0x22,Write,ACK
7.207021995,4805,0x39,0x0C,Read,ACK
7.207143525,4805,0x39,0x03,Read,ACK
7.207248760,4805,0x39,0x85,Read,NAK
7.209661735,4807,0x38,0x00,Write,ACK
7.209766220,4807,0x38,0x07,Write,ACK
7.210072985,4808,0x39,0x0C,Read,ACK
7.210196640,4808,0x39,0x33,Read,ACK
7.210302250,4808,0x39,0xFA,Read,NAK
7.213282355,4810,0x38,0x00,Write,ACK
7.213473520,4810,0x38,0x22,Write,ACK
7.213693480,4811,0x39,0x0C,Read,ACK
7.213799085,4811,0x39,0x05,Read,ACK
7.213904320,4811,0x39,0xB9,Read,NAK
7.218661010,4813,0x38,0x00,Write,ACK
7.218765495,4813,0x38,0x07,Write,ACK
7.218985450,4814,0x39,0x0C,Read,ACK
7.219091060,4814,0x39,0x25,Read,ACK
7.219298900,4814,0x39,0xDA,Read,NAK
7.221376945,4816,0x38,0x00,Write,ACK
7.221481425,4816,0x38,0x22,Write,ACK
7.221701385,4817,0x39,0x0C,Read,ACK
7.221893800,4817,0x39,0x04,Read,ACK
7.221998845,4817,0x39,0xB6,Read,NAK
7.224931925,4819,0x38,0x00,Write,ACK
7.225036410,4819,0x38,0x07,Write,ACK
7.225358850,4820,0x39,0x0C,Read,ACK
7.225464460,4820,0x39,0x1B,Read,ACK
7.225570065,4820,0x39,0x71,Read,NAK
7.227593960,4822,0x38,0x00,Write,ACK
7.227785440,4822,0x38,0x22,Write,ACK
7.228005400,4823,0x39,0x0C,Read,ACK
7.228129990,4823,0x39,0x05,Read,ACK
7.228235225,4823,0x39,0x3F,Read,NAK
7.230556330,4825,0x38,0x00,Write,ACK
7.230660815,4825,0x38,0x07,Write,ACK
7.230880775,4826,0x39,0x0C,Read,ACK
7.231073315,4826,0x39,0x51,Read,ACK
7.231194595,4826,0x39,0xF5,Read,NAK
7.233834775,4828,0x38,0x00,Write,ACK
7.233939255,4828,0x38,0x22,Write,ACK
7.234177265,4829,0x39,0x0C,Read,ACK
7.234282870,4829,0x39,0x04,Read,ACK
7.234474475,4829,0x39,0xD2,Read,NAK
7.236563075,4831,0x38,0x00,Write,ACK
7.236667555,4831,0x38,0x07,Write,ACK
7.237010295,4832,0x39,0x0C,Read,ACK
7.237131825,4832,0x39,0x29,Read,ACK
7.237237245,4832,0x39,0x02,Read,NAK
7.239328905,4834,0x38,0x00,Write,ACK
7.239520445,4834,0x38,0x22,Write,ACK
7.239740405,4835,0x39,0x0C,Read,ACK
7.239846010,4835,0x39,0x05,Read,ACK
7.239951245,4835,0x39,0x36,Read,NAK
7.242925420,4837,0x38,0x00,Write,ACK
7.243029900,4837,0x38,0x07,Write,ACK
7.243265785,4838,0x39,0x0C,Read,ACK
7.243371390,4838,0x39,0x3E,Read,ACK
7.243477185,4838,0x39,0xBF,Read,NAK
7.245537615,4840,0x38,0x00,Write,ACK
7.245642100,4840,0x38,0x22,Write,ACK
7.245862060,4841,0x39,0x0C,Read,ACK
7.245967665,4841,0x39,0x03,Read,ACK
7.246072895,4841,0x39,0xFE,Read,NAK
7.249148120,4843,0x38,0x00,Write,ACK
7.249252600,4843,0x38,0x07,Write,ACK
7.249472560,4844,0x39,0x0C,Read,ACK
7.249664600,4844,0x39,0x15,Read,ACK
7.249770020,4844,0x39,0x2F,Read,NAK
7.253409250,4846,0x38,0x00,Write,ACK
7.253513735,4846,0x38,0x22,Write,ACK
7.253820125,4847,0x39,0x0C,Read,ACK
7.253925735,4847,0x39,0x04,Read,ACK
7.254030780,4847,0x39,0xD7,Read,NAK
7.256783560,4849,0x38,0x00,Write,ACK
7.256888040,4849,0x38,0x07,Write,ACK
7.257210610,4850,0x39,0x0C,Read,ACK
7.257316215,4850,0x39,0x54,Read,ACK
7.257421635,4850,0x39,0x70,Read,NAK
7.259509920,4852,0x38,0x00,Write,ACK
7.259614405,4852,0x38,0x22,Write,ACK
7.259921230,4853,0x39,0x0C,Read,ACK
7.260026840,4853,0x39,0x05,Read,ACK
7.260151055,4853,0x39,0x02,Read,NAK
7.263121170,4855,0x38,0x00,Write,ACK
7.263225655,4855,0x38,0x07,Write,ACK
7.263445610,4856,0x39,0x0C,Read,ACK
7.263551220,4856,0x39,0x3A,Read,ACK
7.263656825,4856,0x39,0x2B,Read,NAK
7.266308495,4858,0x38,0x00,Write,ACK
7.266500035,4858,0x38,0x22,Write,ACK
7.266719995,4859,0x39,0x0C,Read,ACK
7.266825600,4859,0x39,0x05,Read,ACK
7.266930835,4859,0x39,0x4B,Read,NAK
7.269690045,4861,0x38,0x00,Write,ACK
7.269881465,4861,0x38,0x07,Write,ACK
7.270119470,4862,0x39,0x0C,Read,ACK
7.270225075,4862,0x39,0x32,Read,ACK
7.270330495,4862,0x39,0x8F,Read,NAK
7.272681085,4864,0x38,0x00,Write,ACK
7.272785565,4864,0x38,0x22,Write,ACK
7.273005525,4865,0x39,0x0C,Read,ACK
7.273213800,4865,0x39,0x04,Read,ACK
7.273318845,4865,0x39,0xB8,Read,NAK
7.275775040,4867,0x38,0x00,Write,ACK
7.275879525,4867,0x38,0x07,Write,ACK
7.276118405,4868,0x39,0x0C,Read,ACK
7.276224010,4868,0x39,0x20,Read,ACK
7.276329055,4868,0x39,0xFA,Read,NAK
7.278544310,4870,0x38,0x00,Write,ACK
7.278648790,4870,0x38,0x22,Write,ACK
7.278868750,4871,0x39,0x0C,Read,ACK
7.278974355,4871,0x39,0x03,Read,ACK
7.279182635,4871,0x39,0x88,Read,NAK
7.281816630,4873,0x38,0x00,Write,ACK
7.281921110,4873,0x38,0x07,Write,ACK
7.282159120,4874,0x39,0x0C,Read,ACK
7.282264725,4874,0x39,0x28,Read,ACK
7.282456830,4874,0x39,0xC6,Read,NAK
7.284675015,4876,0x38,0x00,Write,ACK
7.284779500,4876,0x38,0x22,Write,ACK
7.285102315,4877,0x39,0x0C,Read,ACK
7.285207925,4877,0x39,0x04,Read,ACK
7.285312970,4877,0x39,0x78,Read,NAK
7.287647630,4879,0x38,0x00,Write,ACK
7.287752110,4879,0x38,0x07,Write,ACK
7.287972070,4880,0x39,0x0C,Read,ACK
7.288096660,4880,0x39,0x48,Read,ACK
7.288201895,4880,0x39,0x9B,Read,NAK
7.291199240,4882,0x38,0x00,Write,ACK
7.291303720,4882,0x38,0x22,Write,ACK
7.291523680,4883,0x39,0x0C,Read,ACK
7.291715910,4883,0x39,0x03,Read,ACK
7.291821140,4883,0x39,0x7A,Read,NAK
7.294656420,4885,0x38,0x00,Write,ACK
7.294760900,4885,0x38,0x07,Write,ACK
7.294980860,4886,0x39,0x0C,Read,ACK
7.295189265,4886,0x39,0x3F,Read,ACK
7.295295245,4886,0x39,0xDF,Read,NAK
7.297283045,4888,0x38,0x00,Write,ACK
7.297387530,4888,0x38,0x22,Write,ACK
7.297694110,4889,0x39,0x0C,Read,ACK
7.297799715,4889,0x39,0x03,Read,ACK
7.297904945,4889,0x39,0xD4,Read,NAK
7.300668595,4891,0x38,0x00,Write,ACK
7.300773075,4891,0x38,0x07,Write,ACK
7.301095895,4892,0x39,0x0C,Read,ACK
7.301201500,4892,0x39,0x35,Read,ACK
7.301307110,4892,0x39,0x56,Read,NAK
7.303690855,4894,0x38,0x00,Write,ACK
7.303795340,4894,0x38,0x22,Write,ACK
7.304015295,4895,0x39,0x0C,Read,ACK
7.304139890,4895,0x39,0x04,Read,ACK
7.304244935,4895,0x39,0x99,Read,NAK
7.306445320,4897,0x38,0x00,Write,ACK
7.306549805,4897,0x38,0x07,Write,ACK
7.306769760,4898,0x39,0x0C,Read,ACK
7.306961990,4898,0x39,0x41,Read,ACK
7.307083150,4898,0x39,0x4B,Read,NAK
7.309694785,4900,0x38,0x00,Write,ACK
7.309799270,4900,0x38,0x22,Write,ACK
7.310019225,4901,0x39,0x0C,Read,ACK
7.310142885,4901,0x39,0x04,Read,ACK
7.310334425,4901,0x39,0x95,Read,NAK
7.312537810,4903,0x38,0x00,Write,ACK
7.312642295,4903,0x38,0x07,Write,ACK
7.312948745,4904,0x39,0x0C,Read,ACK
7.313070215,4904,0x39,0x29,Read,ACK
7.313175635,4904,0x39,0xD1,Read,NAK
7.315922735,4906,0x38,0x00,Write,ACK
7.316027215,4906,0x38,0x22,Write,ACK
7.316353220,4907,0x39,0x0C,Read,ACK
7.316458825,4907,0x39,0x04,Read,ACK
7.316563870,4907,0x39,0xE4,Read,NAK
7.318727910,4909,0x38,0x00,Write,ACK
7.318832395,4909,0x38,0x07,Write,ACK
7.319068215,4910,0x39,0x0C,Read,ACK
7.319173820,4910,0x39,0x3A,Read,ACK
7.319279430,4910,0x39,0xBA,Read,NAK
7.321387635,4912,0x38,0x00,Write,ACK
7.321492120,4912,0x38,0x22,Write,ACK
7.321712075,4913,0x39,0x0C,Read,ACK
7.321817685,4913,0x39,0x05,Read,ACK
7.321922915,4913,0x39,0x4C,Read,NAK
7.326562760,4915,0x38,0x00,Write,ACK
7.326667245,4915,0x38,0x07,Write,ACK
7.326887200,4916,0x39,0x0C,Read,ACK
7.326992810,4916,0x39,0x3F,Read,ACK
7.327201775,4916,0x39,0x8F,Read,NAK
7.330625170,4918,0x38,0x00,Write,ACK
7.330729650,4918,0x38,0x22,Write,ACK
7.330949610,4919,0x39,0x0C,Read,ACK
7.331071140,4919,0x39,0x04,Read,ACK
7.331176185,4919,0x39,0x1F,Read,NAK
7.334279510,4921,0x38,0x00,Write,ACK
7.334383995,4921,0x38,0x07,Write,ACK
7.334690635,4922,0x39,0x0C,Read,ACK
7.334796245,4922,0x39,0x4C,Read,ACK
7.334901665,4922,0x39,0x82,Read,NAK
7.338175110,4924,0x38,0x00,Write,ACK
7.338279590,4924,0x38,0x22,Write,ACK
7.338499550,4925,0x39,0x0C,Read,ACK
7.338605155,4925,0x39,0x03,Read,ACK
7.338710390,4925,0x39,0xD7,Read,NAK
7.341547540,4927,0x38,0x00,Write,ACK
7.341652025,4927,0x38,0x07,Write,ACK
7.341871985,4928,0x39,0x0C,Read,ACK
7.341977590,4928,0x39,0x34,Read,ACK
7.342101060,4928,0x39,0x39,Read,NAK
7.344415920,4930,0x38,0x00,Write,ACK
7.344520405,4930,0x38,0x22,Write,ACK
7.344827295,4931,0x39,0x0C,Read,ACK
7.344932905,4931,0x39,0x04,Read,ACK
7.345053875,4931,0x39,0xE2,Read,NAK
7.347340510,4933,0x38,0x00,Write,ACK
7.347444990,4933,0x38,0x07,Write,ACK
7.347664950,4934,0x39,0x0C,Read,ACK
7.347770555,4934,0x39,0x6D,Read,ACK
7.347876350,4934,0x39,0x47,Read,NAK
7.350523210,4936,0x38,0x00,Write,ACK
7.350714065,4936,0x38,0x22,Write,ACK
7.350934025,4937,0x39,0x0C,Read,ACK
7.351055495,4937,0x39,0x04,Read,ACK
7.351160540,4937,0x39,0xCF,Read,NAK
7.353333820,4939,0x38,0x00,Write,ACK
7.353438305,4939,0x38,0x07,Write,ACK
7.353658260,4940,0x39,0x0C,Read,ACK
7.353763870,4940,0x39,0x32,Read,ACK
7.353869290,4940,0x39,0xAC,Read,NAK
7.356752905,4942,0x38,0x00,Write,ACK
7.356857390,4942,0x38,0x22,Write,ACK
7.357093275,4943,0x39,0x0C,Read,ACK
7.357198880,4943,0x39,0x05,Read,ACK
7.357304115,4943,0x39,0x4C,Read,NAK
7.359391335,4945,0x38,0x00,Write,ACK
7.359495820,4945,0x38,0x07,Write,ACK
7.359715775,4946,0x39,0x0C,Read,ACK
7.359821385,4946,0x39,0x51,Read,ACK
7.360032160,4946,0x39,0xE6,Read,NAK
7.362884555,4948,0x38,0x00,Write,ACK
7.362989035,4948,0x38,0x22,Write,ACK
7.363224920,4949,0x39,0x0C,Read,ACK
7.363417020,4949,0x39,0x04,Read,ACK
7.363522065,4949,0x39,0xE7,Read,NAK
7.365700285,4951,0x38,0x00,Write,ACK
7.365891265,4951,0x38,0x07,Write,ACK
7.366129270,4952,0x39,0x0C,Read,ACK
7.366234880,4952,0x39,0x70,Read,ACK
7.366340300,4952,0x39,0xDF,Read,NAK
7.369303730,4954,0x38,0x00,Write,ACK
7.369408210,4954,0x38,0x22,Write,ACK
7.369628170,4955,0x39,0x0C,Read,ACK
7.369733775,4955,0x39,0x03,Read,ACK
7.369839010,4955,0x39,0xB8,Read,NAK
7.372820675,4957,0x38,0x00,Write,ACK
7.372925160,4957,0x38,0x07,Write,ACK
7.373160980,4958,0x39,0x0C,Read,ACK
7.373266590,4958,0x39,0x45,Read,ACK
7.373458315,4958,0x39,0xD1,Read,NAK
7.375506070,4960,0x38,0x00,Write,ACK
7.375610555,4960,0x38,0x22,Write,ACK
7.375830510,4961,0x39,0x0C,Read,ACK
7.376041975,4961,0x39,0x04,Read,ACK
7.376147020,4961,0x39,0x7B,Read,NAK
7.378362960,4963,0x38,0x00,Write,ACK
7.378553940,4963,0x38,0x07,Write,ACK
7.378773895,4964,0x39,0x0C,Read,ACK
7.378879505,4964,0x39,0x38,Read,ACK
7.379000850,4964,0x39,0x60,Read,NAK
7.381566770,4966,0x38,0x00,Write,ACK
7.381671255,4966,0x38,0x22,Write,ACK
7.381977895,4967,0x39,0x0C,Read,ACK
7.382101550,4967,0x39,0x03,Read,ACK
7.382206785,4967,0x39,0x8D,Read,NAK
7.384515965,4969,0x38,0x00,Write,ACK
7.384620445,4969,0x38,0x07,Write,ACK
7.384840405,4970,0x39,0x0C,Read,ACK
7.384946010,4970,0x39,0x55,Read,ACK
7.385067545,4970,0x39,0x8D,Read,NAK
7.387252945,4972,0x38,0x00,Write,ACK
7.387357425,4972,0x38,0x22,Write,ACK
7.387577385,4973,0x39,0x0C,Read,ACK
7.387769735,4973,0x39,0x04,Read,ACK
7.387874780,4973,0x39,0xFE,Read,NAK
7.390898920,4975,0x38,0x00,Write,ACK
7.391019390,4975,0x38,0x07,Write,ACK
7.391326030,4976,0x39,0x0C,Read,ACK
7.391431640,4976,0x39,0x3A,Read,ACK
7.391537245,4976,0x39,0x4B,Read,NAK
7.393717085,4978,0x38,0x00,Write,ACK
7.393821570,4978,0x38,0x22,Write,ACK
7.394059575,4979,0x39,0x0C,Read,ACK
7.394165180,4979,0x39,0x04,Read,ACK
7.394270225,4979,0x39,0xBA,Read,NAK
7.396434205,4981,0x38,0x00,Write,ACK
7.396538690,4981,0x38,0x07,Write,ACK
7.396758645,4982,0x39,0x0C,Read,ACK
7.396864255,4982,0x39,0x43,Read,ACK
7.397072345,4982,0x39,0xC6,Read,NAK
7.399205910,4984,0x38,0x00,Write,ACK
7.399310390,4984,0x38,0x22,Write,ACK
7.399616845,4985,0x39,0x0C,Read,ACK
7.399722450,4985,0x39,0x03,Read,ACK
7.399827685,4985,0x39,0xAE,Read,NAK
7.402930700,4987,0x38,0x00,Write,ACK
7.403051045,4987,0x38,0x07,Write,ACK
7.403271000,4988,0x39,0x0C,Read,ACK
7.403376610,4988,0x39,0x46,Read,ACK
7.403482030,4988,0x39,0x10,Read,NAK
7.406310750,4990,0x38,0x00,Write,ACK
7.406415235,4990,0x38,0x22,Write,ACK
7.406635190,4991,0x39,0x0C,Read,ACK
7.406740800,4991,0x39,0x05,Read,ACK
7.406846030,4991,0x39,0x03,Read,NAK
7.409695360,4993,0x38,0x00,Write,ACK
7.409799845,4993,0x38,0x07,Write,ACK
7.410037850,4994,0x39,0x0C,Read,ACK
7.410143460,4994,0x39,0x3C,Read,ACK
7.410249065,4994,0x39,0x37,Read,NAK
7.412610145,4996,0x38,0x00,Write,ACK
7.412714625,4996,0x38,0x22,Write,ACK
7.413037070,4997,0x39,0x0C,Read,ACK
7.413142675,4997,0x39,0x04,Read,ACK
7.413247720,4997,0x39,0x90,Read,NAK
7.416563695,4999,0x38,0x00,Write,ACK
7.416668180,4999,0x38,0x07,Write,ACK
7.416888135,5000,0x39,0x0C,Read,ACK
7.417009670,5000,0x39,0x5F,Read,ACK
7.417115650,5000,0x39,0x97,Read,NAK
7.420248890,5002,0x38,0x00,Write,ACK
7.420353375,5002,0x38,0x22,Write,ACK
7.420660205,5003,0x39,0x0C,Read,ACK
7.420765810,5003,0x39,0x05,Read,ACK
7.420871045,5003,0x39,0xBA,Read,NAK
7.423285520,5005,0x38,0x00,Write,ACK
7.423390000,5005,0x38,0x07,Write,ACK
7.423609960,5006,0x39,0x0C,Read,ACK
7.423715565,5006,0x39,0x39,Read,ACK
7.423821175,5006,0x39,0x3E,Read,NAK
7.426607990,5008,0x38,0x00,Write,ACK
7.426712470,5008,0x38,0x22,Write,ACK
7.426932430,5009,0x39,0x0C,Read,ACK
7.427053965,5009,0x39,0x04,Read,ACK
7.427159010,5009,0x39,0x3C,Read,NAK
7.429259595,5011,0x38,0x00,Write,ACK
7.429364080,5011,0x38,0x07,Write,ACK
7.429584035,5012,0x39,0x0C,Read,ACK
7.429689645,5012,0x39,0x59,Read,ACK
7.429882435,5012,0x39,0x55,Read,NAK
7.432669875,5014,0x38,0x00,Write,ACK
7.432774360,5014,0x38,0x22,Write,ACK
7.433010240,5015,0x39,0x0C,Read,ACK
7.433115850,5015,0x39,0x04,Read,ACK
7.433307205,5015,0x39,0xB3,Read,NAK
7.435395615,5017,0x38,0x00,Write,ACK
7.435500095,5017,0x38,0x07,Write,ACK
7.435806865,5018,0x39,0x0C,Read,ACK
7.435912470,5018,0x39,0x29,Read,ACK
7.436036875,5018,0x39,0x32,Read,NAK
7.438796590,5020,0x38,0x00,Write,ACK
7.438901070,5020,0x38,0x22,Write,ACK
7.439223950,5021,0x39,0x0C,Read,ACK
7.439329555,5021,0x39,0x04,Read,ACK
7.439434600,5021,0x39,0xB8,Read,NAK
7.441721425,5023,0x38,0x00,Write,ACK
7.441825905,5023,0x38,0x07,Write,ACK
7.442063915,5024,0x39,0x0C,Read,ACK
7.442169520,5024,0x39,0x30,Read,ACK
7.442274755,5024,0x39,0x2A,Read,NAK
7.445341670,5026,0x38,0x00,Write,ACK
7.445446150,5026,0x38,0x22,Write,ACK
7.445666110,5027,0x39,0x0C,Read,ACK
7.445771715,5027,0x39,0x03,Read,ACK
7.445981805,5027,0x39,0x8B,Read,NAK
7.448733400,5029,0x38,0x00,Write,ACK
7.448837885,5029,0x38,0x07,Write,ACK
7.449073765,5030,0x39,0x0C,Read,ACK
7.449266180,5030,0x39,0x21,Read,ACK
7.449371415,5030,0x39,0xF2,Read,NAK
7.451457200,5032,0x38,0x00,Write,ACK
7.451561685,5032,0x38,0x22,Write,ACK
7.451868515,5033,0x39,0x0C,Read,ACK
7.451993045,5033,0x39,0x05,Read,ACK
7.452098275,5033,0x39,0x1D,Read,NAK
7.454388720,5035,0x38,0x00,Write,ACK
7.454493205,5035,0x38,0x07,Write,ACK
7.454713160,5036,0x39,0x0C,Read,ACK
7.454818770,5036,0x39,0x34,Read,ACK
7.454924190,5036,0x39,0xB8,Read,NAK
7.457687210,5038,0x38,0x00,Write,ACK
7.457791695,5038,0x38,0x22,Write,ACK
7.458029700,5039,0x39,0x0C,Read,ACK
7.458135305,5039,0x39,0x04,Read,ACK
7.458240350,5039,0x39,0x6E,Read,NAK
7.460394210,5041,0x38,0x00,Write,ACK
7.460498695,5041,0x38,0x07,Write,ACK
7.460718655,5042,0x39,0x0C,Read,ACK
7.460824260,5042,0x39,0x3C,Read,ACK
7.461032600,5042,0x39,0x17,Read,NAK
7.463196955,5044,0x38,0x00,Write,ACK
7.463301435,5044,0x38,0x22,Write,ACK
7.463608390,5045,0x39,0x0C,Read,ACK
7.463714000,5045,0x39,0x05,Read,ACK
7.463819230,5045,0x39,0x11,Read,NAK
7.466594555,5047,0x38,0x00,Write,ACK
7.466699040,5047,0x38,0x07,Write,ACK
7.467021730,5048,0x39,0x0C,Read,ACK
7.467127340,5048,0x39,0x80,Read,ACK
7.467232385,5048,0x39,0x3C,Read,NAK
7.469214500,5050,0x38,0x00,Write,ACK
7.469318980,5050,0x38,0x22,Write,ACK
7.469625750,5051,0x39,0x0C,Read,ACK
7.469731355,5051,0x39,0x04,Read,ACK
7.469836400,5051,0x39,0xCB,Read,NAK
7.472815070,5053,0x38,0x00,Write,ACK
7.472935480,5053,0x38,0x07,Write,ACK
7.473155435,5054,0x39,0x0C,Read,ACK
7.473261045,5054,0x39,0x69,Read,ACK
7.473366650,5054,0x39,0xB0,Read,NAK
7.475500965,5056,0x38,0x00,Write,ACK
7.475605445,5056,0x38,0x22,Write,ACK
7.475825405,5057,0x39,0x0C,Read,ACK
7.475949935,5057,0x39,0x04,Read,ACK
7.476054980,5057,0x39,0x75,Read,NAK
7.478799955,5059,0x38,0x00,Write,ACK
7.478904435,5059,0x38,0x07,Write,ACK
7.479140320,5060,0x39,0x0C,Read,ACK
7.479245925,5060,0x39,0x7A,Read,ACK
7.479351720,5060,0x39,0xF8,Read,NAK
7.483280230,5062,0x38,0x00,Write,ACK
7.483384715,5062,0x38,0x22,Write,ACK
7.483604670,5063,0x39,0x0C,Read,ACK
7.483797150,5063,0x39,0x04,Read,ACK
7.483902195,5063,0x39,0x74,Read,NAK
7.487515755,5065,0x38,0x00,Write,ACK
7.487620240,5065,0x38,0x07,Write,ACK
7.487840200,5066,0x39,0x0C,Read,ACK
7.488051160,5066,0x39,0x54,Read,ACK
7.488156580,5066,0x39,0xCF,Read,NAK
7.490259045,5068,0x38,0x00,Write,ACK
7.490363525,5068,0x38,0x22,Write,ACK
7.490670045,5069,0x39,0x0C,Read,ACK
7.490775650,5069,0x39,0x04,Read,ACK
7.490880695,5069,0x39,0x9A,Read,NAK
7.493434565,5071,0x38,0x00,Write,ACK
7.493539050,5071,0x38,0x07,Write,ACK
7.493759005,5072,0x39,0x0C,Read,ACK
7.493969845,5072,0x39,0x63,Read,ACK
7.494075450,5072,0x39,0x4E,Read,NAK
7.496199650,5074,0x38,0x00,Write,ACK
7.496304130,5074,0x38,0x22,Write,ACK
7.496610895,5075,0x39,0x0C,Read,ACK
7.496716505,5075,0x39,0x05,Read,ACK
7.496821735,5075,0x39,0x89,Read,NAK
7.499494515,5077,0x38,0x00,Write,ACK
7.499599000,5077,0x38,0x07,Write,ACK
7.499960475,5078,0x39,0x0C,Read,ACK
7.500066080,5078,0x39,0x5B,Read,ACK
7.500171875,5078,0x39,0xAF,Read,NAK
7.502497165,5080,0x38,0x00,Write,ACK
7.502601650,5080,0x38,0x22,Write,ACK
7.502821610,5081,0x39,0x0C,Read,ACK
7.502943140,5081,0x39,0x04,Read,ACK
7.503048185,5081,0x39,0x9D,Read,NAK
7.505132035,5083,0x38,0x00,Write,ACK
7.505236520,5083,0x38,0x07,Write,ACK
7.505456480,5084,0x39,0x0C,Read,ACK
7.505562085,5084,0x39,0x73,Read,ACK
7.505754250,5084,0x39,0x51,Read,NAK
7.508505220,5086,0x38,0x00,Write,ACK
7.508609705,5086,0x38,0x22,Write,ACK
7.508829660,5087,0x39,0x0C,Read,ACK
7.509038065,5087,0x39,0x03,Read,ACK
7.509143295,5087,0x39,0x7C,Read,NAK
7.511172875,5089,0x38,0x00,Write,ACK
7.511277360,5089,0x38,0x07,Write,ACK
7.511583690,5090,0x39,0x0C,Read,ACK
7.511689295,5090,0x39,0x4B,Read,ACK
7.511794905,5090,0x39,0x15,Read,NAK
7.514725920,5092,0x38,0x00,Write,ACK
7.514830405,5092,0x38,0x22,Write,ACK
7.515153220,5093,0x39,0x0C,Read,ACK
7.515258830,5093,0x39,0x04,Read,ACK
7.515363875,5093,0x39,0x8E,Read,NAK
7.517630835,5095,0x38,0x00,Write,ACK
7.517735320,5095,0x38,0x07,Write,ACK
7.517973325,5096,0x39,0x0C,Read,ACK
7.518078935,5096,0x39,0x76,Read,ACK
7.518184730,5096,0x39,0xC2,Read,NAK
7.521105565,5098,0x38,0x00,Write,ACK
7.521210050,5098,0x38,0x22,Write,ACK
7.521430010,5099,0x39,0x0C,Read,ACK
7.521535615,5099,0x39,0x05,Read,ACK
7.521764755,5099,0x39,0x6C,Read,NAK
7.524696085,5101,0x38,0x00,Write,ACK
7.524800565,5101,0x38,0x07,Write,ACK
7.525123135,5102,0x39,0x0C,Read,ACK
7.525228740,5102,0x39,0x53,Read,ACK
7.525334350,5102,0x39,0x82,Read,NAK
7.527323645,5104,0x38,0x00,Write,ACK
7.527428130,5104,0x38,0x22,Write,ACK
7.527734585,5105,0x39,0x0C,Read,ACK
7.527840190,5105,0x39,0x05,Read,ACK
7.527964410,5105,0x39,0x8C,Read,NAK
7.530717750,5107,0x38,0x00,Write,ACK
7.530822235,5107,0x38,0x07,Write,ACK
7.531145050,5108,0x39,0x0C,Read,ACK
7.531250660,5108,0x39,0x59,Read,ACK
7.531356265,5108,0x39,0x35,Read,NAK
7.533534920,5110,0x38,0x00,Write,ACK
7.533639400,5110,0x38,0x22,Write,ACK
7.533859360,5111,0x39,0x0C,Read,ACK
7.533982955,5111,0x39,0x03,Read,ACK
7.534088185,5111,0x39,0xD0,Read,NAK
7.536249980,5113,0x38,0x00,Write,ACK
7.536354460,5113,0x38,0x07,Write,ACK
7.536574420,5114,0x39,0x0C,Read,ACK
7.536680025,5114,0x39,0x64,Read,ACK
7.536888365,5114,0x39,0x5C,Read,NAK
7.539571450,5116,0x38,0x00,Write,ACK
7.539675935,5116,0x38,0x22,Write,ACK
7.539914875,5117,0x39,0x0C,Read,ACK
7.540020485,5117,0x39,0x05,Read,ACK
7.540212210,5117,0x39,0x05,Read,NAK
7.542400795,5119,0x38,0x00,Write,ACK
7.542505280,5119,0x38,0x07,Write,ACK
7.542811795,5120,0x39,0x0C,Read,ACK
7.542933330,5120,0x39,0x4D,Read,ACK
7.543038935,5120,0x39,0x50,Read,NAK
7.545136900,5122,0x38,0x00,Write,ACK
7.545328255,5122,0x38,0x22,Write,ACK
7.545548215,5123,0x39,0x0C,Read,ACK
7.545653820,5123,0x39,0x03,Read,ACK
7.545759055,5123,0x39,0xBF,Read,NAK
7.548455250,5125,0x38,0x00,Write,ACK
7.548646795,5125,0x38,0x07,Write,ACK
7.548882675,5126,0x39,0x0C,Read,ACK
7.548988285,5126,0x39,0x77,Read,ACK
7.549094265,5126,0x39,0x70,Read,NAK
7.551228330,5128,0x38,0x00,Write,ACK
7.551332810,5128,0x38,0x22,Write,ACK
7.551552770,5129,0x39,0x0C,Read,ACK
7.551658375,5129,0x39,0x04,Read,ACK
7.551763420,5129,0x39,0xD4,Read,NAK
7.554981410,5131,0x38,0x00,Write,ACK
7.555085890,5131,0x38,0x07,Write,ACK
7.555392345,5132,0x39,0x0C,Read,ACK
7.555497955,5132,0x39,0x55,Read,ACK
7.555603560,5132,0x39,0x5E,Read,NAK
7.559123820,5134,0x38,0x00,Write,ACK
7.559228300,5134,0x38,0x22,Write,ACK
7.559448260,5135,0x39,0x0C,Read,ACK
7.559640740,5135,0x39,0x03,Read,ACK
7.559745970,5135,0x39,0x7F,Read,NAK
7.562652260,5137,0x38,0x00,Write,ACK
7.562756740,5137,0x38,0x07,Write,ACK
7.563079495,5138,0x39,0x0C,Read,ACK
7.563185105,5138,0x39,0x2C,Read,ACK
7.563290520,5138,0x39,0x4B,Read,NAK
7.566360310,5140,0x38,0x00,Write,ACK
7.566464795,5140,0x38,0x22,Write,ACK
7.566684750,5141,0x39,0x0C,Read,ACK
7.566790360,5141,0x39,0x04,Read,ACK
7.566911330,5141,0x39,0x17,Read,NAK
7.569080430,5143,0x38,0x00,Write,ACK
7.569184910,5143,0x38,0x07,Write,ACK
7.569404870,5144,0x39,0x0C,Read,ACK
7.569510475,5144,0x39,0x2B,Read,ACK
7.569702705,5144,0x39,0xFC,Read,NAK
7.572563525,5146,0x38,0x00,Write,ACK
7.572668010,5146,0x38,0x22,Write,ACK
7.572903830,5147,0x39,0x0C,Read,ACK
7.573096185,5147,0x39,0x03,Read,ACK
7.573201415,5147,0x39,0x70,Read,NAK
7.575204640,5149,0x38,0x00,Write,ACK
7.575309125,5149,0x38,0x07,Write,ACK
7.575615890,5150,0x39,0x0C,Read,ACK
7.575721500,5150,0x39,0x16,Read,ACK
7.575826920,5150,0x39,0xBC,Read,NAK
7.578661260,5152,0x38,0x00,Write,ACK
7.578765745,5152,0x38,0x22,Write,ACK
7.579088560,5153,0x39,0x0C,Read,ACK
7.579194170,5153,0x39,0x04,Read,ACK
7.579299215,5153,0x39,0xCF,Read,NAK
7.581524080,5158,0x38,0x00,Write,ACK
7.581628565,5158,0x38,0x07,Write,ACK
7.581866570,5159,0x39,0x0C,Read,ACK
7.581972180,5159,0x39,0x36,Read,ACK
7.582077785,5159,0x39,0x34,Read,NAK
7.584404080,5161,0x38,0x00,Write,ACK
7.584508560,5161,0x38,0x22,Write,ACK
7.584728520,5162,0x39,0x0C,Read,ACK
7.584937110,5162,0x39,0x03,Read,ACK
7.585042340,5162,0x39,0xE4,Read,NAK
7.587071920,5164,0x38,0x00,Write,ACK
7.587176405,5164,0x38,0x07,Write,ACK
7.587519145,5165,0x39,0x0C,Read,ACK
7.587624750,5165,0x39,0x2B,Read,ACK
7.587730360,5165,0x39,0x1E,Read,NAK
7.590516300,5167,0x38,0x00,Write,ACK
7.590620785,5167,0x38,0x22,Write,ACK
7.590943475,5168,0x39,0x0C,Read,ACK
7.591049085,5168,0x39,0x06,Read,ACK
7.591154315,5168,0x39,0x94,Read,NAK
7.593594585,5170,0x38,0x00,Write,ACK
7.593699065,5170,0x38,0x07,Write,ACK
7.593937070,5171,0x39,0x0C,Read,ACK
7.594129365,5171,0x39,0x2E,Read,ACK
7.594234970,5171,0x39,0xF6,Read,NAK
7.597077180,5173,0x38,0x00,Write,ACK
7.597181665,5173,0x38,0x22,Write,ACK
7.597488495,5174,0x39,0x0C,Read,ACK
7.597594100,5174,0x39,0x04,Read,ACK
7.597699145,5174,0x39,0x9F,Read,NAK
7.600440935,5176,0x38,0x00,Write,ACK
7.600545420,5176,0x38,0x07,Write,ACK
7.600867795,5177,0x39,0x0C,Read,ACK
7.600973405,5177,0x39,0x4D,Read,ACK
7.601079010,5177,0x39,0xBF,Read,NAK
7.603231125,5179,0x38,0x00,Write,ACK
7.603422105,5179,0x38,0x22,Write,ACK
7.603642060,5180,0x39,0x0C,Read,ACK
7.603747670,5180,0x39,0x03,Read,ACK
7.603871885,5180,0x39,0xC9,Read,NAK
7.606593500,5182,0x38,0x00,Write,ACK
7.606784605,5182,0x38,0x07,Write,ACK
7.607020490,5183,0x39,0x0C,Read,ACK
7.607126095,5183,0x39,0x27,Read,ACK
7.607231705,5183,0x39,0x76,Read,NAK
7.609349215,5185,0x38,0x00,Write,ACK
7.609453700,5185,0x38,0x22,Write,ACK
7.609673660,5186,0x39,0x0C,Read,ACK
7.609779265,5186,0x39,0x04,Read,ACK
7.609902295,5186,0x39,0x05,Read,NAK
7.612242015,5188,0x38,0x00,Write,ACK
7.612346500,5188,0x38,0x07,Write,ACK
7.612653080,5189,0x39,0x0C,Read,ACK
7.612758685,5189,0x39,0x50,Read,ACK
7.612879840,5189,0x39,0xF8,Read,NAK
7.615562675,5191,0x38,0x00,Write,ACK
7.615667160,5191,0x38,0x22,Write,ACK
7.615906100,5192,0x39,0x0C,Read,ACK
7.616098705,5192,0x39,0x03,Read,ACK
7.616203940,5192,0x39,0x8F,Read,NAK
7.618292660,5194,0x38,0x00,Write,ACK
7.618397145,5194,0x38,0x07,Write,ACK
7.618703535,5195,0x39,0x0C,Read,ACK
7.618825070,5195,0x39,0x1F,Read,ACK
7.618930860,5195,0x39,0x19,Read,NAK
7.621126565,5197,0x38,0x00,Write,ACK
7.621231050,5197,0x38,0x22,Write,ACK
7.621451005,5198,0x39,0x0C,Read,ACK
7.621556615,5198,0x39,0x04,Read,ACK
7.621661660,5198,0x39,0xAA,Read,NAK
7.625287210,5200,0x38,0x00,Write,ACK
7.625391695,5200,0x38,0x07,Write,ACK
7.625611650,5201,0x39,0x0C,Read,ACK
7.625717260,5201,0x39,0x54,Read,ACK
7.625840730,5201,0x39,0xAF,Read,NAK
7.628104255,5203,0x38,0x00,Write,ACK
7.628208740,5203,0x38,0x22,Write,ACK
7.628428695,5204,0x39,0x0C,Read,ACK
7.628534305,5204,0x39,0x04,Read,ACK
7.628726280,5204,0x39,0xB8,Read,NAK
7.631569555,5206,0x38,0x00,Write,ACK
7.631674040,5206,0x38,0x07,Write,ACK
7.631913045,5207,0x39,0x0C,Read,ACK
7.632105210,5207,0x39,0x31,Read,ACK
7.632210630,5207,0x39,0x6C,Read,NAK
7.635179495,5209,0x38,0x00,Write,ACK
7.635283980,5209,0x38,0x22,Write,ACK
7.635590680,5210,0x39,0x0C,Read,ACK
7.635696290,5210,0x39,0x04,Read,ACK
7.635820320,5210,0x39,0xDD,Read,NAK
7.638542810,5212,0x38,0x00,Write,ACK
7.638647295,5212,0x38,0x07,Write,ACK
7.638969675,5213,0x39,0x0C,Read,ACK
7.639075280,5213,0x39,0x42,Read,ACK
7.639180515,5213,0x39,0x98,Read,NAK
7.641159630,5215,0x38,0x00,Write,ACK
7.641351235,5215,0x38,0x22,Write,ACK
7.641571195,5216,0x39,0x0C,Read,ACK
7.641676800,5216,0x39,0x03,Read,ACK
7.641782035,5216,0x39,0xB0,Read,NAK
7.644112135,5218,0x38,0x00,Write,ACK
7.644216615,5218,0x38,0x07,Write,ACK
7.644436575,5219,0x39,0x0C,Read,ACK
7.644542180,5219,0x39,0x54,Read,ACK
7.644734160,5219,0x39,0x40,Read,NAK
7.647453780,5221,0x38,0x00,Write,ACK
7.647558260,5221,0x38,0x22,Write,ACK
7.647778220,5222,0x39,0x0C,Read,ACK
7.647902750,5222,0x39,0x04,Read,ACK
7.648094480,5222,0x39,0x65,Read,NAK
7.650190445,5224,0x38,0x00,Write,ACK
7.650294930,5224,0x38,0x07,Write,ACK
7.650601385,5225,0x39,0x0C,Read,ACK
7.650706990,5225,0x39,0x3C,Read,ACK
7.650828520,5225,0x39,0xF5,Read,NAK
7.653152505,5227,0x38,0x00,Write,ACK
7.653256985,5227,0x38,0x22,Write,ACK
7.653476945,5228,0x39,0x0C,Read,ACK
7.653582550,5228,0x39,0x05,Read,ACK
7.653687785,5228,0x39,0x2A,Read,NAK
7.656542925,5230,0x38,0x00,Write,ACK
7.656647405,5230,0x38,0x07,Write,ACK
7.656883290,5231,0x39,0x0C,Read,ACK
7.656988895,5231,0x39,0x55,Read,ACK
7.657094505,5231,0x39,0x2E,Read,NAK
7.659221885,5233,0x38,0x00,Write,ACK
7.659326365,5233,0x38,0x22,Write,ACK
7.659546325,5234,0x39,0x0C,Read,ACK
7.659651930,5234,0x39,0x04,Read,ACK
7.659862585,5234,0x39,0x90,Read,NAK
7.662719845,5236,0x38,0x00,Write,ACK
7.662840255,5236,0x38,0x07,Write,ACK
7.663060215,5237,0x39,0x0C,Read,ACK
7.663252440,5237,0x39,0x2F,Read,ACK
7.663358235,5237,0x39,0x94,Read,NAK
7.665325490,5239,0x38,0x00,Write,ACK
7.665429970,5239,0x38,0x22,Write,ACK
7.665736490,5240,0x39,0x0C,Read,ACK
7.665860080,5240,0x39,0x04,Read,ACK
7.665965125,5240,0x39,0xDC,Read,NAK
7.668391840,5242,0x38,0x00,Write,ACK
7.668496325,5242,0x38,0x07,Write,ACK
7.668716285,5243,0x39,0x0C,Read,ACK
7.668837815,5243,0x39,0x46,Read,ACK
7.668943235,5243,0x39,0x70,Read,NAK
7.671809365,5245,0x38,0x00,Write,ACK
7.671913850,5245,0x38,0x22,Write,ACK
7.672133805,5246,0x39,0x0C,Read,ACK
7.672239415,5246,0x39,0x04,Read,ACK
7.672344460,5246,0x39,0xB6,Read,NAK
7.675366845,5248,0x38,0x00,Write,ACK
7.675471330,5248,0x38,0x07,Write,ACK
7.675691285,5249,0x39,0x0C,Read,ACK
7.675902440,5249,0x39,0x18,Read,ACK
7.676007670,5249,0x39,0x98,Read,NAK
7.678171710,5251,0x38,0x00,Write,ACK
7.678363065,5251,0x38,0x22,Write,ACK
7.678583025,5252,0x39,0x0C,Read,ACK
7.678688630,5252,0x39,0x05,Read,ACK
7.678809790,5252,0x39,0x07,Read,NAK
7.681437225,5254,0x38,0x00,Write,ACK
7.681541710,5254,0x38,0x07,Write,ACK
7.681866400,5255,0x39,0x0C,Read,ACK
7.681972005,5255,0x39,0x35,Read,ACK
7.682077615,5255,0x39,0xB6,Read,NAK
7.684398410,5257,0x38,0x00,Write,ACK
7.684502895,5257,0x38,0x22,Write,ACK
7.684722850,5258,0x39,0x0C,Read,ACK
7.684844385,5258,0x39,0x03,Read,ACK
7.684949615,5258,0x39,0xD2,Read,NAK
7.687107350,5260,0x38,0x00,Write,ACK
7.687211830,5260,0x38,0x07,Write,ACK
7.687431790,5261,0x39,0x0C,Read,ACK
7.687624330,5261,0x39,0x0D,Read,ACK
7.687729750,5261,0x39,0x91,Read,NAK
7.690496830,5263,0x38,0x00,Write,ACK
7.690601315,5263,0x38,0x22,Write,ACK
7.690837195,5264,0x39,0x0C,Read,ACK
7.691029300,5264,0x39,0x03,Read,ACK
7.691134535,5264,0x39,0x8C,Read,NAK
7.693213140,5266,0x38,0x00,Write,ACK
7.693317620,5266,0x38,0x07,Write,ACK
7.693624700,5267,0x39,0x0C,Read,ACK
7.693730305,5267,0x39,0x2C,Read,ACK
7.693853775,5267,0x39,0x9A,Read,NAK
7.696130480,5269,0x38,0x00,Write,ACK
7.696234965,5269,0x38,0x22,Write,ACK
7.696454920,5270,0x39,0x0C,Read,ACK
7.696560530,5270,0x39,0x05,Read,ACK
7.696665760,5270,0x39,0xBC,Read,NAK
7.699286765,5272,0x38,0x00,Write,ACK
7.699478120,5272,0x38,0x07,Write,ACK
7.699698080,5273,0x39,0x0C,Read,ACK
7.699822670,5273,0x39,0x10,Read,ACK
7.699927715,5273,0x39,0xF9,Read,NAK
7.702359865,5275,0x38,0x00,Write,ACK
7.702464345,5275,0x38,0x22,Write,ACK
7.702771240,5276,0x39,0x0C,Read,ACK
7.702892710,5276,0x39,0x04,Read,ACK
7.702997755,5276,0x39,0xC5,Read,NAK
7.705300625,5278,0x38,0x00,Write,ACK
7.705405110,5278,0x38,0x07,Write,ACK
7.705625065,5279,0x39,0x0C,Read,ACK
7.705730675,5279,0x39,0x25,Read,ACK
7.705854145,5279,0x39,0x4B,Read,NAK
7.709257990,5281,0x38,0x00,Write,ACK
7.709362470,5281,0x38,0x22,Write,ACK
7.709669240,5282,0x39,0x0C,Read,ACK
7.709792895,5282,0x39,0x03,Read,ACK
7.709898125,5282,0x39,0xA8,Read,NAK
7.712250525,5284,0x38,0x00,Write,ACK
7.712355005,5284,0x38,0x07,Write,ACK
7.712574965,5285,0x39,0x0C,Read,ACK
7.712680570,5285,0x39,0x14,Read,ACK
7.712888225,5285,0x39,0x02,Read,NAK
7.715610340,5287,0x38,0x00,Write,ACK
7.715714825,5287,0x38,0x22,Write,ACK
7.715953770,5288,0x39,0x0C,Read,ACK
7.716059375,5288,0x39,0x05,Read,ACK
7.716251165,5288,0x39,0x05,Read,NAK
7.718364810,5290,0x38,0x00,Write,ACK
7.718469290,5290,0x38,0x07,Write,ACK
7.718827955,5291,0x39,0x0C,Read,ACK
7.718933565,5291,0x39,0x20,Read,ACK
7.719038610,5291,0x39,0x35,Read,NAK
7.721006300,5293,0x38,0x00,Write,ACK
7.721110780,5293,0x38,0x22,Write,ACK
7.721417295,5294,0x39,0x0C,Read,ACK
7.721522905,5294,0x39,0x04,Read,ACK
7.721627950,5294,0x39,0xBA,Read,NAK
7.724565465,5296,0x38,0x00,Write,ACK
7.724772430,5296,0x38,0x07,Write,ACK
7.724992390,5297,0x39,0x0C,Read,ACK
7.725097995,5297,0x39,0x1D,Read,ACK
7.725203605,5297,0x39,0x6D,Read,NAK
7.727301570,5299,0x38,0x00,Write,ACK
7.727406050,5299,0x38,0x22,Write,ACK
7.727626010,5300,0x39,0x0C,Read,ACK
7.727750600,5300,0x39,0x03,Read,ACK
7.727855835,5300,0x39,0xAB,Read,NAK
7.730099750,5302,0x38,0x00,Write,ACK
7.730204235,5302,0x38,0x07,Write,ACK
7.730424190,5303,0x39,0x0C,Read,ACK
7.730616610,5303,0x39,0x1A,Read,ACK
7.730737955,5303,0x39,0xF2,Read,NAK
7.733424845,5305,0x38,0x00,Write,ACK
7.733529330,5305,0x38,0x22,Write,ACK
7.733767335,5306,0x39,0x0C,Read,ACK
7.733959690,5306,0x39,0x03,Read,ACK
7.734064920,5306,0x39,0xF3,Read,NAK
7.736144465,5308,0x38,0x00,Write,ACK
7.736248945,5308,0x38,0x07,Write,ACK
7.736555590,5309,0x39,0x0C,Read,ACK
7.736661195,5309,0x39,0x22,Read,ACK
7.736782355,5309,0x39,0xF0,Read,NAK
7.739466435,5311,0x38,0x00,Write,ACK
7.739570920,5311,0x38,0x22,Write,ACK
7.739896860,5312,0x39,0x0C,Read,ACK
7.740002465,5312,0x39,0x05,Read,ACK
7.740107695,5312,0x39,0x0C,Read,NAK
7.742818445,5314,0x38,0x00,Write,ACK
7.742922930,5314,0x38,0x07,Write,ACK
7.743229820,5315,0x39,0x0C,Read,ACK
7.743335430,5315,0x39,0x17,Read,ACK
7.743441035,5315,0x39,0x3B,Read,NAK
7.746953610,5317,0x38,0x00,Write,ACK
7.747058095,5317,0x38,0x22,Write,ACK
7.747278050,5318,0x39,0x0C,Read,ACK
7.747470530,5318,0x39,0x04,Read,ACK
7.747575575,5318,0x39,0xEB,Read,NAK
7.750346465,5320,0x38,0x00,Write,ACK
7.750450950,5320,0x38,0x07,Write,ACK
7.750670910,5321,0x39,0x0C,Read,ACK
7.750879125,5321,0x39,0x3B,Read,ACK
7.750984920,5321,0x39,0xB8,Read,NAK
7.752306610,5323,0x45,0x3F,Read,ACK
7.752375680,5323,0x45,0xFF,Read,ACK
7.752531435,5323,0x45,0xFF,Read,ACK
7.752950425,5326,0x38,0x00,Write,ACK
7.753054905,5326,0x38,0x22,Write,ACK
7.753361175,5327,0x39,0x0C,Read,ACK
7.753466780,5327,0x39,0x04,Read,ACK
7.753571825,5327,0x39,0x9C,Read,NAK
7.756249160,5329,0x38,0x00,Write,ACK
7.756353645,5329,0x38,0x07,Write,ACK
7.756573605,5330,0x39,0x0C,Read,ACK
7.756781945,5330,0x39,0x38,Read,ACK
7.756887365,5330,0x39,0xDE,Read,NAK
7.758936865,5332,0x38,0x00,Write,ACK
7.759041350,5332,0x38,0x22,Write,ACK
7.759348115,5333,0x39,0x0C,Read,ACK
7.759453725,5333,0x39,0x05,Read,ACK
7.759558955,5333,0x39,0x53,Read,NAK
7.762451130,5335,0x38,0x00,Write,ACK
7.762678395,5335,0x38,0x07,Write,ACK
7.762914275,5336,0x39,0x0C,Read,ACK
7.763019885,5336,0x39,0x51,Read,ACK
7.763125305,5336,0x39,0x17,Read,NAK
7.765220585,5338,0x38,0x00,Write,ACK
7.765325065,5338,0x38,0x22,Write,ACK
7.765545025,5339,0x39,0x0C,Read,ACK
7.765650630,5339,0x39,0x05,Read,ACK
7.765773790,5339,0x39,0x96,Read,NAK
7.767994225,5341,0x38,0x00,Write,ACK
7.768098705,5341,0x38,0x07,Write,ACK
7.768318665,5342,0x39,0x0C,Read,ACK
7.768510705,5342,0x39,0x49,Read,ACK
7.768616125,5342,0x39,0x69,Read,NAK
7.771276350,5344,0x38,0x00,Write,ACK
7.771380835,5344,0x38,0x22,Write,ACK
7.771600790,5345,0x39,0x0C,Read,ACK
7.771725385,5345,0x39,0x04,Read,ACK
7.771917300,5345,0x39,0xA7,Read,NAK
7.774117440,5347,0x38,0x00,Write,ACK
7.774221920,5347,0x38,0x07,Write,ACK
7.774528250,5348,0x39,0x0C,Read,ACK
7.774633855,5348,0x39,0x57,Read,ACK
7.774755515,5348,0x39,0xA9,Read,NAK
7.777411495,5350,0x38,0x00,Write,ACK
7.777515975,5350,0x38,0x22,Write,ACK
7.777840915,5351,0x39,0x0C,Read,ACK
7.777946525,5351,0x39,0x05,Read,ACK
7.778051755,5351,0x39,0x66,Read,NAK
7.780462170,5353,0x38,0x00,Write,ACK
7.780566655,5353,0x38,0x07,Write,ACK
7.780802600,5354,0x39,0x0C,Read,ACK
7.780908205,5354,0x39,0x57,Read,ACK
7.781014000,5354,0x39,0x3A,Read,NAK
7.784035390,5356,0x38,0x00,Write,ACK
7.784139870,5356,0x38,0x22,Write,ACK
7.784359830,5357,0x39,0x0C,Read,ACK
7.784589780,5357,0x39,0x05,Read,ACK
7.784710875,5357,0x39,0x12,Read,NAK
7.787013995,5359,0x38,0x00,Write,ACK
7.787118480,5359,0x38,0x07,Write,ACK
7.787338440,5360,0x39,0x0C,Read,ACK
7.787444045,5360,0x39,0x4A,Read,ACK
7.787549465,5360,0x39,0x57,Read,NAK
7.790202385,5362,0x38,0x00,Write,ACK
7.790393550,5362,0x38,0x22,Write,ACK
7.790613510,5363,0x39,0x0C,Read,ACK
7.790734980,5363,0x39,0x04,Read,ACK
7.790840025,5363,0x39,0xE7,Read,NAK
7.793010560,5365,0x38,0x00,Write,ACK
7.793115040,5365,0x38,0x07,Write,ACK
7.793335000,5366,0x39,0x0C,Read,ACK
7.793440605,5366,0x39,0x40,Read,ACK
7.793545650,5366,0x39,0x1E,Read,NAK
7.796435515,5368,0x38,0x00,Write,ACK
7.796539995,5368,0x38,0x22,Write,ACK
7.796775820,5369,0x39,0x0C,Read,ACK
7.796881425,5369,0x39,0x05,Read,ACK
7.796986655,5369,0x39,0x06,Read,NAK
7.799089305,5371,0x38,0x00,Write,ACK
7.799193790,5371,0x38,0x07,Write,ACK
7.799413745,5372,0x39,0x0C,Read,ACK
7.799519355,5372,0x39,0x33,Read,ACK
7.799730880,5372,0x39,0x3B,Read,NAK
7.802597760,5374,0x38,0x00,Write,ACK
7.802718105,5374,0x38,0x22,Write,ACK
7.803024810,5375,0x39,0x0C,Read,ACK
7.803130420,5375,0x39,0x08,Read,ACK
7.803235465,5375,0x39,0x24,Read,NAK
7.805182980,5377,0x38,0x00,Write,ACK
7.805287465,5377,0x38,0x07,Write,ACK
7.805594230,5378,0x39,0x0C,Read,ACK
7.805717885,5378,0x39,0x48,Read,ACK
7.805823120,5378,0x39,0xA4,Read,NAK
7.807965925,5380,0x38,0x00,Write,ACK
7.808157220,5380,0x38,0x22,Write,ACK
7.808377175,5381,0x39,0x0C,Read,ACK
7.808482785,5381,0x39,0x06,Read,ACK
7.808588015,5381,0x39,0x38,Read,NAK
7.811267915,5383,0x38,0x00,Write,ACK
7.811459140,5383,0x38,0x07,Write,ACK
7.811698085,5384,0x39,0x0C,Read,ACK
7.811803695,5384,0x39,0x27,Read,ACK
7.811909300,5384,0x39,0x27,Read,NAK
7.814233220,5386,0x38,0x00,Write,ACK
7.814337700,5386,0x38,0x22,Write,ACK
7.814557660,5387,0x39,0x0C,Read,ACK
7.814679130,5387,0x39,0x04,Read,ACK
7.814870735,5387,0x39,0x17,Read,NAK
7.817121145,5389,0x38,0x00,Write,ACK
7.817225630,5389,0x38,0x07,Write,ACK
7.817532580,5390,0x39,0x0C,Read,ACK
7.817638190,5390,0x39,0x5C,Read,ACK
7.817761785,5390,0x39,0xCD,Read,NAK
7.821216465,5392,0x38,0x00,Write,ACK
7.821320950,5392,0x38,0x22,Write,ACK
7.821627465,5393,0x39,0x0C,Read,ACK
7.821751120,5393,0x39,0x04,Read,ACK
7.821856165,5393,0x39,0x30,Read,NAK
7.824808480,5395,0x38,0x00,Write,ACK
7.824999585,5395,0x38,0x07,Write,ACK
7.825219545,5396,0x39,0x0C,Read,ACK
7.825325150,5396,0x39,0x2D,Read,ACK
7.825430760,5396,0x39,0x19,Read,NAK
7.828345480,5398,0x38,0x00,Write,ACK
7.828449960,5398,0x38,0x22,Write,ACK
7.828685780,5399,0x39,0x0C,Read,ACK
7.828791390,5399,0x39,0x05,Read,ACK
7.828896620,5399,0x39,0xA0,Read,NAK
7.831237215,5401,0x38,0x00,Write,ACK
7.831341695,5401,0x38,0x07,Write,ACK
7.831667325,5402,0x39,0x0C,Read,ACK
7.831772930,5402,0x39,0x2C,Read,ACK
7.831878350,5402,0x39,0x7B,Read,NAK
7.834181225,5404,0x38,0x00,Write,ACK
7.834285705,5404,0x38,0x22,Write,ACK
7.834505665,5405,0x39,0x0C,Read,ACK
7.834611270,5405,0x39,0x04,Read,ACK
7.834732240,5405,0x39,0xD8,Read,NAK
7.837325395,5407,0x38,0x00,Write,ACK
7.837429875,5407,0x38,0x07,Write,ACK
7.837754690,5408,0x39,0x0C,Read,ACK
7.837860300,5408,0x39,0x59,Read,ACK
7.837965905,5408,0x39,0xE6,Read,NAK
7.840142250,5410,0x38,0x00,Write,ACK
7.840246730,5410,0x38,0x22,Write,ACK
7.840466690,5411,0x39,0x0C,Read,ACK
7.840572295,5411,0x39,0x04,Read,ACK
7.840693270,5411,0x39,0x63,Read,NAK
7.842941430,5413,0x38,0x00,Write,ACK
7.843045915,5413,0x38,0x07,Write,ACK
7.843265870,5414,0x39,0x0C,Read,ACK
7.843457975,5414,0x39,0x48,Read,ACK
7.843563210,5414,0x39,0xBA,Read,NAK
7.846339845,5416,0x38,0x00,Write,ACK
7.846444330,5416,0x38,0x22,Write,ACK
7.846680210,5417,0x39,0x0C,Read,ACK
7.846872375,5417,0x39,0x04,Read,ACK
7.846977420,5417,0x39,0x81,Read,NAK
7.848943990,5419,0x38,0x00,Write,ACK
7.849048470,5419,0x38,0x07,Write,ACK
7.849354990,5420,0x39,0x0C,Read,ACK
7.849460595,5420,0x39,0x69,Read,ACK
7.849566200,5420,0x39,0x74,Read,NAK
7.852503590,5422,0x38,0x00,Write,ACK
7.852608075,5422,0x38,0x22,Write,ACK
7.852931015,5423,0x39,0x0C,Read,ACK
7.853036625,5423,0x39,0x07,Read,ACK
7.853142045,5423,0x39,0xF6,Read,NAK
7.855499310,5425,0x38,0x00,Write,ACK
7.855603795,5425,0x38,0x07,Write,ACK
7.855842735,5426,0x39,0x0C,Read,ACK
7.855948345,5426,0x39,0x27,Read,ACK
7.856140385,5426,0x39,0xA6,Read,NAK
7.859016385,5428,0x38,0x00,Write,ACK
7.859120865,5428,0x38,0x22,Write,ACK
7.859340825,5429,0x39,0x0C,Read,ACK
7.859533115,5429,0x39,0x07,Read,ACK
7.859657460,5429,0x39,0x76,Read,NAK
7.862502795,5431,0x38,0x00,Write,ACK
7.862607275,5431,0x38,0x07,Write,ACK
7.862930095,5432,0x39,0x0C,Read,ACK
7.863035700,5432,0x39,0x3D,Read,ACK
7.863141495,5432,0x39,0x05,Read,NAK
7.865968280,5434,0x38,0x00,Write,ACK
7.866072765,5434,0x38,0x22,Write,ACK
7.866379655,5435,0x39,0x0C,Read,ACK
7.866485260,5435,0x39,0x06,Read,ACK
7.866590495,5435,0x39,0xD3,Read,NAK
7.869199885,5437,0x38,0x00,Write,ACK
7.869304365,5437,0x38,0x07,Write,ACK
7.869629120,5438,0x39,0x0C,Read,ACK
7.869734725,5438,0x39,0x31,Read,ACK
7.869840145,5438,0x39,0x50,Read,NAK
7.872167935,5440,0x38,0x00,Write,ACK
7.872272420,5440,0x38,0x22,Write,ACK
7.872492380,5441,0x39,0x0C,Read,ACK
7.872597985,5441,0x39,0x07,Read,ACK
7.872719330,5441,0x39,0xD8,Read,NAK
7.874922840,5443,0x38,0x00,Write,ACK
7.875027325,5443,0x38,0x07,Write,ACK
7.875247280,5444,0x39,0x0C,Read,ACK
7.875352890,5444,0x39,0x2E,Read,ACK
7.875545365,5444,0x39,0x07,Read,NAK
7.878362660,5446,0x38,0x00,Write,ACK
7.878467145,5446,0x38,0x22,Write,ACK
7.878703025,5447,0x39,0x0C,Read,ACK
7.878895880,5447,0x39,0x06,Read,ACK
7.879001110,5447,0x39,0x8A,Read,NAK
7.880969615,5449,0x38,0x00,Write,ACK
7.881074095,5449,0x38,0x07,Write,ACK
7.881380615,5450,0x39,0x0C,Read,ACK
7.881486220,5450,0x39,0x4F,Read,ACK
7.881592015,5450,0x39,0x1C,Read,NAK
7.883990815,5452,0x38,0x00,Write,ACK
7.884095295,5452,0x38,0x22,Write,ACK
7.884315255,5453,0x39,0x0C,Read,ACK
7.884420860,5453,0x39,0x08,Read,ACK
7.884525905,5453,0x39,0xBD,Read,NAK
7.887246150,5455,0x38,0x00,Write,ACK
7.887350630,5455,0x38,0x07,Write,ACK
7.887570590,5456,0x39,0x0C,Read,ACK
7.887695180,5456,0x39,0x3C,Read,ACK
7.887800790,5456,0x39,0x27,Read,NAK
7.890095355,5458,0x38,0x00,Write,ACK
7.890199840,5458,0x38,0x22,Write,ACK
7.890419795,5459,0x39,0x0C,Read,ACK
7.890628260,5459,0x39,0x07,Read,ACK
7.890733680,5459,0x39,0x3B,Read,NAK
7.893149780,5461,0x38,0x00,Write,ACK
7.893254265,5461,0x38,0x07,Write,ACK
7.893474220,5462,0x39,0x0C,Read,ACK
7.893579830,5462,0x39,0x4B,Read,ACK
7.893703420,5462,0x39,0xC4,Read,NAK
7.897152920,5464,0x38,0x00,Write,ACK
7.897257405,5464,0x38,0x22,Write,ACK
7.897564360,5465,0x39,0x0C,Read,ACK
7.897688015,5465,0x39,0x06,Read,ACK
7.897793245,5465,0x39,0xB4,Read,NAK
7.899983890,5467,0x38,0x00,Write,ACK
7.900088375,5467,0x38,0x07,Write,ACK
7.900308335,5468,0x39,0x0C,Read,ACK
7.900413940,5468,0x39,0x46,Read,ACK
7.900519360,5468,0x39,0x70,Read,NAK
7.902835970,5470,0x38,0x00,Write,ACK
7.902940455,5470,0x38,0x22,Write,ACK
7.903246910,5471,0x39,0x0C,Read,ACK
7.903352515,5471,0x39,0x08,Read,ACK
7.903457560,5471,0x39,0x42,Read,NAK
7.906139520,5473,0x38,0x00,Write,ACK
7.906244000,5473,0x38,0x07,Write,ACK
7.906463960,5474,0x39,0x0C,Read,ACK
7.906672300,5474,0x39,0x3D,Read,ACK
7.906778095,5474,0x39,0x64,Read,NAK
7.908833345,5476,0x38,0x00,Write,ACK
7.908937825,5476,0x38,0x22,Write,ACK
7.909244220,5477,0x39,0x0C,Read,ACK
7.909349825,5477,0x39,0x04,Read,ACK
7.909454870,5477,0x39,0xB1,Read,NAK
7.912230885,5479,0x38,0x00,Write,ACK
7.912335365,5479,0x38,0x07,Write,ACK
7.912658060,5480,0x39,0x0C,Read,ACK
7.912763665,5480,0x39,0x24,Read,ACK
7.912868900,5480,0x39,0xAC,Read,NAK
7.918001240,5482,0x38,0x00,Write,ACK
7.918105725,5482,0x38,0x22,Write,ACK
7.918412430,5483,0x39,0x0C,Read,ACK
7.918518035,5483,0x39,0x07,Read,ACK
7.918639380,5483,0x39,0x29,Read,NAK
7.920822720,5485,0x38,0x00,Write,ACK
7.921013760,5485,0x38,0x07,Write,ACK
7.921233720,5486,0x39,0x0C,Read,ACK
7.921339325,5486,0x39,0x7B,Read,ACK
7.921445310,5486,0x39,0xD6,Read,NAK
7.924446775,5488,0x38,0x00,Write,ACK
7.924551255,5488,0x38,0x22,Write,ACK
7.924787140,5489,0x39,0x0C,Read,ACK
7.924892745,5489,0x39,0x08,Read,ACK
7.924997790,5489,0x39,0xDE,Read,NAK
7.927090575,5491,0x38,0x00,Write,ACK
7.927195055,5491,0x38,0x07,Write,ACK
7.927415015,5492,0x39,0x0C,Read,ACK
7.927520620,5492,0x39,0x2B,Read,ACK
7.927731775,5492,0x39,0x1E,Read,NAK
7.930453200,5494,0x38,0x00,Write,ACK
7.930557685,5494,0x38,0x22,Write,ACK
7.930793505,5495,0x39,0x0C,Read,ACK
7.930899115,5495,0x39,0x06,Read,ACK
7.931090840,5495,0x39,0x59,Read,NAK
7.933393465,5497,0x38,0x00,Write,ACK
7.933602805,5497,0x38,0x07,Write,ACK
7.933822765,5498,0x39,0x0C,Read,ACK
7.933928370,5498,0x39,0x23,Read,ACK
7.934033790,5498,0x39,0x20,Read,NAK
7.936949820,5500,0x38,0x00,Write,ACK
7.937054305,5500,0x38,0x22,Write,ACK
7.937274260,5501,0x39,0x0C,Read,ACK
7.937379870,5501,0x39,0x05,Read,ACK
7.937485100,5501,0x39,0xE2,Read,NAK
7.940421115,5503,0x38,0x00,Write,ACK
7.940525600,5503,0x38,0x07,Write,ACK
7.940761420,5504,0x39,0x0C,Read,ACK
7.940867025,5504,0x39,0x4C,Read,ACK
7.940972445,5504,0x39,0x42,Read,NAK
7.943219610,5506,0x38,0x00,Write,ACK
7.943324095,5506,0x38,0x22,Write,ACK
7.943544050,5507,0x39,0x0C,Read,ACK
7.943755705,5507,0x39,0x08,Read,ACK
7.943860750,5507,0x39,0xA8,Read,NAK
7.945932985,5509,0x38,0x00,Write,ACK
7.946037465,5509,0x38,0x07,Write,ACK
7.946344360,5510,0x39,0x0C,Read,ACK
7.946449965,5510,0x39,0x2D,Read,ACK
7.946571435,5510,0x39,0x49,Read,NAK
7.949179385,5512,0x38,0x00,Write,ACK
7.949283870,5512,0x38,0x22,Write,ACK
7.949608685,5513,0x39,0x0C,Read,ACK
7.949714295,5513,0x39,0x06,Read,ACK
7.949819525,5513,0x39,0xF4,Read,NAK
7.952007110,5515,0x38,0x00,Write,ACK
7.952198150,5515,0x38,0x07,Write,ACK
7.952418110,5516,0x39,0x0C,Read,ACK
7.952523715,5516,0x39,0x2E,Read,ACK
7.952645185,5516,0x39,0x66,Read,NAK
7.954906280,5518,0x38,0x00,Write,ACK
7.955010760,5518,0x38,0x22,Write,ACK
7.955230720,5519,0x39,0x0C,Read,ACK
7.955336325,5519,0x39,0x07,Read,ACK
7.955528745,5519,0x39,0xE7,Read,NAK
7.958161175,5521,0x38,0x00,Write,ACK
7.958265660,5521,0x38,0x07,Write,ACK
7.958485615,5522,0x39,0x0C,Read,ACK
7.958607085,5522,0x39,0x31,Read,ACK
7.958712505,5522,0x39,0xBF,Read,NAK
7.960839140,5524,0x38,0x00,Write,ACK
7.960943620,5524,0x38,0x22,Write,ACK
7.961163580,5525,0x39,0x0C,Read,ACK
7.961269185,5525,0x39,0x04,Read,ACK
7.961461165,5525,0x39,0xF0,Read,NAK
7.964328235,5527,0x38,0x00,Write,ACK
7.964432715,5527,0x38,0x07,Write,ACK
7.964755720,5528,0x39,0x0C,Read,ACK
7.964861325,5528,0x39,0x20,Read,ACK
7.964966370,5528,0x39,0x56,Read,NAK
7.966989210,5530,0x38,0x00,Write,ACK
7.967093690,5530,0x38,0x22,Write,ACK
7.967400520,5531,0x39,0x0C,Read,ACK
7.967506125,5531,0x39,0x08,Read,ACK
7.967630095,5531,0x39,0x99,Read,NAK
7.970713750,5533,0x38,0x00,Write,ACK
7.970818230,5533,0x38,0x07,Write,ACK
7.971038190,5534,0x39,0x0C,Read,ACK
7.971143795,5534,0x39,0x33,Read,ACK
7.971249405,5534,0x39,0xBA,Read,NAK
7.974969635,5536,0x38,0x00,Write,ACK
7.975074115,5536,0x38,0x22,Write,ACK
7.975294075,5537,0x39,0x0C,Read,ACK
7.975399680,5537,0x39,0x07,Read,ACK
7.975505100,5537,0x39,0x56,Read,NAK
7.978380975,5539,0x38,0x00,Write,ACK
7.978485460,5539,0x38,0x07,Write,ACK
7.978721340,5540,0x39,0x0C,Read,ACK
7.978826950,5540,0x39,0x37,Read,ACK
7.978932745,5540,0x39,0x03,Read,NAK
7.980984745,5542,0x38,0x00,Write,ACK
7.981089225,5542,0x38,0x22,Write,ACK
7.981309185,5543,0x39,0x0C,Read,ACK
7.981414790,5543,0x39,0x04,Read,ACK
7.981660605,5543,0x39,0xF5,Read,NAK
7.983863425,5545,0x38,0x00,Write,ACK
7.983967910,5545,0x38,0x07,Write,ACK
7.984274550,5546,0x39,0x0C,Read,ACK
7.984380160,5546,0x39,0x2A,Read,ACK
7.984485580,5546,0x39,0xAF,Read,NAK
7.987219060,5548,0x38,0x00,Write,ACK
7.987323545,5548,0x38,0x22,Write,ACK
7.987649045,5549,0x39,0x0C,Read,ACK
7.987754655,5549,0x39,0x08,Read,ACK
7.987859700,5549,0x39,0x9C,Read,NAK
7.990007690,5551,0x38,0x00,Write,ACK
7.990112170,5551,0x38,0x07,Write,ACK
7.990332130,5552,0x39,0x0C,Read,ACK
7.990437735,5552,0x39,0x47,Read,ACK
7.990559270,5552,0x39,0xDC,Read,NAK
7.992775145,5554,0x38,0x00,Write,ACK
7.992879630,5554,0x38,0x22,Write,ACK
7.993099585,5555,0x39,0x0C,Read,ACK
7.993205195,5555,0x39,0x07,Read,ACK
7.993397545,5555,0x39,0x85,Read,NAK
7.996095680,5557,0x38,0x00,Write,ACK
7.996200165,5557,0x38,0x07,Write,ACK
7.996420120,5558,0x39,0x0C,Read,ACK
7.996541655,5558,0x39,0x52,Read,ACK
7.996647075,5558,0x39,0x38,Read,NAK
7.998765960,5560,0x38,0x00,Write,ACK
7.998870445,5560,0x38,0x22,Write,ACK
7.999090400,5561,0x39,0x0C,Read,ACK
7.999282505,5561,0x39,0x06,Read,ACK
7.999387735,5561,0x39,0x91,Read,NAK
8.002281035,5563,0x38,0x00,Write,ACK
8.002385520,5563,0x38,0x07,Write,ACK
8.002707835,5564,0x39,0x0C,Read,ACK
8.002813440,5564,0x39,0x42,Read,ACK
8.002918675,5564,0x39,0x19,Read,NAK
8.005010335,5566,0x38,0x00,Write,ACK
8.005201810,5566,0x38,0x22,Write,ACK
8.005421770,5567,0x39,0x0C,Read,ACK
8.005545425,5567,0x39,0x06,Read,ACK
8.005650660,5567,0x39,0x30,Read,NAK
8.008110785,5569,0x38,0x00,Write,ACK
8.008215270,5569,0x38,0x07,Write,ACK
8.008435225,5570,0x39,0x0C,Read,ACK
8.008644005,5570,0x39,0x37,Read,ACK
8.008749800,5570,0x39,0xF1,Read,NAK
8.011478410,5572,0x38,0x00,Write,ACK
8.011601815,5572,0x38,0x22,Write,ACK
8.011908645,5573,0x39,0x0C,Read,ACK
8.012014250,5573,0x39,0x05,Read,ACK
8.012119485,5573,0x39,0x9F,Read,NAK
8.014069440,5575,0x38,0x00,Write,ACK
8.014173920,5575,0x38,0x07,Write,ACK
8.014480500,5576,0x39,0x0C,Read,ACK
8.014602035,5576,0x39,0x26,Read,ACK
8.014707455,5576,0x39,0x19,Read,NAK
8.017403900,5578,0x38,0x00,Write,ACK
8.017526430,5578,0x38,0x22,Write,ACK
8.017833450,5579,0x39,0x0C,Read,ACK
8.017939055,5579,0x39,0x05,Read,ACK
8.018044290,5579,0x39,0xC6,Read,NAK
8.020117835,5581,0x38,0x00,Write,ACK
8.020222320,5581,0x38,0x07,Write,ACK
8.020545195,5582,0x39,0x0C,Read,ACK
8.020650805,5582,0x39,0x35,Read,ACK
8.020756410,5582,0x39,0xE5,Read,NAK
8.024374035,5584,0x38,0x00,Write,ACK
8.024581315,5584,0x38,0x22,Write,ACK
8.024801270,5585,0x39,0x0C,Read,ACK
8.024906875,5585,0x39,0x05,Read,ACK
8.025012110,5585,0x39,0x59,Read,NAK
8.027117380,5587,0x38,0x00,Write,ACK
8.027221865,5587,0x38,0x07,Write,ACK
8.027441825,5588,0x39,0x0C,Read,ACK
8.027566355,5588,0x39,0x5B,Read,ACK
8.027672150,5588,0x39,0x80,Read,NAK
8.029951600,5590,0x38,0x00,Write,ACK
8.030056085,5590,0x38,0x22,Write,ACK
8.030276040,5591,0x39,0x0C,Read,ACK
8.030468080,5591,0x39,0x07,Read,ACK
8.030589430,5591,0x39,0x32,Read,NAK
8.033246155,5593,0x38,0x00,Write,ACK
8.033350640,5593,0x38,0x07,Write,ACK
8.033588645,5594,0x39,0x0C,Read,ACK
8.033694250,5594,0x39,0x64,Read,ACK
8.033886730,5594,0x39,0x2C,Read,NAK
8.035965960,5596,0x38,0x00,Write,ACK
8.036070445,5596,0x38,0x22,Write,ACK
8.036377335,5597,0x39,0x0C,Read,ACK
8.036498865,5597,0x39,0x05,Read,ACK
8.036604100,5597,0x39,0x8B,Read,NAK
8.038730420,5599,0x38,0x00,Write,ACK
8.038922025,5599,0x38,0x07,Write,ACK
8.039141980,5600,0x39,0x0C,Read,ACK
8.039247590,5600,0x39,0x3D,Read,ACK
8.039353380,5600,0x39,0x25,Read,NAK
8.042124460,5602,0x38,0x00,Write,ACK
8.042315690,5602,0x38,0x22,Write,ACK
8.042551510,5603,0x39,0x0C,Read,ACK
8.042657120,5603,0x39,0x04,Read,ACK
8.042762165,5603,0x39,0xEC,Read,NAK
8.045041490,5605,0x38,0x00,Write,ACK
8.045145975,5605,0x38,0x07,Write,ACK
8.045365930,5606,0x39,0x0C,Read,ACK
8.045471540,5606,0x39,0x28,Read,ACK
8.045682065,5606,0x39,0xF3,Read,NAK
8.048567370,5608,0x38,0x00,Write,ACK
8.048671855,5608,0x38,0x22,Write,ACK
8.048978680,5609,0x39,0x0C,Read,ACK
8.049084290,5609,0x39,0x03,Read,ACK
8.049189520,5609,0x39,0xD8,Read,NAK
8.052053965,5611,0x38,0x00,Write,ACK
8.052158450,5611,0x38,0x07,Write,ACK
8.052465405,5612,0x39,0x0C,Read,ACK
8.052586935,5612,0x39,0x47,Read,ACK
8.052692545,5612,0x39,0xDC,Read,NAK
8.054729430,5614,0x38,0x00,Write,ACK
8.054920535,5614,0x38,0x22,Write,ACK
8.055140490,5615,0x39,0x0C,Read,ACK
8.055246100,5615,0x39,0x04,Read,ACK
8.055351145,5615,0x39,0x7B,Read,NAK
8.058090060,5617,0x38,0x00,Write,ACK
8.058281415,5617,0x38,0x07,Write,ACK
8.058517295,5618,0x39,0x0C,Read,ACK
8.058622905,5618,0x39,0x38,Read,ACK
8.058728325,5618,0x39,0xBF,Read,NAK
8.060803370,5620,0x38,0x00,Write,ACK
8.060907855,5620,0x38,0x22,Write,ACK
8.061127810,5621,0x39,0x0C,Read,ACK
8.061233415,5621,0x39,0x04,Read,ACK
8.061338460,5621,0x39,0x63,Read,NAK
8.064296525,5623,0x38,0x00,Write,ACK
8.064401005,5623,0x38,0x07,Write,ACK
8.064636890,5624,0x39,0x0C,Read,ACK
8.064742495,5624,0x39,0x44,Read,ACK
8.064847730,5624,0x39,0x35,Read,NAK
8.066957310,5626,0x38,0x00,Write,ACK
8.067061795,5626,0x38,0x22,Write,ACK
8.067281750,5627,0x39,0x0C,Read,ACK
8.067387360,5627,0x39,0x04,Read,ACK
8.067598200,5627,0x39,0xEA,Read,NAK
8.069831000,5629,0x38,0x00,Write,ACK
8.069935480,5629,0x38,0x07,Write,ACK
8.070242185,5630,0x39,0x0C,Read,ACK
8.070347795,5630,0x39,0x4E,Read,ACK
8.070453400,5630,0x39,0x5E,Read,NAK
8.073084650,5632,0x38,0x00,Write,ACK
8.073189130,5632,0x38,0x22,Write,ACK
8.073513760,5633,0x39,0x0C,Read,ACK
8.073619365,5633,0x39,0x05,Read,ACK
8.073724600,5633,0x39,0xE8,Read,NAK
8.075933915,5635,0x38,0x00,Write,ACK
8.076038400,5635,0x38,0x07,Write,ACK
8.076258355,5636,0x39,0x0C,Read,ACK
8.076363965,5636,0x39,0x45,Read,ACK
8.076485370,5636,0x39,0x92,Read,NAK
8.078721670,5638,0x38,0x00,Write,ACK
8.078826155,5638,0x38,0x22,Write,ACK
8.079046110,5639,0x39,0x0C,Read,ACK
8.079151720,5639,0x39,0x05,Read,ACK
8.079343320,5639,0x39,0xC0,Read,NAK
8.082343165,5641,0x38,0x00,Write,ACK
8.082463570,5641,0x38,0x07,Write,ACK
8.082770650,5642,0x39,0x0C,Read,ACK
8.082876260,5642,0x39,0x34,Read,ACK
8.082981680,5642,0x39,0xE7,Read,NAK
8.085704855,5644,0x38,0x00,Write,ACK
8.085809340,5644,0x38,0x22,Write,ACK
8.086116040,5645,0x39,0x0C,Read,ACK
8.086221650,5645,0x39,0x06,Read,ACK
8.086326880,5645,0x39,0x59,Read,NAK
8.089062985,5647,0x38,0x00,Write,ACK
8.089167470,5647,0x38,0x07,Write,ACK
8.089492035,5648,0x39,0x0C,Read,ACK
8.089597640,5648,0x39,0x36,Read,ACK
8.089703250,5648,0x39,0x25,Read,NAK
8.092201725,5650,0x38,0x00,Write,ACK
8.092306205,5650,0x38,0x22,Write,ACK
8.092542025,5651,0x39,0x0C,Read,ACK
8.092647635,5651,0x39,0x05,Read,ACK
8.092839985,5651,0x39,0xA4,Read,NAK
8.094723430,5653,0x38,0x00,Write,ACK
8.094827910,5653,0x38,0x07,Write,ACK
8.095047870,5654,0x39,0x0C,Read,ACK
8.095153475,5654,0x39,0x3A,Read,ACK
8.095345645,5654,0x39,0x39,Read,NAK
8.098038155,5656,0x38,0x00,Write,ACK
8.098142640,5656,0x38,0x22,Write,ACK
8.098362595,5657,0x39,0x0C,Read,ACK
8.098484065,5657,0x39,0x05,Read,ACK
8.098675735,5657,0x39,0x77,Read,NAK
8.100675275,5659,0x38,0x00,Write,ACK
8.100779755,5659,0x38,0x07,Write,ACK
8.100999715,5660,0x39,0x0C,Read,ACK
8.101191880,5660,0x39,0x3F,Read,ACK
8.101297865,5660,0x39,0xDF,Read,NAK
8.104125775,5662,0x38,0x00,Write,ACK
8.104230255,5662,0x38,0x22,Write,ACK
8.104466140,5663,0x39,0x0C,Read,ACK
8.104658615,5663,0x39,0x04,Read,ACK
8.104763660,5663,0x39,0x78,Read,NAK
8.106769510,5665,0x38,0x00,Write,ACK
8.106873995,5665,0x38,0x07,Write,ACK
8.107180825,5666,0x39,0x0C,Read,ACK
8.107286430,5666,0x39,0x3A,Read,ACK
8.107392035,5666,0x39,0xEA,Read,NAK
8.110183660,5668,0x38,0x00,Write,ACK
8.110288145,5668,0x38,0x22,Write,ACK
8.110610650,5669,0x39,0x0C,Read,ACK
8.110716255,5669,0x39,0x05,Read,ACK
8.110821490,5669,0x39,0x63,Read,NAK
8.112894975,5671,0x38,0x00,Write,ACK
8.113122240,5671,0x38,0x07,Write,ACK
8.113342195,5672,0x39,0x0C,Read,ACK
8.113465850,5672,0x39,0x2B,Read,ACK
8.113571460,5672,0x39,0x3D,Read,NAK
8.116928215,5674,0x38,0x00,Write,ACK
8.117032700,5674,0x38,0x22,Write,ACK
8.117339030,5675,0x39,0x0C,Read,ACK
8.117462685,5675,0x39,0x04,Read,ACK
8.117567730,5675,0x39,0xB8,Read,NAK
8.120064140,5677,0x38,0x00,Write,ACK
8.120168625,5677,0x38,0x07,Write,ACK
8.120388585,5678,0x39,0x0C,Read,ACK
8.120597110,5678,0x39,0x34,Read,ACK
8.120702530,5678,0x39,0x49,Read,NAK
8.125049350,5680,0x38,0x00,Write,ACK
8.125153830,5680,0x38,0x22,Write,ACK
8.125373790,5681,0x39,0x0C,Read,ACK
8.125497445,5681,0x39,0x06,Read,ACK
8.125689235,5681,0x39,0xBD,Read,NAK
8.127792135,5683,0x38,0x00,Write,ACK
8.127896620,5683,0x38,0x07,Write,ACK
8.128203200,5684,0x39,0x0C,Read,ACK
8.128308805,5684,0x39,0x95,Read,ACK
8.128430340,5684,0x39,0x1D,Read,NAK
8.131102240,5686,0x38,0x00,Write,ACK
8.131206725,5686,0x38,0x22,Write,ACK
8.131532290,5687,0x39,0x0C,Read,ACK
8.131637895,5687,0x39,0x04,Read,ACK
8.131742940,5687,0x39,0x7D,Read,NAK
8.133932585,5689,0x38,0x00,Write,ACK
8.134123815,5689,0x38,0x07,Write,ACK
8.134343775,5690,0x39,0x0C,Read,ACK
8.134465305,5690,0x39,0x80,Read,ACK
8.134570350,5690,0x39,0x1D,Read,NAK
8.136738325,5692,0x38,0x00,Write,ACK
8.136842810,5692,0x38,0x22,Write,ACK
8.137062770,5693,0x39,0x0C,Read,ACK
8.137168375,5693,0x39,0x05,Read,ACK
8.137273605,5693,0x39,0xAC,Read,NAK
8.140024575,5695,0x38,0x00,Write,ACK
8.140129060,5695,0x38,0x07,Write,ACK
8.140349015,5696,0x39,0x0C,Read,ACK
8.140470550,5696,0x39,0x94,Read,ACK
8.140575970,5696,0x39,0x00,Read,NAK
8.142857730,5698,0x38,0x00,Write,ACK
8.142962215,5698,0x38,0x22,Write,ACK
8.143182175,5699,0x39,0x0C,Read,ACK
8.143374525,5699,0x39,0x04,Read,ACK
8.143498495,5699,0x39,0x26,Read,NAK
8.146218425,5701,0x38,0x00,Write,ACK
8.146322905,5701,0x38,0x07,Write,ACK
8.146558730,5702,0x39,0x0C,Read,ACK
8.146751145,5702,0x39,0x55,Read,ACK
8.146856750,5702,0x39,0x2E,Read,NAK
8.148806705,5704,0x38,0x00,Write,ACK
8.148911190,5704,0x38,0x22,Write,ACK
8.149218015,5705,0x39,0x0C,Read,ACK
8.149323625,5705,0x39,0x05,Read,ACK
8.149446905,5705,0x39,0x0E,Read,NAK
8.152292615,5707,0x38,0x00,Write,ACK
8.152412960,5707,0x38,0x07,Write,ACK
8.152719975,5708,0x39,0x0C,Read,ACK
8.152825585,5708,0x39,0x78,Read,ACK
8.152931190,5708,0x39,0xF1,Read,NAK
8.154967890,5710,0x38,0x00,Write,ACK
8.155159245,5710,0x38,0x22,Write,ACK
8.155379200,5711,0x39,0x0C,Read,ACK
8.155503795,5711,0x39,0x06,Read,ACK
8.155609030,5711,0x39,0x18,Read,NAK
8.158119180,5713,0x38,0x00,Write,ACK
8.158223665,5713,0x38,0x07,Write,ACK
8.158546165,5714,0x39,0x0C,Read,ACK
8.158651775,5714,0x39,0x7A,Read,ACK
8.158757570,5714,0x39,0x6A,Read,NAK
8.161405865,5716,0x38,0x00,Write,ACK
8.161510350,5716,0x38,0x22,Write,ACK
8.161730305,5717,0x39,0x0C,Read,ACK
8.161922350,5717,0x39,0x06,Read,ACK
8.162027580,5717,0x39,0xC5,Read,NAK
8.163775375,5719,0x38,0x00,Write,ACK
8.163879860,5719,0x38,0x07,Write,ACK
8.164099815,5720,0x39,0x0C,Read,ACK
8.164205425,5720,0x39,0x4B,Read,ACK
8.164413765,5720,0x39,0xF3,Read,NAK
8.166986180,5722,0x38,0x00,Write,ACK
8.167090665,5722,0x38,0x22,Write,ACK
8.167310620,5723,0x39,0x0C,Read,ACK
8.167435215,5723,0x39,0x04,Read,ACK
8.167540260,5723,0x39,0x80,Read,NAK
8.169797165,5725,0x38,0x00,Write,ACK
8.169901650,5725,0x38,0x07,Write,ACK
8.170121605,5726,0x39,0x0C,Read,ACK
8.170313835,5726,0x39,0x45,Read,ACK
8.170435180,5726,0x39,0xE1,Read,NAK
8.173093720,5728,0x38,0x00,Write,ACK
8.173198205,5728,0x38,0x22,Write,ACK
8.173436210,5729,0x39,0x0C,Read,ACK
8.173541815,5729,0x39,0x05,Read,ACK
8.173733735,5729,0x39,0xF8,Read,NAK
8.175858115,5731,0x38,0x00,Write,ACK
8.175962600,5731,0x38,0x07,Write,ACK
8.176269430,5732,0x39,0x0C,Read,ACK
8.176375035,5732,0x39,0x48,Read,ACK
8.176496195,5732,0x39,0x2C,Read,NAK
8.178754035,5734,0x38,0x00,Write,ACK
8.178858520,5734,0x38,0x22,Write,ACK
8.179078480,5735,0x39,0x0C,Read,ACK
8.179184085,5735,0x39,0x04,Read,ACK
8.179289130,5735,0x39,0x8D,Read,NAK
8.182215840,5737,0x38,0x00,Write,ACK
8.182320325,5737,0x38,0x07,Write,ACK
8.182556145,5738,0x39,0x0C,Read,ACK
8.182661750,5738,0x39,0x58,Read,ACK
8.182767170,5738,0x39,0xC6,Read,NAK
8.184807120,5740,0x38,0x00,Write,ACK
8.184911600,5740,0x38,0x22,Write,ACK
8.185131560,5741,0x39,0x0C,Read,ACK
8.185237165,5741,0x39,0x04,Read,ACK
8.185447130,5741,0x39,0x9F,Read,NAK
8.188197725,5743,0x38,0x00,Write,ACK
8.188302210,5743,0x38,0x07,Write,ACK
8.188538030,5744,0x39,0x0C,Read,ACK
8.188643635,5744,0x39,0x50,Read,ACK
8.188835615,5744,0x39,0x0A,Read,NAK
8.190868880,5746,0x38,0x00,Write,ACK
8.190973360,5746,0x38,0x22,Write,ACK
8.191193320,5747,0x39,0x0C,Read,ACK
8.191404595,5747,0x39,0x04,Read,ACK
8.191509640,5747,0x39,0xC9,Read,NAK
8.194052205,5749,0x38,0x00,Write,ACK
8.194156690,5749,0x38,0x07,Write,ACK
8.194392575,5750,0x39,0x0C,Read,ACK
8.194498180,5750,0x39,0x3B,Read,ACK
8.194690845,5750,0x39,0xE8,Read,NAK
8.197349070,5752,0x38,0x00,Write,ACK
8.197471605,5752,0x38,0x22,Write,ACK
8.197691560,5753,0x39,0x0C,Read,ACK
8.197797170,5753,0x39,0x04,Read,ACK
8.197902215,5753,0x39,0x9F,Read,NAK
8.200064695,5755,0x38,0x00,Write,ACK
8.200169175,5755,0x38,0x07,Write,ACK
8.200405060,5756,0x39,0x0C,Read,ACK
8.200633385,5756,0x39,0x3B,Read,ACK
8.200739180,5756,0x39,0xE8,Read,NAK
8.202929640,5758,0x38,0x00,Write,ACK
8.203121180,5758,0x38,0x22,Write,ACK
8.203341135,5759,0x39,0x0C,Read,ACK
8.203465730,5759,0x39,0x06,Read,ACK
8.203570960,5759,0x39,0x30,Read,NAK
8.205813195,5761,0x38,0x00,Write,ACK
8.205917675,5761,0x38,0x07,Write,ACK
8.206137635,5762,0x39,0x0C,Read,ACK
8.206243240,5762,0x39,0x51,Read,ACK
8.206348660,5762,0x39,0xF5,Read,NAK
8.208883355,5764,0x38,0x00,Write,ACK
8.209074775,5764,0x38,0x22,Write,ACK
8.209294730,5765,0x39,0x0C,Read,ACK
8.209418325,5765,0x39,0x05,Read,ACK
8.209523555,5765,0x39,0x82,Read,NAK
8.211861525,5767,0x38,0x00,Write,ACK
8.211966010,5767,0x38,0x07,Write,ACK
8.212185970,5768,0x39,0x0C,Read,ACK
8.212378195,5768,0x39,0x4D,Read,ACK
8.212499665,5768,0x39,0x50,Read,NAK
8.214588515,5770,0x38,0x00,Write,ACK
8.214692995,5770,0x38,0x22,Write,ACK
8.214999700,5771,0x39,0x0C,Read,ACK
8.215105310,5771,0x39,0x05,Read,ACK
8.215210540,5771,0x39,0x20,Read,NAK
8.217870205,5773,0x38,0x00,Write,ACK
8.217974685,5773,0x38,0x07,Write,ACK
8.218281765,5774,0x39,0x0C,Read,ACK
8.218403235,5774,0x39,0x27,Read,ACK
8.218508845,5774,0x39,0x07,Read,NAK
8.221117045,5776,0x38,0x00,Write,ACK
8.221221530,5776,0x38,0x22,Write,ACK
8.221459535,5777,0x39,0x0C,Read,ACK
8.221651450,5777,0x39,0x05,Read,ACK
8.221756685,5777,0x39,0x6D,Read,NAK
8.225231040,5779,0x38,0x00,Write,ACK
8.225335525,5779,0x38,0x07,Write,ACK
8.225573530,5780,0x39,0x0C,Read,ACK
8.225679135,5780,0x39,0x9B,Read,ACK
8.225871800,5780,0x39,0x2F,Read,NAK
8.227950905,5782,0x38,0x00,Write,ACK
8.228055390,5782,0x38,0x22,Write,ACK
8.228275350,5783,0x39,0x0C,Read,ACK
8.228483875,5783,0x39,0x05,Read,ACK
8.228589110,5783,0x39,0x61,Read,NAK
8.231250840,5785,0x38,0x21,Write,ACK
8.231325720,5785,0x38,0x77,Write,ACK
8.231419645,5785,0x38,0x00,Write,ACK
8.231494530,5785,0x38,0x35,Write,ACK
8.231760325,5787,0x38,0x21,Write,ACK
8.231835205,5787,0x38,0x2A,Write,ACK
8.231910085,5787,0x38,0x0F,Write,ACK
8.231984970,5787,0x38,0x80,Write,ACK
8.232158525,5789,0x38,0x21,Write,ACK
8.232233405,5789,0x38,0x2B,Write,ACK
8.232308285,5789,0x38,0x0D,Write,ACK
8.232399095,5789,0x38,0xD6,Write,ACK
8.232659890,5791,0x38,0x21,Write,ACK
8.232734780,5791,0x38,0x2C,Write,ACK
8.232809655,5791,0x38,0x0F,Write,ACK
8.232884535,5791,0x38,0x33,Write,ACK
8.233868780,5794,0x38,0x00,Write,ACK
8.233973260,5794,0x38,0x07,Write,ACK
8.234280090,5795,0x39,0x0C,Read,ACK
8.234401625,5795,0x39,0x90,Read,ACK
8.234506855,5795,0x39,0xC7,Read,NAK
8.237357500,5797,0x38,0x00,Write,ACK
8.237461980,5797,0x38,0x22,Write,ACK
8.237768685,5798,0x39,0x0C,Read,ACK
8.237874290,5798,0x39,0x06,Read,ACK
8.237979525,5798,0x39,0xF4,Read,NAK
8.240041270,5800,0x38,0x00,Write,ACK
8.240232620,5800,0x38,0x07,Write,ACK
8.240468505,5801,0x39,0x0C,Read,ACK
8.240574115,5801,0x39,0x72,Read,ACK
8.240679720,5801,0x39,0x6C,Read,NAK
8.242983780,5803,0x38,0x00,Write,ACK
8.243088260,5803,0x38,0x22,Write,ACK
8.243308220,5804,0x39,0x0C,Read,ACK
8.243432750,5804,0x39,0x05,Read,ACK
8.243624980,5804,0x39,0x39,Read,NAK
8.246120265,5806,0x38,0x00,Write,ACK
8.246224750,5806,0x38,0x07,Write,ACK
8.246460695,5807,0x39,0x0C,Read,ACK
8.246566300,5807,0x39,0x87,Read,ACK
8.246671910,5807,0x39,0x9C,Read,NAK
8.248724535,5809,0x38,0x00,Write,ACK
8.248829015,5809,0x38,0x22,Write,ACK
8.249048975,5810,0x39,0x0C,Read,ACK
8.249154580,5810,0x39,0x05,Read,ACK
8.249259815,5810,0x39,0x52,Read,NAK
8.252243045,5812,0x38,0x00,Write,ACK
8.252363450,5812,0x38,0x07,Write,ACK
8.252583410,5813,0x39,0x0C,Read,ACK
8.252689015,5813,0x39,0x7A,Read,ACK
8.252881560,5813,0x39,0x1A,Read,NAK
8.254907390,5815,0x38,0x00,Write,ACK
8.255011875,5815,0x38,0x22,Write,ACK
8.255231830,5816,0x39,0x0C,Read,ACK
8.255443295,5816,0x39,0x04,Read,ACK
8.255548340,5816,0x39,0x78,Read,NAK
8.257690525,5818,0x38,0x00,Write,ACK
8.257881755,5818,0x38,0x07,Write,ACK
8.258101710,5819,0x39,0x0C,Read,ACK
8.258207315,5819,0x39,0x64,Read,ACK
8.258312735,5819,0x39,0x8B,Read,NAK
8.262752670,5821,0x38,0x00,Write,ACK
8.262944275,5821,0x38,0x22,Write,ACK
8.263164230,5822,0x39,0x0C,Read,ACK
8.263269840,5822,0x39,0x04,Read,ACK
8.263393810,5822,0x39,0xDC,Read,NAK
8.265845005,5824,0x38,0x00,Write,ACK
8.265949485,5824,0x38,0x07,Write,ACK
8.266169445,5825,0x39,0x0C,Read,ACK
8.266419005,5825,0x39,0x65,Read,ACK
8.266524610,5825,0x39,0x0A,Read,NAK
8.268717130,5827,0x38,0x00,Write,ACK
8.268908360,5827,0x38,0x22,Write,ACK
8.269128320,5828,0x39,0x0C,Read,ACK
8.269233925,5828,0x39,0x06,Read,ACK
8.269357145,5828,0x39,0x34,Read,NAK
8.272471025,5830,0x38,0x00,Write,ACK
8.272575505,5830,0x38,0x07,Write,ACK
8.272795465,5831,0x39,0x0C,Read,ACK
8.272901070,5831,0x39,0x54,Read,ACK
8.273093175,5831,0x39,0xEF,Read,NAK
8.276651220,5833,0x38,0x00,Write,ACK
8.276755700,5833,0x38,0x22,Write,ACK
8.276975660,5834,0x39,0x0C,Read,ACK
8.277081265,5834,0x39,0x05,Read,ACK
8.277273055,5834,0x39,0x7D,Read,NAK
8.280017720,5836,0x38,0x00,Write,ACK
8.280122200,5836,0x38,0x07,Write,ACK
8.280358085,5837,0x39,0x0C,Read,ACK
8.280463690,5837,0x39,0x21,Read,ACK
8.280655670,5837,0x39,0xC3,Read,NAK
8.282817150,5839,0x38,0x00,Write,ACK
8.282921635,5839,0x38,0x22,Write,ACK
8.283228710,5840,0x39,0x0C,Read,ACK
8.283353305,5840,0x39,0x04,Read,ACK
8.283458350,5840,0x39,0x90,Read,NAK
8.286211130,5842,0x38,0x00,Write,ACK
8.286331540,5842,0x38,0x07,Write,ACK
8.286638615,5843,0x39,0x0C,Read,ACK
8.286744225,5843,0x39,0x33,Read,ACK
8.286849830,5843,0x39,0xDA,Read,NAK
8.288837570,5845,0x38,0x00,Write,ACK
8.288942050,5845,0x38,0x22,Write,ACK
8.289248570,5846,0x39,0x0C,Read,ACK
8.289372225,5846,0x39,0x04,Read,ACK
8.289477270,5846,0x39,0x6B,Read,NAK
8.291805810,5848,0x38,0x00,Write,ACK
8.291910290,5848,0x38,0x07,Write,ACK
8.292130250,5849,0x39,0x0C,Read,ACK
8.292235855,5849,0x39,0x34,Read,ACK
8.292443510,5849,0x39,0xBE,Read,NAK
8.294533610,5851,0x38,0x00,Write,ACK
8.294638090,5851,0x38,0x22,Write,ACK
8.294944730,5852,0x39,0x0C,Read,ACK
8.295050340,5852,0x39,0x05,Read,ACK
8.295155570,5852,0x39,0x6D,Read,NAK
8.297802060,5854,0x38,0x00,Write,ACK
8.297906540,5854,0x38,0x07,Write,ACK
8.298126500,5855,0x39,0x0C,Read,ACK
8.298334775,5855,0x39,0x45,Read,ACK
8.298440195,5855,0x39,0x23,Read,NAK
8.301078500,5857,0x38,0x00,Write,ACK
8.301182985,5857,0x38,0x22,Write,ACK
8.301421055,5858,0x39,0x0C,Read,ACK
8.301526660,5858,0x39,0x06,Read,ACK
8.301718325,5858,0x39,0xDA,Read,NAK
8.303909785,5860,0x38,0x00,Write,ACK
8.304014265,5860,0x38,0x07,Write,ACK
8.304336645,5861,0x39,0x0C,Read,ACK
8.304442255,5861,0x39,0x3F,Read,ACK
8.304548235,5861,0x39,0x8F,Read,NAK
8.306583060,5863,0x38,0x00,Write,ACK
8.306774230,5863,0x38,0x22,Write,ACK
8.306994185,5864,0x39,0x0C,Read,ACK
8.307099795,5864,0x39,0x05,Read,ACK
8.307205025,5864,0x39,0xBD,Read,NAK
8.310315660,5866,0x38,0x00,Write,ACK
8.310420140,5866,0x38,0x07,Write,ACK
8.310640100,5867,0x39,0x0C,Read,ACK
8.310745705,5867,0x39,0x47,Read,ACK
8.310938250,5867,0x39,0x1E,Read,NAK
8.313780270,5869,0x38,0x00,Write,ACK
8.313884755,5869,0x38,0x22,Write,ACK
8.314104715,5870,0x39,0x0C,Read,ACK
8.314210320,5870,0x39,0x05,Read,ACK
8.314418410,5870,0x39,0x5B,Read,NAK
8.316553475,5872,0x38,0x00,Write,ACK
8.316657955,5872,0x38,0x07,Write,ACK
8.316964910,5873,0x39,0x0C,Read,ACK
8.317070520,5873,0x39,0x7F,Read,ACK
8.317176685,5873,0x39,0xDD,Read,NAK
8.319893245,5875,0x38,0x00,Write,ACK
8.319997730,5875,0x38,0x22,Write,ACK
8.320320045,5876,0x39,0x0C,Read,ACK
8.320425650,5876,0x39,0x05,Read,ACK
8.320530885,5876,0x39,0x52,Read,NAK
8.324129585,5878,0x38,0x00,Write,ACK
8.324234065,5878,0x38,0x07,Write,ACK
8.324556820,5879,0x39,0x0C,Read,ACK
8.324662430,5879,0x39,0x7C,Read,ACK
8.324768220,5879,0x39,0x95,Read,NAK
8.326765265,5881,0x38,0x00,Write,ACK
8.326956370,5881,0x38,0x22,Write,ACK
8.327176325,5882,0x39,0x0C,Read,ACK
8.327300855,5882,0x39,0x05,Read,ACK
8.327406090,5882,0x39,0x5B,Read,NAK
8.330139070,5884,0x38,0x00,Write,ACK
8.330346600,5884,0x38,0x07,Write,ACK
8.330566560,5885,0x39,0x0C,Read,ACK
8.330672165,5885,0x39,0x4A,Read,ACK
8.330777585,5885,0x39,0x3F,Read,NAK
8.333020130,5887,0x38,0x00,Write,ACK
8.333124610,5887,0x38,0x22,Write,ACK
8.333362620,5888,0x39,0x0C,Read,ACK
8.333468225,5888,0x39,0x06,Read,ACK
8.333573460,5888,0x39,0x10,Read,NAK
8.335740810,5890,0x38,0x00,Write,ACK
8.335845290,5890,0x38,0x07,Write,ACK
8.336065250,5891,0x39,0x0C,Read,ACK
8.336273530,5891,0x39,0x48,Read,ACK
8.336378760,5891,0x39,0x09,Read,NAK
8.338495775,5893,0x38,0x00,Write,ACK
8.338600255,5893,0x38,0x22,Write,ACK
8.338906710,5894,0x39,0x0C,Read,ACK
8.339012320,5894,0x39,0x06,Read,ACK
8.339117550,5894,0x39,0x4A,Read,NAK
8.341888630,5896,0x38,0x00,Write,ACK
8.341993115,5896,0x38,0x07,Write,ACK
8.342316115,5897,0x39,0x0C,Read,ACK
8.342421725,5897,0x39,0x49,Read,ACK
8.342527145,5897,0x39,0x59,Read,NAK
8.344497895,5899,0x38,0x00,Write,ACK
8.344689185,5899,0x38,0x22,Write,ACK
8.344909145,5900,0x39,0x0C,Read,ACK
8.345014750,5900,0x39,0x04,Read,ACK
8.345119795,5900,0x39,0x91,Read,NAK
8.348206945,5902,0x38,0x00,Write,ACK
8.348327355,5902,0x38,0x07,Write,ACK
8.348547310,5903,0x39,0x0C,Read,ACK
8.348652920,5903,0x39,0x24,Read,ACK
8.348844835,5903,0x39,0x3D,Read,NAK
8.351637710,5905,0x38,0x00,Write,ACK
8.351742195,5905,0x38,0x22,Write,ACK
8.351962150,5906,0x39,0x0C,Read,ACK
8.352067760,5906,0x39,0x03,Read,ACK
8.352275785,5906,0x39,0xEC,Read,NAK
8.354578595,5908,0x38,0x00,Write,ACK
8.354769950,5908,0x38,0x07,Write,ACK
8.354989910,5909,0x39,0x0C,Read,ACK
8.355095515,5909,0x39,0x19,Read,ACK
8.355200935,5909,0x39,0xD5,Read,NAK
8.357956965,5911,0x38,0x00,Write,ACK
8.358148255,5911,0x38,0x22,Write,ACK
8.358384140,5912,0x39,0x0C,Read,ACK
8.358489745,5912,0x39,0x04,Read,ACK
8.358594790,5912,0x39,0xBA,Read,NAK
8.360634425,5914,0x38,0x00,Write,ACK
8.360738910,5914,0x38,0x07,Write,ACK
8.360958865,5915,0x39,0x0C,Read,ACK
8.361064475,5915,0x39,0x32,Read,ACK
8.361169895,5915,0x39,0x9D,Read,NAK
8.363569630,5917,0x38,0x00,Write,ACK
8.363674110,5917,0x38,0x22,Write,ACK
8.363894070,5918,0x39,0x0C,Read,ACK
8.364086360,5918,0x39,0x04,Read,ACK
8.364191405,5918,0x39,0x0C,Read,NAK
8.366796360,5920,0x38,0x00,Write,ACK
8.366900845,5920,0x38,0x07,Write,ACK
8.367120800,5921,0x39,0x0C,Read,ACK
8.367226410,5921,0x39,0x21,Read,ACK
8.367437185,5921,0x39,0x13,Read,NAK
8.369978315,5923,0x38,0x00,Write,ACK
8.370082795,5923,0x38,0x22,Write,ACK
8.370318680,5924,0x39,0x0C,Read,ACK
8.370424285,5924,0x39,0x04,Read,ACK
8.370529330,5924,0x39,0x75,Read,NAK
8.373839130,5926,0x38,0x11,Write,ACK
8.373914010,5926,0x38,0x4D,Write,ACK
8.373988890,5926,0x38,0x00,Write,ACK
8.374150895,5926,0x38,0x00,Write,ACK
8.374225710,5926,0x38,0x00,Write,ACK
8.374412695,5928,0x38,0x11,Write,ACK
8.374487575,5928,0x38,0x4A,Write,ACK
8.374562455,5928,0x38,0x7F,Write,ACK
8.374637340,5928,0x38,0xFF,Write,ACK
8.374712220,5928,0x38,0xFF,Write,ACK
8.374971895,5930,0x38,0x11,Write,ACK
8.375046775,5930,0x38,0x4D,Write,ACK
8.375121655,5930,0x38,0x05,Write,ACK
8.375196540,5930,0x38,0xCE,Write,ACK
8.375290405,5930,0x38,0x14,Write,ACK
8.375701770,5933,0x38,0x00,Write,ACK
8.375928850,5933,0x38,0x07,Write,ACK
8.376148805,5934,0x39,0x0C,Read,ACK
8.376270340,5934,0x39,0x2F,Read,ACK
8.376376130,5934,0x39,0x05,Read,NAK
8.379069580,5936,0x38,0x00,Write,ACK
8.379279860,5936,0x38,0x22,Write,ACK
8.379499815,5937,0x39,0x0C,Read,ACK
8.379605425,5937,0x39,0x05,Read,ACK
8.379710655,5937,0x39,0x0C,Read,NAK
8.382036885,5939,0x38,0x00,Write,ACK
8.382141370,5939,0x38,0x07,Write,ACK
8.382377250,5940,0x39,0x0C,Read,ACK
8.382569605,5940,0x39,0x22,Read,ACK
8.382674840,5940,0x39,0x81,Read,NAK
8.384628040,5942,0x38,0x00,Write,ACK
8.384732520,5942,0x38,0x22,Write,ACK
8.384952480,5943,0x39,0x0C,Read,ACK
8.385145085,5943,0x39,0x05,Read,ACK
8.385268365,5943,0x39,0x8E,Read,NAK
8.388236420,5945,0x38,0x00,Write,ACK
8.388427835,5945,0x38,0x07,Write,ACK
8.388647795,5946,0x39,0x0C,Read,ACK
8.388753400,5946,0x39,0x2C,Read,ACK
8.388858820,5946,0x39,0x2B,Read,NAK
8.392489180,5948,0x38,0x00,Write,ACK
8.392680225,5948,0x38,0x22,Write,ACK
8.392900180,5949,0x39,0x0C,Read,ACK
8.393005790,5949,0x39,0x04,Read,ACK
8.393110835,5949,0x39,0x58,Read,NAK
8.395855245,5951,0x38,0x00,Write,ACK
8.396046785,5951,0x38,0x07,Write,ACK
8.396282605,5952,0x39,0x0C,Read,ACK
8.396388215,5952,0x39,0x39,Read,ACK
8.396493820,5952,0x39,0x0E,Read,NAK
8.398684590,5954,0x38,0x00,Write,ACK
8.398789075,5954,0x38,0x22,Write,ACK
8.399009030,5955,0x39,0x0C,Read,ACK
8.399114640,5955,0x39,0x04,Read,ACK
8.399238670,5955,0x39,0x86,Read,NAK
8.402171250,5957,0x38,0x00,Write,ACK
8.402291660,5957,0x38,0x07,Write,ACK
8.402511615,5958,0x39,0x0C,Read,ACK
8.402617225,5958,0x39,0x7D,Read,ACK
8.402810075,5958,0x39,0x34,Read,NAK
8.404779140,5960,0x38,0x00,Write,ACK
8.404883625,5960,0x38,0x22,Write,ACK
8.405103580,5961,0x39,0x0C,Read,ACK
8.405313795,5961,0x39,0x05,Read,ACK
8.405419030,5961,0x39,0x4E,Read,NAK
8.407510250,5963,0x38,0x00,Write,ACK
8.407614730,5963,0x38,0x07,Write,ACK
8.407921185,5964,0x39,0x0C,Read,ACK
8.408026795,5964,0x39,0x80,Read,ACK
8.408131840,5964,0x39,0x5C,Read,NAK
8.410802805,5966,0x38,0x00,Write,ACK
8.410907290,5966,0x38,0x22,Write,ACK
8.411232790,5967,0x39,0x0C,Read,ACK
8.411338400,5967,0x39,0x07,Read,ACK
8.411443820,5967,0x39,0x36,Read,NAK
8.413761555,5969,0x38,0x00,Write,ACK
8.413866035,5969,0x38,0x07,Write,ACK
8.414085995,5970,0x39,0x0C,Read,ACK
8.414191600,5970,0x39,0x64,Read,ACK
8.414312945,5970,0x39,0x7B,Read,NAK
8.416467805,5972,0x38,0x00,Write,ACK
8.416572290,5972,0x38,0x22,Write,ACK
8.416792250,5973,0x39,0x0C,Read,ACK
8.416897855,5973,0x39,0x07,Read,ACK
8.417089770,5973,0x39,0x14,Read,NAK
8.419758240,5975,0x38,0x00,Write,ACK
8.419862725,5975,0x38,0x07,Write,ACK
8.420082680,5976,0x39,0x0C,Read,ACK
8.420188290,5976,0x39,0x70,Read,ACK
8.420309635,5976,0x39,0xDF,Read,NAK
8.422548365,5978,0x38,0x00,Write,ACK
8.422652850,5978,0x38,0x22,Write,ACK
8.422872805,5979,0x39,0x0C,Read,ACK
8.423065225,5979,0x39,0x07,Read,ACK
8.423170645,5979,0x39,0x05,Read,NAK
8.426140635,5981,0x38,0x00,Write,ACK
8.426347790,5981,0x38,0x07,Write,ACK
8.426567745,5982,0x39,0x0C,Read,ACK
8.426673350,5982,0x39,0x77,Read,ACK
8.426779335,5982,0x39,0x21,Read,NAK
8.430342870,5984,0x38,0x00,Write,ACK
8.430447355,5984,0x38,0x22,Write,ACK
8.430753935,5985,0x39,0x0C,Read,ACK
8.430859540,5985,0x39,0x04,Read,ACK
8.430964585,5985,0x39,0x9D,Read,NAK
8.434013205,5987,0x38,0x00,Write,ACK
8.434117685,5987,0x38,0x07,Write,ACK
8.434353570,5988,0x39,0x0C,Read,ACK
8.434459175,5988,0x39,0x42,Read,ACK
8.434564410,5988,0x39,0x79,Read,NAK
8.436694725,5990,0x38,0x00,Write,ACK
8.436799210,5990,0x38,0x22,Write,ACK
8.437019165,5991,0x39,0x0C,Read,ACK
8.437124775,5991,0x39,0x05,Read,ACK
8.437333490,5991,0x39,0xF0,Read,NAK
8.439481355,5993,0x38,0x00,Write,ACK
8.439585835,5993,0x38,0x07,Write,ACK
8.439892730,5994,0x39,0x0C,Read,ACK
8.439998335,5994,0x39,0xDD,Read,ACK
8.440104320,5994,0x39,0x37,Read,NAK
8.443032650,5996,0x38,0x00,Write,ACK
8.443243305,5996,0x38,0x22,Write,ACK
8.443463260,5997,0x39,0x0C,Read,ACK
8.443568870,5997,0x39,0x04,Read,ACK
8.443673915,5997,0x39,0xD1,Read,NAK
8.445865120,5999,0x38,0x00,Write,ACK
8.445969605,5999,0x38,0x07,Write,ACK
8.446205485,6000,0x39,0x0C,Read,ACK
8.446311095,6000,0x39,0x8C,Read,ACK
8.446416515,6000,0x39,0x9D,Read,NAK
8.448479505,6002,0x38,0x00,Write,ACK
8.448583990,6002,0x38,0x22,Write,ACK
8.448803945,6003,0x39,0x0C,Read,ACK
8.448909555,6003,0x39,0x05,Read,ACK
8.449101285,6003,0x39,0xDA,Read,NAK
8.451936690,6005,0x38,0x00,Write,ACK
8.452041170,6005,0x38,0x07,Write,ACK
8.452276990,6006,0x39,0x0C,Read,ACK
8.452468970,6006,0x39,0x63,Read,ACK
8.452574575,6006,0x39,0x5E,Read,NAK
8.454610280,6008,0x38,0x00,Write,ACK
8.454714760,6008,0x38,0x22,Write,ACK
8.455021155,6009,0x39,0x0C,Read,ACK
8.455126760,6009,0x39,0x05,Read,ACK
8.455250980,6009,0x39,0x1F,Read,NAK
8.457972720,6011,0x38,0x00,Write,ACK
8.458077200,6011,0x38,0x07,Write,ACK
8.458399955,6012,0x39,0x0C,Read,ACK
8.458505565,6012,0x39,0x4B,Read,ACK
8.458611170,6012,0x39,0x3B,Read,NAK
8.460602465,6014,0x38,0x00,Write,ACK
8.460706950,6014,0x38,0x22,Write,ACK
8.461013840,6015,0x39,0x0C,Read,ACK
8.461119450,6015,0x39,0x11,Read,ACK
8.461242795,6015,0x39,0xB1,Read,NAK
8.463812585,6017,0x38,0x00,Write,ACK
8.463917070,6017,0x38,0x07,Write,ACK
8.464137025,6018,0x39,0x0C,Read,ACK
8.464345120,6018,0x39,0x3F,Read,ACK
8.464451100,6018,0x39,0x20,Read,NAK
8.467211875,6020,0x38,0x00,Write,ACK
8.467316360,6020,0x38,0x22,Write,ACK
8.467622625,6021,0x39,0x0C,Read,ACK
8.467728230,6021,0x39,0x0E,Read,ACK
8.467833650,6021,0x39,0xB9,Read,NAK
8.469913130,6023,0x38,0x00,Write,ACK
8.470017615,6023,0x38,0x07,Write,ACK
8.470340245,6024,0x39,0x0C,Read,ACK
8.470445850,6024,0x39,0x4F,Read,ACK
8.470551645,6024,0x39,0xCA,Read,NAK
8.472715435,6026,0x38,0x00,Write,ACK
8.472819920,6026,0x38,0x22,Write,ACK
8.473039875,6027,0x39,0x0C,Read,ACK
8.473145485,6027,0x39,0x05,Read,ACK
8.473268640,6027,0x39,0x93,Read,NAK
8.475564080,6029,0x38,0x00,Write,ACK
8.475668565,6029,0x38,0x07,Write,ACK
8.475888520,6030,0x39,0x0C,Read,ACK
8.476080750,6030,0x39,0x52,Read,ACK
8.476202155,6030,0x39,0x25,Read,NAK
8.478831655,6032,0x38,0x00,Write,ACK
8.478936140,6032,0x38,0x22,Write,ACK
8.479175080,6033,0x39,0x0C,Read,ACK
8.479280690,6033,0x39,0x04,Read,ACK
8.479472730,6033,0x39,0x86,Read,NAK
8.481668245,6035,0x38,0x00,Write,ACK
8.481772730,6035,0x38,0x07,Write,ACK
8.482079685,6036,0x39,0x0C,Read,ACK
8.482201215,6036,0x39,0x5A,Read,ACK
8.482306825,6036,0x39,0x52,Read,NAK
8.484917835,6038,0x38,0x00,Write,ACK
8.485022320,6038,0x38,0x22,Write,ACK
8.485384295,6039,0x39,0x0C,Read,ACK
8.485489900,6039,0x39,0x05,Read,ACK
8.485595135,6039,0x39,0x3C,Read,NAK
8.487660685,6041,0x38,0x00,Write,ACK
8.487851980,6041,0x38,0x07,Write,ACK
8.488071935,6042,0x39,0x0C,Read,ACK
8.488193405,6042,0x39,0x91,Read,ACK
8.488298825,6042,0x39,0x85,Read,NAK
8.490504520,6044,0x38,0x00,Write,ACK
8.490609005,6044,0x38,0x22,Write,ACK
8.490828965,6045,0x39,0x0C,Read,ACK
8.490934570,6045,0x39,0x04,Read,ACK
8.491039615,6045,0x39,0xF9,Read,NAK
8.493938285,6047,0x38,0x00,Write,ACK
8.494042765,6047,0x38,0x07,Write,ACK
8.494278650,6048,0x39,0x0C,Read,ACK
8.494384255,6048,0x39,0x5F,Read,ACK
8.494577110,6048,0x39,0x57,Read,NAK
8.496537180,6050,0x38,0x00,Write,ACK
8.496641665,6050,0x38,0x22,Write,ACK
8.496861620,6051,0x39,0x0C,Read,ACK
8.496967230,6051,0x39,0x05,Read,ACK
8.497177255,6051,0x39,0xDC,Read,NAK
8.500146060,6053,0x38,0x00,Write,ACK
8.500250540,6053,0x38,0x07,Write,ACK
8.500556935,6054,0x39,0x0C,Read,ACK
8.500662540,6054,0x39,0x44,Read,ACK
8.500767775,6054,0x39,0x05,Read,NAK
8.503116675,6056,0x38,0x00,Write,ACK
8.503240140,6056,0x38,0x22,Write,ACK
8.503460100,6057,0x39,0x0C,Read,ACK
8.503565705,6057,0x39,0x05,Read,ACK
8.503670940,6057,0x39,0x2B,Read,NAK
8.505834790,6059,0x38,0x00,Write,ACK
8.505939275,6059,0x38,0x07,Write,ACK
8.506175095,6060,0x39,0x0C,Read,ACK
8.506367200,6060,0x39,0x3D,Read,ACK
8.506472995,6060,0x39,0x35,Read,NAK
8.508460045,6062,0x38,0x00,Write,ACK
8.508564525,6062,0x38,0x22,Write,ACK
8.508784485,6063,0x39,0x0C,Read,ACK
8.508976775,6063,0x39,0x06,Read,ACK
8.509082010,6063,0x39,0xB6,Read,NAK
8.511944395,6065,0x38,0x00,Write,ACK
8.512048875,6065,0x38,0x07,Write,ACK
8.512371255,6066,0x39,0x0C,Read,ACK
8.512476860,6066,0x39,0x32,Read,ACK
8.512582280,6066,0x39,0x5D,Read,NAK
8.514619670,6068,0x38,0x00,Write,ACK
8.514811210,6068,0x38,0x22,Write,ACK
8.515031170,6069,0x39,0x0C,Read,ACK
8.515155760,6069,0x39,0x04,Read,ACK
8.515260805,6069,0x39,0xDE,Read,NAK
8.517982610,6071,0x38,0x00,Write,ACK
8.518189515,6071,0x38,0x07,Write,ACK
8.518409470,6072,0x39,0x0C,Read,ACK
8.518515080,6072,0x39,0x46,Read,ACK
8.518620500,6072,0x39,0x30,Read,NAK
8.520697105,6074,0x38,0x00,Write,ACK
8.520801590,6074,0x38,0x22,Write,ACK
8.521021545,6075,0x39,0x0C,Read,ACK
8.521145205,6075,0x39,0x04,Read,ACK
8.521250250,6075,0x39,0x4A,Read,NAK
8.525979960,6077,0x38,0x00,Write,ACK
8.526084445,6077,0x38,0x07,Write,ACK
8.526320325,6078,0x39,0x0C,Read,ACK
8.526425935,6078,0x39,0x3A,Read,ACK
8.526618725,6078,0x39,0xFA,Read,NAK
8.528683715,6080,0x38,0x00,Write,ACK
8.528788200,6080,0x38,0x22,Write,ACK
8.529154295,6081,0x39,0x0C,Read,ACK
8.529259900,6081,0x39,0x04,Read,ACK
8.529364945,6081,0x39,0x5C,Read,NAK
8.531720965,6083,0x38,0x00,Write,ACK
8.531825450,6083,0x38,0x07,Write,ACK
8.532045405,6084,0x39,0x0C,Read,ACK
8.532166875,6084,0x39,0x42,Read,ACK
8.532272110,6084,0x39,0x59,Read,NAK
8.534396990,6086,0x38,0x00,Write,ACK
8.534501475,6086,0x38,0x22,Write,ACK
8.534721435,6087,0x39,0x0C,Read,ACK
8.534827040,6087,0x39,0x04,Read,ACK
8.535019080,6087,0x39,0xD5,Read,NAK
8.538018860,6089,0x38,0x00,Write,ACK
8.538139270,6089,0x38,0x07,Write,ACK
8.538446035,6090,0x39,0x0C,Read,ACK
8.538551645,6090,0x39,0x5D,Read,ACK
8.538657435,6090,0x39,0xBB,Read,NAK
8.541370185,6092,0x38,0x00,Write,ACK
8.541474670,6092,0x38,0x22,Write,ACK
8.541781495,6093,0x39,0x0C,Read,ACK
8.541887105,6093,0x39,0x04,Read,ACK
8.541992150,6093,0x39,0x1D,Read,NAK
8.544861715,6095,0x38,0x00,Write,ACK
8.544966200,6095,0x38,0x07,Write,ACK
8.545291325,6096,0x39,0x0C,Read,ACK
8.545396935,6096,0x39,0x76,Read,ACK
8.545502725,6096,0x39,0x04,Read,NAK
8.547668640,6098,0x38,0x00,Write,ACK
8.547773125,6098,0x38,0x22,Write,ACK
8.547993080,6099,0x39,0x0C,Read,ACK
8.548114675,6099,0x39,0x05,Read,ACK
8.548219910,6099,0x39,0x6E,Read,NAK
8.550393445,6101,0x38,0x00,Write,ACK
8.550497925,6101,0x38,0x07,Write,ACK
8.550717885,6102,0x39,0x0C,Read,ACK
8.550823490,6102,0x39,0x4A,Read,ACK
8.551051505,6102,0x39,0xB6,Read,NAK
8.553896215,6104,0x38,0x00,Write,ACK
8.554000695,6104,0x38,0x22,Write,ACK
8.554236580,6105,0x39,0x0C,Read,ACK
8.554429120,6105,0x39,0x05,Read,ACK
8.554534355,6105,0x39,0xBD,Read,NAK
8.556484680,6107,0x38,0x00,Write,ACK
8.556589165,6107,0x38,0x07,Write,ACK
8.556895555,6108,0x39,0x0C,Read,ACK
8.557001165,6108,0x39,0x3C,Read,ACK
8.557124880,6108,0x39,0xC7,Read,NAK
8.559863675,6110,0x38,0x00,Write,ACK
8.559968155,6110,0x38,0x22,Write,ACK
8.560291035,6111,0x39,0x0C,Read,ACK
8.560396640,6111,0x39,0x04,Read,ACK
8.560501685,6111,0x39,0xFD,Read,NAK
8.562635690,6113,0x38,0x00,Write,ACK
8.562826790,6113,0x38,0x07,Write,ACK
8.563046750,6114,0x39,0x0C,Read,ACK
8.563171345,6114,0x39,0x3E,Read,ACK
8.563277135,6114,0x39,0xC1,Read,NAK
8.565540790,6116,0x38,0x00,Write,ACK
8.565645270,6116,0x38,0x22,Write,ACK
8.565865230,6117,0x39,0x0C,Read,ACK
8.565970835,6117,0x39,0x07,Read,ACK
8.566178555,6117,0x39,0x7A,Read,NAK
8.568719870,6119,0x38,0x00,Write,ACK
8.568824355,6119,0x38,0x07,Write,ACK
8.569044310,6120,0x39,0x0C,Read,ACK
8.569167965,6120,0x39,0x48,Read,ACK
8.569273200,6120,0x39,0x2C,Read,NAK
8.571593995,6122,0x38,0x00,Write,ACK
8.571698480,6122,0x38,0x22,Write,ACK
8.571918435,6123,0x39,0x0C,Read,ACK
8.572126650,6123,0x39,0x03,Read,ACK
8.572231885,6123,0x39,0x91,Read,NAK
8.574637490,6125,0x38,0x00,Write,ACK
8.574741975,6125,0x38,0x07,Write,ACK
8.574961930,6126,0x39,0x0C,Read,ACK
8.575067540,6126,0x39,0x3E,Read,ACK
8.575192320,6126,0x39,0x52,Read,NAK
8.578235065,6128,0x38,0x00,Write,ACK
8.578339550,6128,0x38,0x22,Write,ACK
8.578559505,6129,0x39,0x0C,Read,ACK
8.578665115,6129,0x39,0x05,Read,ACK
8.578857405,6129,0x39,0x0C,Read,NAK
8.581773310,6134,0x38,0x00,Write,ACK
8.581877795,6134,0x38,0x07,Write,ACK
8.582198800,6135,0x39,0x0C,Read,ACK
8.582304405,6135,0x39,0x43,Read,ACK
8.582409825,6135,0x39,0x47,Read,NAK
8.584409305,6137,0x38,0x00,Write,ACK
8.584513785,6137,0x38,0x22,Write,ACK
8.584820555,6138,0x39,0x0C,Read,ACK
8.584926160,6138,0x39,0x04,Read,ACK
8.585031205,6138,0x39,0xCD,Read,NAK
8.587771810,6140,0x38,0x00,Write,ACK
8.587876290,6140,0x38,0x07,Write,ACK
8.588198795,6141,0x39,0x0C,Read,ACK
8.588304400,6141,0x39,0x5A,Read,ACK
8.588410010,6141,0x39,0x03,Read,NAK
8.590432780,6143,0x38,0x00,Write,ACK
8.590624385,6143,0x38,0x22,Write,ACK
8.590844345,6144,0x39,0x0C,Read,ACK
8.590949950,6144,0x39,0x04,Read,ACK
8.591054995,6144,0x39,0xC0,Read,NAK
8.593352060,6146,0x38,0x00,Write,ACK
8.593456545,6146,0x38,0x07,Write,ACK
8.593676500,6147,0x39,0x0C,Read,ACK
8.593782110,6147,0x39,0x3E,Read,ACK
8.593974585,6147,0x39,0x52,Read,NAK
8.596643870,6149,0x38,0x00,Write,ACK
8.596748350,6149,0x38,0x22,Write,ACK
8.596968310,6150,0x39,0x0C,Read,ACK
8.597092025,6150,0x39,0x03,Read,ACK
8.597197260,6150,0x39,0xDC,Read,NAK
8.599389090,6152,0x38,0x00,Write,ACK
8.599493575,6152,0x38,0x07,Write,ACK
8.599713530,6153,0x39,0x0C,Read,ACK
8.599905950,6153,0x39,0x23,Read,ACK
8.600011370,6153,0x39,0x10,Read,NAK
8.602383935,6155,0x38,0x00,Write,ACK
8.602488420,6155,0x38,0x22,Write,ACK
8.602708375,6156,0x39,0x0C,Read,ACK
8.602813985,6156,0x39,0x07,Read,ACK
8.602919405,6156,0x39,0x3D,Read,NAK
8.605538160,6158,0x38,0x00,Write,ACK
8.605642645,6158,0x38,0x07,Write,ACK
8.605949600,6159,0x39,0x0C,Read,ACK
8.606071070,6159,0x39,0x40,Read,ACK
8.606176115,6159,0x39,0xBD,Read,NAK
8.608784690,6161,0x38,0x00,Write,ACK
8.608889175,6161,0x38,0x22,Write,ACK
8.609213990,6162,0x39,0x0C,Read,ACK
8.609319595,6162,0x39,0x05,Read,ACK
8.609424830,6162,0x39,0xBB,Read,NAK
8.611939975,6164,0x38,0x00,Write,ACK
8.612060445,6164,0x38,0x07,Write,ACK
8.612280405,6165,0x39,0x0C,Read,ACK
8.612386010,6165,0x39,0x35,Read,ACK
8.612578490,6165,0x39,0xE5,Read,NAK
8.616342065,6167,0x38,0x00,Write,ACK
8.616446545,6167,0x38,0x22,Write,ACK
8.616794845,6168,0x39,0x0C,Read,ACK
8.616900450,6168,0x39,0x04,Read,ACK
8.617005495,6168,0x39,0x63,Read,NAK
8.619575790,6170,0x38,0x00,Write,ACK
8.619680275,6170,0x38,0x07,Write,ACK
8.619900230,6171,0x39,0x0C,Read,ACK
8.620108570,6171,0x39,0x37,Read,ACK
8.620214365,6171,0x39,0x62,Read,NAK
8.622279920,6173,0x38,0x00,Write,ACK
8.622384405,6173,0x38,0x22,Write,ACK
8.622690730,6174,0x39,0x0C,Read,ACK
8.622796340,6174,0x39,0x04,Read,ACK
8.622901385,6174,0x39,0x28,Read,NAK
8.625613630,6176,0x38,0x00,Write,ACK
8.625718115,6176,0x38,0x07,Write,ACK
8.626024630,6177,0x39,0x0C,Read,ACK
8.626146165,6177,0x39,0x5F,Read,ACK
8.626252145,6177,0x39,0xB6,Read,NAK
8.628279730,6179,0x38,0x00,Write,ACK
8.628384210,6179,0x38,0x22,Write,ACK
8.628690790,6180,0x39,0x0C,Read,ACK
8.628796400,6180,0x39,0x04,Read,ACK
8.628901445,6180,0x39,0x7F,Read,NAK
8.631729540,6182,0x38,0x00,Write,ACK
8.631920895,6182,0x38,0x07,Write,ACK
8.632156780,6183,0x39,0x0C,Read,ACK
8.632262385,6183,0x39,0x43,Read,ACK
8.632367805,6183,0x39,0x07,Read,NAK
8.634481260,6185,0x38,0x00,Write,ACK
8.634585740,6185,0x38,0x22,Write,ACK
8.634805700,6186,0x39,0x0C,Read,ACK
8.634911305,6186,0x39,0x06,Read,ACK
8.635016540,6186,0x39,0x45,Read,NAK
8.637844200,6188,0x38,0x00,Write,ACK
8.637948680,6188,0x38,0x07,Write,ACK
8.638184505,6189,0x39,0x0C,Read,ACK
8.638290110,6189,0x39,0x37,Read,ACK
8.638395905,6189,0x39,0x62,Read,NAK
8.640481130,6191,0x38,0x00,Write,ACK
8.640585615,6191,0x38,0x22,Write,ACK
8.640805570,6192,0x39,0x0C,Read,ACK
8.640911180,6192,0x39,0x06,Read,ACK
8.641016410,6192,0x39,0x26,Read,NAK
8.643321780,6194,0x38,0x00,Write,ACK
8.643426265,6194,0x38,0x07,Write,ACK
8.643732530,6195,0x39,0x0C,Read,ACK
8.643838135,6195,0x39,0x39,Read,ACK
8.643943745,6195,0x39,0x8D,Read,NAK
8.646671605,6197,0x38,0x00,Write,ACK
8.646776090,6197,0x38,0x22,Write,ACK
8.647101780,6198,0x39,0x0C,Read,ACK
8.647207385,6198,0x39,0x04,Read,ACK
8.647312430,6198,0x39,0xE1,Read,NAK
8.649705735,6200,0x38,0x00,Write,ACK
8.649810215,6200,0x38,0x07,Write,ACK
8.650046100,6201,0x39,0x0C,Read,ACK
8.650151705,6201,0x39,0x54,Read,ACK
8.650257125,6201,0x39,0xDF,Read,NAK
8.653174595,6203,0x38,0x00,Write,ACK
8.653279075,6203,0x38,0x22,Write,ACK
8.653499035,6204,0x39,0x0C,Read,ACK
8.653604640,6204,0x39,0x04,Read,ACK
8.653796185,6204,0x39,0xE1,Read,NAK
8.656533100,6206,0x38,0x00,Write,ACK
8.656637585,6206,0x38,0x07,Write,ACK
8.656857540,6207,0x39,0x0C,Read,ACK
8.656963150,6207,0x39,0x51,Read,ACK
8.657173425,6207,0x39,0x57,Read,NAK
8.659317605,6209,0x38,0x00,Write,ACK
8.659422090,6209,0x38,0x22,Write,ACK
8.659728545,6210,0x39,0x0C,Read,ACK
8.659834150,6210,0x39,0x05,Read,ACK
8.659939385,6210,0x39,0x2B,Read,NAK
8.662762360,6212,0x38,0x00,Write,ACK
8.662866845,6212,0x38,0x07,Write,ACK
8.663192595,6213,0x39,0x0C,Read,ACK
8.663298200,6213,0x39,0x64,Read,ACK
8.663403620,6213,0x39,0x10,Read,NAK
8.665567785,6215,0x38,0x00,Write,ACK
8.665672270,6215,0x38,0x22,Write,ACK
8.665892230,6216,0x39,0x0C,Read,ACK
8.665997835,6216,0x39,0x04,Read,ACK
8.666118745,6216,0x39,0x9B,Read,NAK
8.668710835,6218,0x38,0x00,Write,ACK
8.668815315,6218,0x38,0x07,Write,ACK
8.669140130,6219,0x39,0x0C,Read,ACK
8.669245740,6219,0x39,0x6F,Read,ACK
8.669351720,6219,0x39,0xD2,Read,NAK
8.671654215,6221,0x38,0x00,Write,ACK
8.671758700,6221,0x38,0x22,Write,ACK
8.671978660,6222,0x39,0x0C,Read,ACK
8.672100190,6222,0x39,0x04,Read,ACK
8.672292105,6222,0x39,0x89,Read,NAK
8.674312630,6224,0x38,0x00,Write,ACK
8.674417115,6224,0x38,0x07,Write,ACK
8.674637075,6225,0x39,0x0C,Read,ACK
8.674829175,6225,0x39,0x41,Read,ACK
8.674934410,6225,0x39,0x6B,Read,NAK
8.677769690,6227,0x38,0x00,Write,ACK
8.677874170,6227,0x38,0x22,Write,ACK
8.678196425,6228,0x39,0x0C,Read,ACK
8.678302035,6228,0x39,0x05,Read,ACK
8.678407265,6228,0x39,0xFA,Read,NAK
8.680343105,6230,0x38,0x00,Write,ACK
8.680447590,6230,0x38,0x07,Write,ACK
8.680754480,6231,0x39,0x0C,Read,ACK
8.680860085,6231,0x39,0x4D,Read,ACK
8.680965695,6231,0x39,0x8F,Read,NAK
8.683385415,6233,0x38,0x00,Write,ACK
8.683489895,6233,0x38,0x22,Write,ACK
8.683709855,6234,0x39,0x0C,Read,ACK
8.683815460,6234,0x39,0x05,Read,ACK
8.683920695,6234,0x39,0x52,Read,NAK
8.686864015,6236,0x38,0x00,Write,ACK
8.686968500,6236,0x38,0x07,Write,ACK
8.687207380,6237,0x39,0x0C,Read,ACK
8.687312990,6237,0x39,0x41,Read,ACK
8.687504655,6237,0x39,0x79,Read,NAK
8.690343745,6239,0x38,0x00,Write,ACK
8.690448225,6239,0x38,0x22,Write,ACK
8.690668185,6240,0x39,0x0C,Read,ACK
8.690860415,6240,0x39,0x04,Read,ACK
8.690965460,6240,0x39,0xDD,Read,NAK
8.693863315,6242,0x38,0x00,Write,ACK
8.693967800,6242,0x38,0x07,Write,ACK
8.694290550,6243,0x39,0x0C,Read,ACK
8.694396160,6243,0x39,0x4F,Read,ACK
8.694501955,6243,0x39,0xAB,Read,NAK
8.696452345,6245,0x38,0x00,Write,ACK
8.696556825,6245,0x38,0x22,Write,ACK
8.696863720,6246,0x39,0x0C,Read,ACK
8.696969325,6246,0x39,0x05,Read,ACK
8.697092605,6246,0x39,0x03,Read,NAK
8.699376430,6248,0x38,0x00,Write,ACK
8.699480915,6248,0x38,0x07,Write,ACK
8.699700870,6249,0x39,0x0C,Read,ACK
8.699806480,6249,0x39,0x81,Read,ACK
8.699911710,6249,0x39,0xE9,Read,NAK
8.702700275,6251,0x38,0x00,Write,ACK
8.702804760,6251,0x38,0x22,Write,ACK
8.703043640,6252,0x39,0x0C,Read,ACK
8.703149250,6252,0x39,0x05,Read,ACK
8.703254480,6252,0x39,0xAF,Read,NAK
8.705527690,6254,0x38,0x00,Write,ACK
8.705632170,6254,0x38,0x07,Write,ACK
8.705852130,6255,0x39,0x0C,Read,ACK
8.706060530,6255,0x39,0x5A,Read,ACK
8.706166140,6255,0x39,0x95,Read,NAK
8.708254235,6257,0x38,0x00,Write,ACK
8.708358720,6257,0x38,0x22,Write,ACK
8.708665360,6258,0x39,0x0C,Read,ACK
8.708770970,6258,0x39,0x05,Read,ACK
8.708876200,6258,0x39,0xBD,Read,NAK
8.711652775,6260,0x38,0x00,Write,ACK
8.711757260,6260,0x38,0x07,Write,ACK
8.712079700,6261,0x39,0x0C,Read,ACK
8.712185310,6261,0x39,0x27,Read,ACK
8.712290915,6261,0x39,0x76,Read,NAK
8.715059685,6263,0x38,0x00,Write,ACK
8.715251160,6263,0x38,0x22,Write,ACK
8.715471120,6264,0x39,0x0C,Read,ACK
8.715576725,6264,0x39,0x05,Read,ACK
8.715681960,6264,0x39,0x7C,Read,NAK
8.718393335,6266,0x38,0x00,Write,ACK
8.718497815,6266,0x38,0x07,Write,ACK
8.718804210,6267,0x39,0x0C,Read,ACK
8.718909815,6267,0x39,0x35,Read,ACK
8.719034410,6267,0x39,0x66,Read,NAK
8.721895170,6269,0x38,0x00,Write,ACK
8.722102075,6269,0x38,0x22,Write,ACK
8.722322030,6270,0x39,0x0C,Read,ACK
8.722427640,6270,0x39,0x09,Read,ACK
8.722532870,6270,0x39,0x21,Read,NAK
8.724828685,6272,0x38,0x00,Write,ACK
8.724933170,6272,0x38,0x07,Write,ACK
8.725171175,6273,0x39,0x0C,Read,ACK
8.725363905,6273,0x39,0x3C,Read,ACK
8.725469510,6273,0x39,0xA6,Read,NAK
8.728347135,6275,0x38,0x00,Write,ACK
8.728451615,6275,0x38,0x22,Write,ACK
8.728758630,6276,0x39,0x0C,Read,ACK
8.728864240,6276,0x39,0x03,Read,ACK
8.728987520,6276,0x39,0xD7,Read,NAK
8.731833605,6278,0x38,0x00,Write,ACK
8.731938085,6278,0x38,0x07,Write,ACK
8.732260340,6279,0x39,0x0C,Read,ACK
8.732365950,6279,0x39,0x3D,Read,ACK
8.732471745,6279,0x39,0x54,Read,NAK
8.734497575,6281,0x38,0x00,Write,ACK
8.734688995,6281,0x38,0x22,Write,ACK
8.734908950,6282,0x39,0x0C,Read,ACK
8.735033545,6282,0x39,0x04,Read,ACK
8.735138590,6282,0x39,0x79,Read,NAK
8.737408860,6284,0x38,0x00,Write,ACK
8.737513345,6284,0x38,0x07,Write,ACK
8.737733300,6285,0x39,0x0C,Read,ACK
8.737838910,6285,0x39,0x7A,Read,ACK
8.738047250,6285,0x39,0xC9,Read,NAK
8.740578825,6287,0x38,0x00,Write,ACK
8.740683305,6287,0x38,0x22,Write,ACK
8.740903265,6288,0x39,0x0C,Read,ACK
8.741026920,6288,0x39,0x03,Read,ACK
8.741132155,6288,0x39,0x81,Read,NAK
8.743417790,6290,0x38,0x00,Write,ACK
8.743522270,6290,0x38,0x07,Write,ACK
8.743742230,6291,0x39,0x0C,Read,ACK
8.743935020,6291,0x39,0x5A,Read,ACK
8.744056550,6291,0x39,0xD1,Read,NAK
8.746188430,6293,0x38,0x00,Write,ACK
8.746292915,6293,0x38,0x22,Write,ACK
8.746600055,6294,0x39,0x0C,Read,ACK
8.746705660,6294,0x39,0x04,Read,ACK
8.746810705,6294,0x39,0xD3,Read,NAK
8.749481360,6296,0x38,0x00,Write,ACK
8.749585845,6296,0x38,0x07,Write,ACK
8.749892610,6297,0x39,0x0C,Read,ACK
8.750014145,6297,0x39,0x25,Read,ACK
8.750119565,6297,0x39,0x8A,Read,NAK
8.751520695,6299,0x45,0x3F,Read,ACK
8.751589765,6299,0x45,0xFF,Read,ACK
8.751658835,6299,0x45,0xFF,Read,ACK
8.752647140,6302,0x38,0x00,Write,ACK
8.752751620,6302,0x38,0x22,Write,ACK
8.752989565,6303,0x39,0x0C,Read,ACK
8.753182170,6303,0x39,0x08,Read,ACK
8.753287215,6303,0x39,0xF1,Read,NAK
8.755399045,6305,0x38,0x00,Write,ACK
8.755503530,6305,0x38,0x07,Write,ACK
8.755810105,6306,0x39,0x0C,Read,ACK
8.755915715,6306,0x39,0x3E,Read,ACK
8.756037435,6306,0x39,0x42,Read,NAK
8.758267360,6308,0x38,0x00,Write,ACK
8.758371845,6308,0x38,0x22,Write,ACK
8.758591800,6309,0x39,0x0C,Read,ACK
8.758697410,6309,0x39,0x04,Read,ACK
8.758802455,6309,0x39,0x3C,Read,NAK
8.761861690,6311,0x38,0x00,Write,ACK
8.761982035,6311,0x38,0x07,Write,ACK
8.762201990,6312,0x39,0x0C,Read,ACK
8.762307600,6312,0x39,0x43,Read,ACK
8.762499890,6312,0x39,0x57,Read,NAK
8.765216385,6314,0x38,0x00,Write,ACK
8.765320870,6314,0x38,0x22,Write,ACK
8.765540825,6315,0x39,0x0C,Read,ACK
8.765646435,6315,0x39,0x04,Read,ACK
8.765838225,6315,0x39,0x88,Read,NAK
8.768582635,6317,0x38,0x00,Write,ACK
8.768687120,6317,0x38,0x07,Write,ACK
8.768907075,6318,0x39,0x0C,Read,ACK
8.769030735,6318,0x39,0x5C,Read,ACK
8.769222835,6318,0x39,0xBD,Read,NAK
8.771505410,6320,0x38,0x00,Write,ACK
8.771696890,6320,0x38,0x22,Write,ACK
8.771916850,6321,0x39,0x0C,Read,ACK
8.772038320,6321,0x39,0x05,Read,ACK
8.772143550,6321,0x39,0x91,Read,NAK
8.774253820,6323,0x38,0x00,Write,ACK
8.774358305,6323,0x38,0x07,Write,ACK
8.774578260,6324,0x39,0x0C,Read,ACK
8.774683870,6324,0x39,0x59,Read,ACK
8.774789475,6324,0x39,0x94,Read,NAK
8.777673030,6326,0x38,0x00,Write,ACK
8.777777515,6326,0x38,0x22,Write,ACK
8.778013395,6327,0x39,0x0C,Read,ACK
8.778119005,6327,0x39,0x03,Read,ACK
8.778224235,6327,0x39,0xF9,Read,NAK
8.780257815,6329,0x38,0x00,Write,ACK
8.780362295,6329,0x38,0x07,Write,ACK
8.780582255,6330,0x39,0x0C,Read,ACK
8.780687860,6330,0x39,0x2D,Read,ACK
8.780793470,6330,0x39,0x39,Read,NAK
8.783214250,6332,0x38,0x00,Write,ACK
8.783318735,6332,0x38,0x22,Write,ACK
8.783625810,6333,0x39,0x0C,Read,ACK
8.783731420,6333,0x39,0x04,Read,ACK
8.783836465,6333,0x39,0x40,Read,NAK
8.786453035,6335,0x38,0x00,Write,ACK
8.786557520,6335,0x38,0x07,Write,ACK
8.786864225,6336,0x39,0x0C,Read,ACK
8.786988815,6336,0x39,0x4E,Read,ACK
8.787094420,6336,0x39,0x24,Read,NAK
8.789381180,6338,0x38,0x00,Write,ACK
8.789485665,6338,0x38,0x22,Write,ACK
8.789705625,6339,0x39,0x0C,Read,ACK
8.789811230,6339,0x39,0x06,Read,ACK
8.789932325,6339,0x39,0x86,Read,NAK
8.792794460,6341,0x38,0x00,Write,ACK
8.792898940,6341,0x38,0x07,Write,ACK
8.793136950,6342,0x39,0x0C,Read,ACK
8.793242555,6342,0x39,0x70,Read,ACK
8.793347975,6342,0x39,0xEF,Read,NAK
8.795653910,6344,0x38,0x00,Write,ACK
8.795758390,6344,0x38,0x22,Write,ACK
8.795994275,6345,0x39,0x0C,Read,ACK
8.796186440,6345,0x39,0x05,Read,ACK
8.796291675,6345,0x39,0x24,Read,NAK
8.800758960,6347,0x38,0x00,Write,ACK
8.800863445,6347,0x38,0x07,Write,ACK
8.801188510,6348,0x39,0x0C,Read,ACK
8.801294115,6348,0x39,0x78,Read,ACK
8.801399725,6348,0x39,0xED,Read,NAK
8.804649000,6350,0x38,0x00,Write,ACK
8.804753485,6350,0x38,0x22,Write,ACK
8.804991490,6351,0x39,0x0C,Read,ACK
8.805097095,6351,0x39,0x05,Read,ACK
8.805202330,6351,0x39,0x9F,Read,NAK
8.808360985,6353,0x38,0x00,Write,ACK
8.808465470,6353,0x38,0x07,Write,ACK
8.808772300,6354,0x39,0x0C,Read,ACK
8.808877905,6354,0x39,0x46,Read,ACK
8.809001315,6354,0x39,0xAF,Read,NAK
8.809464030,6356,0x38,0x11,Write,ACK
8.809625530,6356,0x38,0x4D,Write,ACK
8.809700410,6356,0x38,0x00,Write,ACK
8.809775290,6356,0x38,0x00,Write,ACK
8.809850175,6356,0x38,0x00,Write,ACK
8.810037280,6358,0x38,0x11,Write,ACK
8.810112160,6358,